(1728485391.618585) vcan0 161#000005500108003A
(1728485391.618588) vcan0 191#010010A1410029
(1728485391.620204) vcan0 164#0000C01AA8000022
(1728485391.620212) vcan0 133#0000000089
(1728485391.620215) vcan0 136#000200000000000C
(1728485391.620217) vcan0 13A#000000000000000A
(1728485391.620219) vcan0 13F#0000000500000000
(1728485391.620221) vcan0 17C#0000000010000003
(1728485391.620223) vcan0 18E#00004D
(1728485391.620225) vcan0 1CF#80050000000F
(1728485391.621543) vcan0 1DC#0200000C
(1728485391.621554) vcan0 183#0000000C0000100F
(1728485391.623221) vcan0 143#6B6B00C2
(1728485391.625063) vcan0 095#800007F400000035
(1728485391.625073) vcan0 1A4#000000080000002F
(1728485391.625075) vcan0 1AA#7FFF000000006720
(1728485391.627001) vcan0 1B0#000F0000000166
(1728485391.627007) vcan0 1D0#000000000000000A
(1728485391.627009) vcan0 166#D0320009
(1728485391.628048) vcan0 158#000000000000000A
(1728485391.630497) vcan0 244#000000015E
(1728485391.630516) vcan0 161#000005500108000D
(1728485391.630521) vcan0 191#010010A1410038
(1728485391.630523) vcan0 039#001B
(1728485391.630525) vcan0 133#0000000098
(1728485391.630529) vcan0 136#000200000000001B
(1728485391.630531) vcan0 13A#0000000000000019
(1728485391.630533) vcan0 13F#000000050000001F
(1728485391.630535) vcan0 164#0000C01AA8000031
(1728485391.630539) vcan0 17C#0000000010000012
(1728485391.630542) vcan0 18E#00005C
(1728485391.631691) vcan0 183#0000001000001019
(1728485391.632750) vcan0 143#6B6B00D1
(1728485391.635853) vcan0 095#800007F400000008
(1728485391.637762) vcan0 166#D0320018
(1728485391.639310) vcan0 158#0000000000000019
(1728485391.639324) vcan0 161#000005500108001C
(1728485391.639327) vcan0 191#010010A141000B
(1728485391.639329) vcan0 133#00000000A7
(1728485391.639331) vcan0 136#000200000000002A
(1728485391.639338) vcan0 13A#0000000000000028
(1728485391.640459) vcan0 13F#000000050000002E
(1728485391.640466) vcan0 164#0000C01AA8000004
(1728485391.640468) vcan0 17C#0000000010000021
(1728485391.640472) vcan0 18E#00006B
(1728485391.640474) vcan0 1CF#80050000001E
(1728485391.640476) vcan0 1DC#0200001B
(1728485391.641234) vcan0 244#00000001BA
(1728485391.641702) vcan0 183#0000000C0000102D
(1728485391.642719) vcan0 143#6B6B00E0
(1728485391.642726) vcan0 039#002A
(1728485391.644483) vcan0 305#8035
(1728485391.644489) vcan0 095#800007F400000017
(1728485391.645505) vcan0 1A4#000000080000003E
(1728485391.645511) vcan0 1AA#7FFF00000000673F
(1728485391.645515) vcan0 1B0#000F0000000175
(1728485391.645517) vcan0 1D0#000000000000000A
(1728485391.647430) vcan0 166#D0320027
(1728485391.648446) vcan0 158#0000000000000028
(1728485391.648452) vcan0 161#000005500108002B
(1728485391.648455) vcan0 191#010010A141001A
(1728485391.649465) vcan0 133#00000000B6
(1728485391.649471) vcan0 136#0002000000000039
(1728485391.649473) vcan0 13A#0000000000000037
(1728485391.649475) vcan0 13F#000000050000003D
(1728485391.651305) vcan0 164#0000C01AA8000013
(1728485391.651311) vcan0 17C#0000000010000030
(1728485391.651314) vcan0 18E#00007A
(1728485391.651317) vcan0 294#040B0002CF5A001D
(1728485391.651319) vcan0 21E#03E83745220610
(1728485391.653258) vcan0 183#000000090000103F
(1728485391.653264) vcan0 143#6B6B00FF
(1728485391.653282) vcan0 244#0000000100
(1728485391.654463) vcan0 095#800007F400000026
(1728485391.656722) vcan0 166#D0320036
(1728485391.658418) vcan0 039#0039
(1728485391.658435) vcan0 158#0000000000000037
(1728485391.658438) vcan0 161#000005500108003A
(1728485391.658440) vcan0 191#010010A1410029
(1728485391.660289) vcan0 133#0000000089
(1728485391.660301) vcan0 136#000200000000000C
(1728485391.660303) vcan0 13A#000000000000000A
(1728485391.660305) vcan0 13F#0000000500000000
(1728485391.660308) vcan0 164#0000C01AA9000021
(1728485391.660310) vcan0 17C#0000000010000003
(1728485391.660312) vcan0 18E#00004D
(1728485391.660315) vcan0 1CF#80050000002D
(1728485391.662205) vcan0 1DC#0200002A
(1728485391.662211) vcan0 183#0000000E0000100D
(1728485391.662213) vcan0 143#6B6B00C2
(1728485391.663225) vcan0 333#0000000000003C
(1728485391.664166) vcan0 244#00000001D8
(1728485391.664310) vcan0 095#800007F400000035
(1728485391.666127) vcan0 1A4#0000000800000001
(1728485391.666138) vcan0 1AA#7FFF000000006801
(1728485391.666140) vcan0 1B0#000F0000000148
(1728485391.666142) vcan0 1D0#000000000000000A
(1728485391.668104) vcan0 166#D0320009
(1728485391.668114) vcan0 158#000000000000000A
(1728485391.669998) vcan0 161#000005500108000D
(1728485391.670005) vcan0 191#010010A1410038
(1728485391.670007) vcan0 133#0000000098
(1728485391.670009) vcan0 136#000200000000001B
(1728485391.670011) vcan0 13A#0000000000000019
(1728485391.670013) vcan0 13F#000000050000001F
(1728485391.670016) vcan0 164#0000C01AA8000031
(1728485391.670018) vcan0 17C#0000000010000012
(1728485391.670020) vcan0 18E#00005C
(1728485391.671061) vcan0 039#000C
(1728485391.673038) vcan0 183#0000000A00001010
(1728485391.673093) vcan0 143#6B6B00D1
(1728485391.674873) vcan0 095#800007F400000008
(1728485391.675965) vcan0 244#0000000127
(1728485391.677125) vcan0 166#D0320018
(1728485391.678829) vcan0 158#0000000000000019
(1728485391.678837) vcan0 161#000005500108001C
(1728485391.678840) vcan0 191#010010A141000B
(1728485391.678843) vcan0 133#00000000A7
(1728485391.680712) vcan0 136#000200000000002A
(1728485391.680724) vcan0 13A#0000000000000028
(1728485391.680726) vcan0 13F#000000050000002E
(1728485391.680728) vcan0 164#0000C01AA8000004
(1728485391.680730) vcan0 17C#0000000010000021
(1728485391.680732) vcan0 18E#00006B
(1728485391.680734) vcan0 1CF#80050000003C
(1728485391.680736) vcan0 1DC#02000039
(1728485391.680741) vcan0 320#000030
(1728485391.682640) vcan0 324#7465000000000E38
(1728485391.682646) vcan0 37C#FD00FD00097F0038
(1728485391.682648) vcan0 40C#0000000004000013
(1728485391.682650) vcan0 183#0000000F0000102A
(1728485391.682652) vcan0 454#23EF18
(1728485391.682654) vcan0 143#6B6B00E0
(1728485391.684682) vcan0 095#800007F400000017
(1728485391.685735) vcan0 1A4#0000000800000010
(1728485391.685745) vcan0 1AA#7FFF000000006810
(1728485391.685748) vcan0 1B0#000F0000000157
(1728485391.685750) vcan0 1D0#000000000000000A
(1728485391.687590) vcan0 166#D0320027
(1728485391.687620) vcan0 244#0000000100
(1728485391.688657) vcan0 158#0000000000000028
(1728485391.688668) vcan0 161#000005500108002B
(1728485391.688671) vcan0 191#010010A141001A
(1728485391.688673) vcan0 133#00000000B6
(1728485391.690452) vcan0 136#0002000000000039
(1728485391.690460) vcan0 13A#0000000000000037
(1728485391.690462) vcan0 13F#000000050000003D
(1728485391.690465) vcan0 164#0000C01AA9000012
(1728485391.690467) vcan0 17C#0000000010000030
(1728485391.690469) vcan0 18E#00007A
(1728485391.690471) vcan0 294#040B0002CF5A002C
(1728485391.690473) vcan0 039#001B
(1728485391.692374) vcan0 21E#03E8374522062F
(1728485391.692378) vcan0 183#0000001300001034
(1728485391.692380) vcan0 143#6B6B00FF
(1728485391.695382) vcan0 095#800007F400000026
(1728485391.697232) vcan0 166#D0320036
(1728485391.699176) vcan0 158#0000000000000037
(1728485391.699182) vcan0 161#000005500108003A
(1728485391.699184) vcan0 191#010010A1410029
(1728485391.699186) vcan0 164#0000C01AA8000022
(1728485391.699188) vcan0 133#0000000089
(1728485391.699191) vcan0 136#000200000000000C
(1728485391.700208) vcan0 244#000000011E
(1728485391.700290) vcan0 13A#000000000000000A
(1728485391.700295) vcan0 13F#0000000500000000
(1728485391.700297) vcan0 17C#0000000010000003
(1728485391.700299) vcan0 18E#00004D
(1728485391.700309) vcan0 1CF#80050000000F
(1728485391.701323) vcan0 1DC#0200000C
(1728485391.701329) vcan0 183#0000000E0000100D
(1728485391.702348) vcan0 143#6B6B00C2
(1728485391.705961) vcan0 095#800007F400000035
(1728485391.705971) vcan0 1A4#000000080000002F
(1728485391.705973) vcan0 1AA#7FFF000000006720
(1728485391.705976) vcan0 1B0#000F0000000166
(1728485391.705978) vcan0 1D0#000000000000000A
(1728485391.707075) vcan0 166#D0320009
(1728485391.708140) vcan0 158#000000000000000A
(1728485391.709166) vcan0 161#000005500108000D
(1728485391.709175) vcan0 191#010010A1410038
(1728485391.709178) vcan0 133#0000000098
(1728485391.709180) vcan0 136#000200000000001B
(1728485391.709182) vcan0 13A#0000000000000019
(1728485391.710843) vcan0 13F#000000050000001F
(1728485391.710850) vcan0 164#0000C01AA8000031
(1728485391.710852) vcan0 17C#0000000010000012
(1728485391.710854) vcan0 18E#00005C
(1728485391.710856) vcan0 309#0000000000000084
(1728485391.710858) vcan0 428#01040000521C2F
(1728485391.711895) vcan0 244#00000001C0
(1728485391.712328) vcan0 405#0000040000000029
(1728485391.712333) vcan0 039#002A
(1728485391.712335) vcan0 183#0000001200001017
(1728485391.712337) vcan0 143#6B6B00D1
(1728485391.714790) vcan0 095#800007F400000008
(1728485391.718739) vcan0 166#D0320018
(1728485391.718749) vcan0 158#0000000000000019
(1728485391.718751) vcan0 161#000005500108001C
(1728485391.718754) vcan0 191#010010A141000B
(1728485391.718756) vcan0 164#0000C01AA8000004
(1728485391.720663) vcan0 133#00000000A7
(1728485391.720673) vcan0 136#000200000000002A
(1728485391.720676) vcan0 13A#0000000000000028
(1728485391.720678) vcan0 13F#000000050000002E
(1728485391.720680) vcan0 17C#0000000010000021
(1728485391.720684) vcan0 18E#00006B
(1728485391.720692) vcan0 1CF#80050000001E
(1728485391.720695) vcan0 1DC#0200001B
(1728485391.721715) vcan0 183#0000000D0000102C
(1728485391.722739) vcan0 143#6B6B00E0
(1728485391.724485) vcan0 244#000000010D
(1728485391.724534) vcan0 095#800007F400000017
(1728485391.724540) vcan0 039#0039
(1728485391.726416) vcan0 1A4#000000080000003E
(1728485391.726423) vcan0 1AA#7FFF00000000683E
(1728485391.726426) vcan0 1B0#000F0000000175
(1728485391.726428) vcan0 1D0#000000000000000A
(1728485391.727467) vcan0 166#D0320027
(1728485391.729356) vcan0 158#0000000000000028
(1728485391.729367) vcan0 161#000005500108002B
(1728485391.729369) vcan0 191#010010A141001A
(1728485391.729372) vcan0 133#00000000B6
(1728485391.729374) vcan0 136#0002000000000039
(1728485391.729376) vcan0 13A#0000000000000037
(1728485391.729378) vcan0 13F#000000050000003D
(1728485391.731282) vcan0 164#0000C01AA8000013
(1728485391.731290) vcan0 17C#0000000010000030
(1728485391.731292) vcan0 18E#00007A
(1728485391.731295) vcan0 294#040B0002CF5A003B
(1728485391.731297) vcan0 21E#03E8374522063E
(1728485391.733284) vcan0 183#000000090000103F
(1728485391.733291) vcan0 143#6B6B00FF
(1728485391.735176) vcan0 095#800007F400000026
(1728485391.735420) vcan0 244#000000017A
(1728485391.738169) vcan0 166#D0320036
(1728485391.738183) vcan0 158#0000000000000037
(1728485391.738185) vcan0 161#000005500108003A
(1728485391.739226) vcan0 191#010010A1410029
(1728485391.739236) vcan0 164#0000C01AA8000022
(1728485391.739238) vcan0 133#0000000089
(1728485391.739240) vcan0 136#000200000000000C
(1728485391.741079) vcan0 13A#000000000000000A
(1728485391.741088) vcan0 13F#0000000500000000
(1728485391.741090) vcan0 17C#0000000010000003
(1728485391.741093) vcan0 18E#00004D
(1728485391.741095) vcan0 039#000C
(1728485391.741097) vcan0 1CF#80050000002D
(1728485391.741099) vcan0 1DC#0200002A
(1728485391.742151) vcan0 183#0000000E0000100D
(1728485391.742159) vcan0 143#6B6B00C2
(1728485391.745874) vcan0 095#800007F400000035
(1728485391.745880) vcan0 1A4#0000000800000001
(1728485391.745882) vcan0 1AA#7FFF000000006801
(1728485391.745884) vcan0 1B0#000F0000000148
(1728485391.745886) vcan0 1D0#000000000000000A
(1728485391.746854) vcan0 244#0000000183
(1728485391.747239) vcan0 166#D0320009
(1728485391.748257) vcan0 305#8008
(1728485391.748262) vcan0 158#000000000000000A
(1728485391.748264) vcan0 161#000005500108000D
(1728485391.749824) vcan0 191#010010A1410038
(1728485391.749833) vcan0 133#0000000098
(1728485391.749835) vcan0 136#000200000000001B
(1728485391.749838) vcan0 13A#0000000000000019
(1728485391.749840) vcan0 13F#000000050000001F
(1728485391.749842) vcan0 164#0000C01AA8000031
(1728485391.750855) vcan0 17C#0000000010000012
(1728485391.750861) vcan0 18E#00005C
(1728485391.752776) vcan0 183#0000000A00001010
(1728485391.752784) vcan0 143#6B6B00D1
(1728485391.754696) vcan0 095#800007F400000008
(1728485391.754704) vcan0 039#001B
(1728485391.757650) vcan0 166#D0320018
(1728485391.758548) vcan0 244#00000001F7
(1728485391.759248) vcan0 158#0000000000000019
(1728485391.759257) vcan0 161#000005500108001C
(1728485391.759259) vcan0 191#010010A141000B
(1728485391.759261) vcan0 133#00000000A7
(1728485391.759263) vcan0 136#000200000000002A
(1728485391.759265) vcan0 13A#0000000000000028
(1728485391.760464) vcan0 13F#000000050000002E
(1728485391.760470) vcan0 164#0000C01AA8000004
(1728485391.760472) vcan0 17C#0000000010000021
(1728485391.760474) vcan0 18E#00006B
(1728485391.760476) vcan0 1CF#80050000003C
(1728485391.760478) vcan0 1DC#02000039
(1728485391.761565) vcan0 183#0000000F0000102A
(1728485391.763454) vcan0 143#6B6B00E0
(1728485391.763462) vcan0 333#0000000000000F
(1728485391.765338) vcan0 095#800007F400000017
(1728485391.765343) vcan0 1A4#0000000800000010
(1728485391.765345) vcan0 1AA#7FFF000000006810
(1728485391.765348) vcan0 1B0#000F0000000157
(1728485391.766415) vcan0 1D0#000000000000000A
(1728485391.767440) vcan0 166#D0320027
(1728485391.768470) vcan0 158#0000000000000028
(1728485391.768480) vcan0 161#000005500108002B
(1728485391.768482) vcan0 191#010010A141001A
(1728485391.770222) vcan0 244#00000001D7
(1728485391.770282) vcan0 133#00000000B6
(1728485391.770288) vcan0 136#0002000000000039
(1728485391.770290) vcan0 13A#0000000000000037
(1728485391.770293) vcan0 13F#000000050000003D
(1728485391.770295) vcan0 164#0000C01AA8000013
(1728485391.770297) vcan0 17C#0000000010000030
(1728485391.770299) vcan0 18E#00007A
(1728485391.770306) vcan0 294#040B0002CF5A000E
(1728485391.771417) vcan0 21E#03E83745220601
(1728485391.773119) vcan0 183#0000000B0000103D
(1728485391.773125) vcan0 143#6B6B00FF
(1728485391.776057) vcan0 095#800007F400000026
(1728485391.776069) vcan0 039#002A
(1728485391.778063) vcan0 166#D0320036
(1728485391.778073) vcan0 158#0000000000000037
(1728485391.779118) vcan0 161#000005500108003A
(1728485391.779128) vcan0 191#010010A1410029
(1728485391.779130) vcan0 133#0000000089
(1728485391.779133) vcan0 136#000200000000000C
(1728485391.779135) vcan0 13A#000000000000000A
(1728485391.780925) vcan0 13F#0000000500000000
(1728485391.780933) vcan0 164#0000C01AA8000022
(1728485391.780935) vcan0 17C#0000000010000003
(1728485391.780937) vcan0 18E#00004D
(1728485391.780940) vcan0 1CF#80050000000F
(1728485391.780942) vcan0 1DC#0200000C
(1728485391.780944) vcan0 320#000003
(1728485391.780947) vcan0 324#7465000000000E0B
(1728485391.781972) vcan0 37C#FD00FD00097F000B
(1728485391.781979) vcan0 183#0000000800001003
(1728485391.781985) vcan0 244#0000000153
(1728485391.783829) vcan0 143#6B6B00C2
(1728485391.785760) vcan0 095#800007F400000035
(1728485391.785767) vcan0 1A4#000000080000002F
(1728485391.785769) vcan0 1AA#7FFF000000006720
(1728485391.785771) vcan0 1B0#000F0000000166
(1728485391.785773) vcan0 1D0#000000000000000A
(1728485391.786955) vcan0 166#D0320009
(1728485391.788029) vcan0 039#0039
(1728485391.788038) vcan0 158#000000000000000A
(1728485391.789649) vcan0 161#000005500108000D
(1728485391.789656) vcan0 191#010010A1410038
(1728485391.789658) vcan0 133#0000000098
(1728485391.789660) vcan0 136#000200000000001B
(1728485391.789663) vcan0 13A#0000000000000019
(1728485391.789665) vcan0 13F#000000050000001F
(1728485391.789667) vcan0 164#0000C01AA8000031
(1728485391.791611) vcan0 17C#0000000010000012
(1728485391.791621) vcan0 18E#00005C
(1728485391.792837) vcan0 244#00000001A9
(1728485391.792917) vcan0 183#0000000D0000101D
(1728485391.792923) vcan0 143#6B6B00D1
(1728485391.794502) vcan0 095#800007F400000008
(1728485391.798481) vcan0 166#D0320018
(1728485391.798494) vcan0 158#0000000000000019
(1728485391.798497) vcan0 161#000005500108001C
(1728485391.798499) vcan0 191#010010A141000B
(1728485391.799531) vcan0 164#0000C01AA9000003
(1728485391.799541) vcan0 133#00000000A7
(1728485391.799543) vcan0 136#000200000000002A
(1728485391.799545) vcan0 13A#0000000000000028
(1728485391.801321) vcan0 13F#000000050000002E
(1728485391.801329) vcan0 17C#0000000010000021
(1728485391.801332) vcan0 18E#00006B
(1728485391.801334) vcan0 1CF#80050000001E
(1728485391.801336) vcan0 1DC#0200001B
(1728485391.801338) vcan0 039#000C
(1728485391.801341) vcan0 183#0000000900001020
(1728485391.802359) vcan0 143#6B6B00E0
(1728485391.803606) vcan0 244#0000000125
(1728485391.804429) vcan0 095#800007F400000017
(1728485391.806191) vcan0 1A4#000000080000003E
(1728485391.806196) vcan0 1AA#7FFF00000000683E
(1728485391.806198) vcan0 1B0#000F0000000175
(1728485391.806200) vcan0 1D0#000000000000000A
(1728485391.807351) vcan0 166#D0320027
(1728485391.808448) vcan0 158#0000000000000028
(1728485391.808456) vcan0 161#000005500108002B
(1728485391.808459) vcan0 191#010010A141001A
(1728485391.811076) vcan0 133#00000000B6
(1728485391.811084) vcan0 136#0002000000000039
(1728485391.811087) vcan0 13A#0000000000000037
(1728485391.811089) vcan0 13F#000000050000003D
(1728485391.811091) vcan0 164#0000C01AA8000013
(1728485391.811093) vcan0 17C#0000000010000030
(1728485391.811096) vcan0 18E#00007A
(1728485391.811098) vcan0 294#040B0002CF5A001D
(1728485391.811100) vcan0 21E#03E83745220610
(1728485391.811103) vcan0 309#0000000000000093
(1728485391.813072) vcan0 183#0000000E0000103A
(1728485391.813083) vcan0 143#6B6B00FF
(1728485391.814952) vcan0 095#800007F400000026
(1728485391.816022) vcan0 244#000000012C
(1728485391.817914) vcan0 039#001B
(1728485391.817926) vcan0 166#D0320036
(1728485391.819044) vcan0 158#0000000000000037
(1728485391.819054) vcan0 161#000005500108003A
(1728485391.819056) vcan0 191#010010A1410029
(1728485391.819059) vcan0 133#0000000089
(1728485391.819063) vcan0 136#000200000000000C
(1728485391.820886) vcan0 13A#000000000000000A
(1728485391.820898) vcan0 13F#0000000500000000
(1728485391.820901) vcan0 164#0000C01AA8000022
(1728485391.820903) vcan0 17C#0000000010000003
(1728485391.820905) vcan0 18E#00004D
(1728485391.820907) vcan0 1CF#80050000002D
(1728485391.820916) vcan0 1DC#0200002A
(1728485391.822024) vcan0 183#0000000A00001001
(1728485391.822035) vcan0 143#6B6B00C2
(1728485391.825661) vcan0 095#800007F400000035
(1728485391.825671) vcan0 1A4#0000000800000001
(1728485391.825674) vcan0 1AA#7FFF000000006801
(1728485391.825676) vcan0 1B0#000F0000000148
(1728485391.825678) vcan0 1D0#000000000000000A
(1728485391.827603) vcan0 166#D0320009
(1728485391.827704) vcan0 244#000000012D
(1728485391.829606) vcan0 158#000000000000000A
(1728485391.829616) vcan0 161#000005500108000D
(1728485391.829619) vcan0 191#010010A1410038
(1728485391.829621) vcan0 133#0000000098
(1728485391.829623) vcan0 136#000200000000001B
(1728485391.829626) vcan0 13A#0000000000000019
(1728485391.829628) vcan0 13F#000000050000001F
(1728485391.829630) vcan0 164#0000C01AA8000031
(1728485391.830676) vcan0 17C#0000000010000012
(1728485391.830686) vcan0 18E#00005C
(1728485391.830689) vcan0 039#002A
(1728485391.832442) vcan0 183#0000000700001013
(1728485391.832451) vcan0 143#6B6B00D1
(1728485391.835373) vcan0 095#800007F400000008
(1728485391.837420) vcan0 166#D0320018
(1728485391.838513) vcan0 158#0000000000000019
(1728485391.838528) vcan0 161#000005500108001C
(1728485391.838531) vcan0 191#010010A141000B
(1728485391.840235) vcan0 164#0000C01AA8000004
(1728485391.840243) vcan0 133#00000000A7
(1728485391.840246) vcan0 136#000200000000002A
(1728485391.840248) vcan0 13A#0000000000000028
(1728485391.840250) vcan0 13F#000000050000002E
(1728485391.840252) vcan0 17C#0000000010000021
(1728485391.840255) vcan0 18E#00006B
(1728485391.840257) vcan0 1CF#80050000003C
(1728485391.841314) vcan0 1DC#02000039
(1728485391.841325) vcan0 183#0000000D0000102C
(1728485391.843254) vcan0 143#6B6B00E0
(1728485391.844204) vcan0 244#00000001C3
(1728485391.846080) vcan0 095#800007F400000017
(1728485391.846091) vcan0 039#0039
(1728485391.846094) vcan0 1A4#0000000800000010
(1728485391.846097) vcan0 1AA#7FFF000000006810
(1728485391.846100) vcan0 1B0#000F0000000157
(1728485391.846102) vcan0 1D0#000000000000000A
(1728485391.848081) vcan0 166#D0320027
(1728485391.848092) vcan0 158#0000000000000028
(1728485391.849968) vcan0 161#000005500108002B
(1728485391.849975) vcan0 191#010010A141001A
(1728485391.849978) vcan0 133#00000000B6
(1728485391.849980) vcan0 136#0002000000000039
(1728485391.849982) vcan0 13A#0000000000000037
(1728485391.849984) vcan0 13F#000000050000003D
(1728485391.849987) vcan0 164#0000C01AA8000013
(1728485391.849989) vcan0 17C#0000000010000030
(1728485391.849991) vcan0 18E#00007A
(1728485391.851009) vcan0 294#040B0002CF5A002C
(1728485391.851036) vcan0 21E#03E8374522062F
(1728485391.851038) vcan0 305#8017
(1728485391.852974) vcan0 183#000000090000103F
(1728485391.852981) vcan0 143#6B6B00FF
(1728485391.855117) vcan0 244#00000001B4
(1728485391.855504) vcan0 095#800007F400000026
(1728485391.856731) vcan0 166#D0320036
(1728485391.859686) vcan0 158#0000000000000037
(1728485391.859697) vcan0 161#000005500108003A
(1728485391.859700) vcan0 191#010010A1410029
(1728485391.859702) vcan0 039#000C
(1728485391.859704) vcan0 133#0000000089
(1728485391.859706) vcan0 136#000200000000000C
(1728485391.859710) vcan0 13A#000000000000000A
(1728485391.859713) vcan0 13F#0000000500000000
(1728485391.859715) vcan0 164#0000C01AA8000022
(1728485391.860744) vcan0 17C#0000000010000003
(1728485391.860756) vcan0 18E#00004D
(1728485391.860758) vcan0 1CF#80050000000F
(1728485391.860760) vcan0 1DC#0200000C
(1728485391.861770) vcan0 183#0000000600001005
(1728485391.863645) vcan0 143#6B6B00C2
(1728485391.863656) vcan0 333#0000000000001E
(1728485391.865560) vcan0 095#800007F400000035
(1728485391.865568) vcan0 1A4#000000080000002F
(1728485391.865571) vcan0 1AA#7FFF000000006720
(1728485391.865573) vcan0 1B0#000F0000000166
(1728485391.865575) vcan0 1D0#000000000000000A
(1728485391.866559) vcan0 244#0000000171
(1728485391.868457) vcan0 166#D0320009
(1728485391.868468) vcan0 158#000000000000000A
(1728485391.868470) vcan0 161#000005500108000D
(1728485391.868472) vcan0 191#010010A1410038
(1728485391.869514) vcan0 133#0000000098
(1728485391.869524) vcan0 136#000200000000001B
(1728485391.869527) vcan0 13A#0000000000000019
(1728485391.869529) vcan0 13F#000000050000001F
(1728485391.870544) vcan0 164#0000C01AA8000031
(1728485391.870552) vcan0 17C#0000000010000012
(1728485391.870555) vcan0 18E#00005C
(1728485391.871716) vcan0 183#0000000C0000101E
(1728485391.873274) vcan0 143#6B6B00D1
(1728485391.875347) vcan0 095#800007F400000008
(1728485391.877158) vcan0 166#D0320018
(1728485391.878208) vcan0 158#0000000000000019
(1728485391.878221) vcan0 161#000005500108001C
(1728485391.879401) vcan0 191#010090A1410003
(1728485391.879412) vcan0 039#001B
(1728485391.879415) vcan0 133#00000000A7
(1728485391.879417) vcan0 136#000200000000002A
(1728485391.879419) vcan0 13A#0000000000000028
(1728485391.881117) vcan0 13F#000000050000002E
(1728485391.881124) vcan0 164#0000C01AA8000004
(1728485391.881126) vcan0 17C#0000000010000021
(1728485391.881129) vcan0 18E#00006B
(1728485391.881131) vcan0 1CF#80050000001E
(1728485391.881133) vcan0 1DC#0200001B
(1728485391.881135) vcan0 320#000012
(1728485391.881138) vcan0 324#7465000000000E1A
(1728485391.881140) vcan0 37C#FD00FD00097F001A
(1728485391.882164) vcan0 183#0000000900001020
(1728485391.882174) vcan0 143#6B6B00E0
(1728485391.883052) vcan0 244#000000010C
(1728485391.884999) vcan0 095#800007F400000017
(1728485391.885011) vcan0 1A4#000000080000003E
(1728485391.885013) vcan0 1AA#7FFF00000000683E
(1728485391.886057) vcan0 1B0#000F0000000175
(1728485391.886068) vcan0 1D0#000000000000000A
(1728485391.887084) vcan0 166#D0320027
(1728485391.888316) vcan0 158#0000000000000028
(1728485391.888327) vcan0 161#000005500108002B
(1728485391.889949) vcan0 191#010090A1410012
(1728485391.889961) vcan0 133#00000000B6
(1728485391.889963) vcan0 136#0002000000000039
(1728485391.889965) vcan0 13A#0000000000000037
(1728485391.889967) vcan0 13F#000000050000003D
(1728485391.889970) vcan0 164#0000C01AA8000013
(1728485391.889972) vcan0 17C#0000000010000030
(1728485391.889977) vcan0 18E#00007A
(1728485391.891035) vcan0 294#040B0002CF5A003B
(1728485391.891042) vcan0 21E#03E8374522063E
(1728485391.892055) vcan0 039#002A
(1728485391.892062) vcan0 183#0000000E0000103A
(1728485391.892065) vcan0 143#6B6B00FF
(1728485391.893908) vcan0 244#00000001C5
(1728485391.894790) vcan0 095#800007F400000026
(1728485391.896815) vcan0 166#D0320036
(1728485391.898840) vcan0 158#0000000000000037
(1728485391.898847) vcan0 161#000005500108003A
(1728485391.898850) vcan0 191#010090A1410021
(1728485391.898852) vcan0 133#0000000089
(1728485391.898854) vcan0 136#000200000000000C
(1728485391.900602) vcan0 13A#000000000000000A
(1728485391.900610) vcan0 13F#0000000500000000
(1728485391.900612) vcan0 164#0000C01AA8000022
(1728485391.900615) vcan0 17C#0000000010000003
(1728485391.900617) vcan0 18E#00004D
(1728485391.900619) vcan0 1CF#80050000002D
(1728485391.900621) vcan0 1DC#0200002A
(1728485391.901633) vcan0 183#0000000A00001001
(1728485391.903519) vcan0 143#6B6B00C2
(1728485391.905414) vcan0 095#800007F400000035
(1728485391.905422) vcan0 1A4#0000000800000001
(1728485391.905424) vcan0 1AA#7FFF000000006801
(1728485391.905426) vcan0 1B0#000F0000000148
(1728485391.905428) vcan0 1D0#000000000000000A
(1728485391.906419) vcan0 244#0000000134
(1728485391.906880) vcan0 039#0039
(1728485391.906890) vcan0 166#D0320009
(1728485391.907964) vcan0 158#000000000000000A
(1728485391.909358) vcan0 161#000005500108000D
(1728485391.909372) vcan0 191#010090A1410030
(1728485391.909374) vcan0 133#0000000098
(1728485391.909376) vcan0 136#000200000000001B
(1728485391.909378) vcan0 13A#0000000000000019
(1728485391.909381) vcan0 13F#000000050000001F
(1728485391.911326) vcan0 164#0000C01AA8000031
(1728485391.911335) vcan0 17C#0000000010000012
(1728485391.911337) vcan0 18E#00005C
(1728485391.911339) vcan0 309#00000000000000A2
(1728485391.912352) vcan0 183#0000000F0000101B
(1728485391.912361) vcan0 143#6B6B00D1
(1728485391.916190) vcan0 095#800007F400000008
(1728485391.917318) vcan0 166#D0320018
(1728485391.919110) vcan0 158#0000000000000019
(1728485391.919115) vcan0 161#000005500108001C
(1728485391.919117) vcan0 191#010090A1410003
(1728485391.919120) vcan0 164#0000C01AA8000004
(1728485391.919122) vcan0 133#00000000A7
(1728485391.919124) vcan0 136#000200000000002A
(1728485391.919252) vcan0 244#000000014E
(1728485391.920135) vcan0 13A#0000000000000028
(1728485391.920143) vcan0 13F#000000050000002E
(1728485391.920145) vcan0 17C#0000000010000021
(1728485391.920147) vcan0 18E#00006B
(1728485391.920149) vcan0 039#000C
(1728485391.921296) vcan0 1CF#80050000003C
(1728485391.921303) vcan0 1DC#02000039
(1728485391.921305) vcan0 183#0000000B0000102E
(1728485391.922325) vcan0 143#6B6B00E0
(1728485391.924978) vcan0 095#800007F400000017
(1728485391.924985) vcan0 1A4#0000000800000010
(1728485391.924987) vcan0 1AA#7FFF000000006810
(1728485391.925998) vcan0 1B0#000F0000000157
(1728485391.926004) vcan0 1D0#000000000000000A
(1728485391.927886) vcan0 166#D0320027
(1728485391.928898) vcan0 158#0000000000000028
(1728485391.928905) vcan0 161#000005500108002B
(1728485391.928907) vcan0 191#010090A1410012
(1728485391.928909) vcan0 133#00000000B6
(1728485391.928911) vcan0 136#0002000000000039
(1728485391.929921) vcan0 13A#0000000000000037
(1728485391.929927) vcan0 13F#000000050000003D
(1728485391.929930) vcan0 164#0000C01AA8000013
(1728485391.929932) vcan0 17C#0000000010000030
(1728485391.930843) vcan0 244#00000001A1
(1728485391.930851) vcan0 188#00000000
(1728485391.931455) vcan0 18E#00007A
(1728485391.931463) vcan0 294#040B0002CF5A000E
(1728485391.931465) vcan0 21E#03E83745220601
(1728485391.932727) vcan0 183#0000000800001030
(1728485391.932736) vcan0 143#6B6B00FF
(1728485391.933749) vcan0 039#001B
(1728485391.935611) vcan0 095#800007F400000026
(1728485391.937787) vcan0 166#D0320036
(1728485391.938810) vcan0 158#0000000000000037
(1728485391.938816) vcan0 161#000005500108003A
(1728485391.938818) vcan0 191#010090A1410021
(1728485391.938821) vcan0 133#0000000089
(1728485391.939846) vcan0 136#000200000000000C
(1728485391.939857) vcan0 13A#000000000000000A
(1728485391.939860) vcan0 13F#0000000500000000
(1728485391.939862) vcan0 164#0000C01AA8000022
(1728485391.939865) vcan0 17C#0000000010000003
(1728485391.941477) vcan0 18E#00004D
(1728485391.941485) vcan0 1CF#80050000000F
(1728485391.941487) vcan0 1DC#0200000C
(1728485391.941490) vcan0 183#0000000600001005
(1728485391.942483) vcan0 244#00000001B1
(1728485391.942818) vcan0 143#6B6B00C2
(1728485391.945375) vcan0 095#800007F400000035
(1728485391.945384) vcan0 1A4#000000080000002F
(1728485391.945387) vcan0 1AA#7FFF000000006720
(1728485391.945389) vcan0 1B0#000F0000000166
(1728485391.945391) vcan0 1D0#000000000000000A
(1728485391.947323) vcan0 166#D0320009
(1728485391.948356) vcan0 158#000000000000000A
(1728485391.948361) vcan0 161#000005500108000D
(1728485391.949372) vcan0 191#010090A1410030
(1728485391.949379) vcan0 133#0000000098
(1728485391.949381) vcan0 136#000200000000001B
(1728485391.949383) vcan0 039#002A
(1728485391.949385) vcan0 13A#0000000000000019
(1728485391.951228) vcan0 13F#000000050000001F
(1728485391.951237) vcan0 164#0000C01AA8000031
(1728485391.951239) vcan0 17C#0000000010000012
(1728485391.951241) vcan0 18E#00005C
(1728485391.953164) vcan0 183#0000000400001016
(1728485391.953170) vcan0 143#6B6B00D1
(1728485391.953558) vcan0 244#0000000122
(1728485391.955215) vcan0 095#800007F400000008
(1728485391.956236) vcan0 305#8026
(1728485391.958052) vcan0 166#D0320018
(1728485391.958059) vcan0 158#0000000000000019
(1728485391.959955) vcan0 161#000005500108001C
(1728485391.959963) vcan0 191#010090A1410003
(1728485391.959966) vcan0 133#00000000A7
(1728485391.959969) vcan0 136#000200000000002A
(1728485391.959972) vcan0 13A#0000000000000028
(1728485391.959975) vcan0 13F#000000050000002E
(1728485391.959979) vcan0 164#0000C01AA8000004
(1728485391.959982) vcan0 17C#0000000010000021
(1728485391.960004) vcan0 18E#00006B
(1728485391.961021) vcan0 1CF#80050000001E
(1728485391.961028) vcan0 1DC#0200001B
(1728485391.962039) vcan0 183#0000000300001026
(1728485391.962045) vcan0 143#6B6B00E0
(1728485391.963059) vcan0 039#0039
(1728485391.963065) vcan0 333#0000000000002D
(1728485391.965092) vcan0 095#800007F400000017
(1728485391.965098) vcan0 1A4#000000080000003E
(1728485391.965100) vcan0 1AA#7FFF00000000683E
(1728485391.965159) vcan0 244#0000000148
(1728485391.966117) vcan0 1B0#000F0000000175
(1728485391.966125) vcan0 1D0#000000000000000A
(1728485391.967138) vcan0 166#D0320027
(1728485391.968684) vcan0 158#0000000000000028
(1728485391.968691) vcan0 161#000005500108002B
(1728485391.968693) vcan0 191#010090A1410012
(1728485391.968695) vcan0 133#00000000B6
(1728485391.969707) vcan0 136#0002000000000039
(1728485391.969714) vcan0 13A#0000000000000037
(1728485391.969716) vcan0 13F#000000050000003D
(1728485391.969718) vcan0 164#0000C01AA8000013
(1728485391.971647) vcan0 17C#0000000010000030
(1728485391.971654) vcan0 18E#00007A
(1728485391.971656) vcan0 294#040B0002CF5A001D
(1728485391.971658) vcan0 21E#03E83745220610
(1728485391.972710) vcan0 183#0000000A0000103E
(1728485391.972725) vcan0 143#6B6B00FF
(1728485391.974743) vcan0 095#800007F400000026
(1728485391.976635) vcan0 244#0000000186
(1728485391.977557) vcan0 166#D0320036
(1728485391.978575) vcan0 158#0000000000000037
(1728485391.978581) vcan0 161#000005500108003A
(1728485391.978583) vcan0 191#010090A1410021
(1728485391.979591) vcan0 133#0000000089
(1728485391.979597) vcan0 136#000200000000000C
(1728485391.979599) vcan0 13A#000000000000000A
(1728485391.979602) vcan0 13F#0000000500000000
(1728485391.979604) vcan0 164#0000C01AA8000022
(1728485391.980612) vcan0 17C#0000000010000003
(1728485391.980618) vcan0 18E#00004D
(1728485391.980620) vcan0 1CF#80050000002D
(1728485391.980622) vcan0 1DC#0200002A
(1728485391.980624) vcan0 320#000021
(1728485391.982342) vcan0 324#7465000000000E29
(1728485391.982350) vcan0 37C#FD00FD00097F0029
(1728485391.982352) vcan0 40C#014A484D46413325
(1728485391.982354) vcan0 183#0000000700001004
(1728485391.982356) vcan0 454#23EF27
(1728485391.982359) vcan0 143#6B6B00C2
(1728485391.986234) vcan0 095#800007F400000035
(1728485391.986241) vcan0 039#000C
(1728485391.986244) vcan0 1A4#0000000800000001
(1728485391.986246) vcan0 1AA#7FFF000000006801
(1728485391.986248) vcan0 1B0#000F0000000148
(1728485391.986251) vcan0 1D0#000000000000000A
(1728485391.987482) vcan0 166#D0320009
(1728485391.988002) vcan0 244#00000001AA
(1728485391.988510) vcan0 158#000000000000000A
(1728485391.988520) vcan0 161#000005500108000D
(1728485391.988523) vcan0 191#010090A1410030
(1728485391.990131) vcan0 133#0000000098
(1728485391.990137) vcan0 136#000200000000001B
(1728485391.990139) vcan0 13A#0000000000000019
(1728485391.990141) vcan0 13F#000000050000001F
(1728485391.990143) vcan0 164#0000C01AA8000031
(1728485391.990145) vcan0 17C#0000000010000012
(1728485391.990148) vcan0 18E#00005C
(1728485391.992197) vcan0 183#0000000D0000101D
(1728485391.992206) vcan0 143#6B6B00D1
(1728485391.994960) vcan0 095#800007F400000008
(1728485391.996944) vcan0 166#D0320018
(1728485391.997960) vcan0 158#0000000000000019
(1728485391.998919) vcan0 244#00000001C3
(1728485391.999408) vcan0 161#000005500108001C
(1728485391.999416) vcan0 191#010090A1410003
(1728485391.999418) vcan0 133#00000000A7
(1728485391.999420) vcan0 136#000200000000002A
(1728485391.999422) vcan0 13A#0000000000000028
(1728485391.999424) vcan0 13F#000000050000002E
(1728485392.000793) vcan0 164#0000C01AA8000004
(1728485392.000800) vcan0 17C#0000000010000021
(1728485392.000803) vcan0 18E#00006B
(1728485392.000805) vcan0 1CF#80050000003C
(1728485392.000807) vcan0 1DC#02000039
(1728485392.001819) vcan0 183#0000001100001027
(1728485392.002837) vcan0 143#6B6B00E0
(1728485392.003854) vcan0 039#001B
(1728485392.004876) vcan0 095#800007F400000017
(1728485392.004889) vcan0 1A4#0000000800000010
(1728485392.004891) vcan0 1AA#7FFF000000006810
(1728485392.005904) vcan0 1B0#000F0000000157
(1728485392.005910) vcan0 1D0#000000000000000A
(1728485392.006924) vcan0 166#D0320027
(1728485392.008717) vcan0 158#0000000000000028
(1728485392.008725) vcan0 161#000005500108002B
(1728485392.008727) vcan0 191#010090A1410012
(1728485392.008729) vcan0 133#00000000B6
(1728485392.009745) vcan0 136#0002000000000039
(1728485392.009753) vcan0 13A#0000000000000037
(1728485392.009755) vcan0 13F#000000050000003D
(1728485392.009757) vcan0 164#0000C01AA8000013
(1728485392.010775) vcan0 17C#0000000010000030
(1728485392.010783) vcan0 18E#00007A
(1728485392.010785) vcan0 294#040B0002CF5A002C
(1728485392.010787) vcan0 21E#03E8374522062F
(1728485392.010790) vcan0 309#00000000000000B1
(1728485392.012502) vcan0 428#01040000521C3E
(1728485392.012509) vcan0 405#0000040000000038
(1728485392.012511) vcan0 183#0000000C0000103C
(1728485392.012513) vcan0 143#6B6B00FF
(1728485392.014432) vcan0 095#800007F400000026
(1728485392.014533) vcan0 244#000000015B
(1728485392.017459) vcan0 166#D0320036
(1728485392.017467) vcan0 039#002A
(1728485392.019308) vcan0 158#0000000000000037
(1728485392.019314) vcan0 161#000005500108003A
(1728485392.019316) vcan0 191#010090A1410021
(1728485392.019319) vcan0 133#0000000089
(1728485392.019321) vcan0 136#000200000000000C
(1728485392.019323) vcan0 13A#000000000000000A
(1728485392.019325) vcan0 13F#0000000500000000
(1728485392.021245) vcan0 164#0000C01AA8000022
(1728485392.021252) vcan0 17C#0000000010000003
(1728485392.021254) vcan0 18E#00004D
(1728485392.021256) vcan0 1CF#80050000000F
(1728485392.021264) vcan0 1DC#0200000C
(1728485392.021266) vcan0 183#000000100000100A
(1728485392.022285) vcan0 143#6B6B00C2
(1728485392.025326) vcan0 095#800007F400000035
(1728485392.025335) vcan0 1A4#000000080000002F
(1728485392.025338) vcan0 1AA#7FFF000000006720
(1728485392.025340) vcan0 1B0#000F0000000166
(1728485392.026349) vcan0 1D0#000000000000000A
(1728485392.027432) vcan0 166#D0320009
(1728485392.029020) vcan0 158#000000000000000A
(1728485392.029028) vcan0 161#000005500108000D
(1728485392.029030) vcan0 191#010090A1410030
(1728485392.029032) vcan0 133#0000000098
(1728485392.029035) vcan0 136#000200000000001B
(1728485392.030976) vcan0 13A#0000000000000019
(1728485392.030984) vcan0 13F#000000050000001F
(1728485392.030987) vcan0 164#0000C01AA9000030
(1728485392.030989) vcan0 17C#0000000010000012
(1728485392.030991) vcan0 18E#00005C
(1728485392.031080) vcan0 244#00000001C6
(1728485392.032004) vcan0 039#0039
(1728485392.032011) vcan0 183#0000000C0000101E
(1728485392.032013) vcan0 143#6B6B00D1
(1728485392.035110) vcan0 095#800007F400000008
(1728485392.036821) vcan0 166#D0320018
(1728485392.038888) vcan0 158#0000000000000019
(1728485392.038902) vcan0 161#000005500108001C
(1728485392.038905) vcan0 191#010090A1410003
(1728485392.038907) vcan0 133#00000000A7
(1728485392.038909) vcan0 136#000200000000002A
(1728485392.040684) vcan0 13A#0000000000000028
(1728485392.040693) vcan0 13F#000000050000002E
(1728485392.040695) vcan0 164#0000C01AA8000004
(1728485392.040697) vcan0 17C#0000000010000021
(1728485392.040700) vcan0 18E#00006B
(1728485392.040702) vcan0 1CF#80050000001E
(1728485392.040704) vcan0 1DC#0200001B
(1728485392.041714) vcan0 183#0000001000001028
(1728485392.042703) vcan0 244#0000000137
(1728485392.043328) vcan0 143#6B6B00E0
(1728485392.044595) vcan0 095#800007F400000017
(1728485392.045615) vcan0 1A4#000000080000003E
(1728485392.045621) vcan0 1AA#7FFF00000000683E
(1728485392.045623) vcan0 1B0#000F0000000175
(1728485392.045625) vcan0 1D0#000000000000000A
(1728485392.046644) vcan0 039#000C
(1728485392.047663) vcan0 166#D0320027
(1728485392.049471) vcan0 158#0000000000000028
(1728485392.049478) vcan0 161#000005500108002B
(1728485392.049480) vcan0 191#010090A1410012
(1728485392.049482) vcan0 133#00000000B6
(1728485392.049484) vcan0 136#0002000000000039
(1728485392.049486) vcan0 13A#0000000000000037
(1728485392.049489) vcan0 13F#000000050000003D
(1728485392.050573) vcan0 164#0000C01AA8000013
(1728485392.050579) vcan0 17C#0000000010000030
(1728485392.050581) vcan0 18E#00007A
(1728485392.050583) vcan0 294#040B0002CF5A003B
(1728485392.050586) vcan0 21E#03E8374522063E
(1728485392.052392) vcan0 183#0000001300001034
(1728485392.052399) vcan0 143#6B6B00FF
(1728485392.053575) vcan0 244#000000011F
(1728485392.054428) vcan0 095#800007F800000022
(1728485392.057369) vcan0 166#D0320036
(1728485392.058393) vcan0 158#0000000000000037
(1728485392.058399) vcan0 161#000005500108003A
(1728485392.058401) vcan0 191#010090A1410021
(1728485392.060170) vcan0 133#0000000089
(1728485392.060176) vcan0 136#000200000000000C
(1728485392.060178) vcan0 13A#000000000000000A
(1728485392.060181) vcan0 13F#0000000500000000
(1728485392.060183) vcan0 164#0000C01AA8000022
(1728485392.060185) vcan0 17C#0000000010000003
(1728485392.060187) vcan0 18E#00004D
(1728485392.060190) vcan0 1CF#80050000002D
(1728485392.061203) vcan0 1DC#0200002A
(1728485392.061212) vcan0 305#8035
(1728485392.062226) vcan0 183#0000000E0000100D
(1728485392.062232) vcan0 143#6B6B00C2
(1728485392.063244) vcan0 333#0000000000003C
(1728485392.066003) vcan0 095#800007F800000031
(1728485392.066010) vcan0 1A4#0000000800000001
(1728485392.066012) vcan0 1AA#7FFF000000006801
(1728485392.066014) vcan0 1B0#000F0000000148
(1728485392.066017) vcan0 1D0#000000000000000A
(1728485392.067029) vcan0 039#001B
(1728485392.067034) vcan0 166#D0320009
(1728485392.068047) vcan0 158#000000000000000A
(1728485392.069140) vcan0 161#000005500108000D
(1728485392.069147) vcan0 191#010090A1410030
(1728485392.069149) vcan0 133#0000000098
(1728485392.069152) vcan0 136#000200000000001B
(1728485392.069154) vcan0 13A#0000000000000019
(1728485392.069922) vcan0 244#0000000162
(1728485392.070407) vcan0 13F#000000050000001F
(1728485392.070413) vcan0 164#0000C01AA8000031
(1728485392.070416) vcan0 17C#0000000010000012
(1728485392.070418) vcan0 18E#00005C
(1728485392.072189) vcan0 183#0000000A00001010
(1728485392.072202) vcan0 143#6B6B00D1
(1728485392.074818) vcan0 095#800007F800000004
(1728485392.076707) vcan0 166#D0320018
(1728485392.079674) vcan0 158#0000000000000019
(1728485392.079684) vcan0 161#000005500108001C
(1728485392.079687) vcan0 191#010090A1410003
(1728485392.079689) vcan0 133#00000000A7
(1728485392.079691) vcan0 136#000200000000002A
(1728485392.079693) vcan0 13A#0000000000000028
(1728485392.079696) vcan0 13F#000000050000002E
(1728485392.079699) vcan0 164#0000C01AA8000004
(1728485392.079702) vcan0 039#002A
(1728485392.081626) vcan0 17C#0000000010000021
(1728485392.081636) vcan0 18E#00006B
(1728485392.081638) vcan0 1CF#80050000003C
(1728485392.081640) vcan0 1DC#02000039
(1728485392.081642) vcan0 320#000030
(1728485392.081646) vcan0 324#7465000000000E38
(1728485392.081648) vcan0 37C#FD00FD00097F0038
(1728485392.081651) vcan0 183#0000000700001022
(1728485392.081897) vcan0 244#0000000172
(1728485392.083542) vcan0 143#6B6B00E0
(1728485392.084601) vcan0 095#800007F800000013
(1728485392.086515) vcan0 1A4#0000000800000010
(1728485392.086526) vcan0 1AA#7FFF000000006810
(1728485392.086529) vcan0 1B0#000F0000000157
(1728485392.086531) vcan0 1D0#000000000000000A
(1728485392.087756) vcan0 166#D0320027
(1728485392.089381) vcan0 158#0000000000000028
(1728485392.089393) vcan0 161#000005500108002B
(1728485392.089395) vcan0 191#010090A1410012
(1728485392.089397) vcan0 133#00000000B6
(1728485392.089399) vcan0 136#0002000000000039
(1728485392.089401) vcan0 13A#0000000000000037
(1728485392.089403) vcan0 13F#000000050000003D
(1728485392.091339) vcan0 164#0000C01AA8000013
(1728485392.091344) vcan0 17C#0000000010000030
(1728485392.091347) vcan0 18E#00007A
(1728485392.091349) vcan0 294#040B0002CF5A000E
(1728485392.091351) vcan0 21E#03E83745220601
(1728485392.093275) vcan0 183#0000000500001033
(1728485392.093281) vcan0 143#6B6B00FF
(1728485392.094267) vcan0 244#00000001FB
(1728485392.094322) vcan0 039#0039
(1728485392.094339) vcan0 095#800007F800000022
(1728485392.097212) vcan0 166#D0320036
(1728485392.099079) vcan0 158#0000000000000037
(1728485392.099085) vcan0 161#000005500108003A
(1728485392.099087) vcan0 191#010090A1410021
(1728485392.099089) vcan0 164#0000C01AA8000022
(1728485392.099091) vcan0 133#0000000089
(1728485392.099094) vcan0 136#000200000000000C
(1728485392.101028) vcan0 13A#000000000000000A
(1728485392.101035) vcan0 13F#0000000500000000
(1728485392.101037) vcan0 17C#0000000010000003
(1728485392.101039) vcan0 18E#00004D
(1728485392.101041) vcan0 1CF#80050000000F
(1728485392.101044) vcan0 1DC#0200000C
(1728485392.102942) vcan0 183#0000000B00001000
(1728485392.102950) vcan0 143#6B6B00C2
(1728485392.104925) vcan0 095#800007F800000031
(1728485392.104931) vcan0 1A4#000000080000002F
(1728485392.104933) vcan0 1AA#7FFF000000006720
(1728485392.105944) vcan0 1B0#000F0000000166
(1728485392.105950) vcan0 1D0#000000000000000A
(1728485392.106876) vcan0 244#000000010D
(1728485392.107075) vcan0 166#D0320009
(1728485392.108779) vcan0 158#000000000000000A
(1728485392.108787) vcan0 161#000005500108000D
(1728485392.108789) vcan0 191#010090A1410030
(1728485392.108792) vcan0 039#000C
(1728485392.108794) vcan0 133#0000000098
(1728485392.110167) vcan0 136#000200000000001B
(1728485392.110177) vcan0 13A#0000000000000019
(1728485392.110179) vcan0 13F#000000050000001F
(1728485392.110181) vcan0 164#0000C01AA8000031
(1728485392.110183) vcan0 17C#0000000010000012
(1728485392.110185) vcan0 18E#00005C
(1728485392.111196) vcan0 309#0000000000000084
(1728485392.112215) vcan0 183#0000000800001012
(1728485392.112223) vcan0 143#6B6B00D1
(1728485392.114679) vcan0 095#800007F800000004
(1728485392.117626) vcan0 166#D0320018
(1728485392.117639) vcan0 244#0000000107
(1728485392.119059) vcan0 158#0000000000000019
(1728485392.119068) vcan0 161#000005500108001C
(1728485392.119070) vcan0 191#010090A1410003
(1728485392.119072) vcan0 133#00000000A7
(1728485392.119074) vcan0 136#000200000000002A
(1728485392.119076) vcan0 13A#0000000000000028
(1728485392.120086) vcan0 13F#000000050000002E
(1728485392.120093) vcan0 164#0000C01AA8000004
(1728485392.120095) vcan0 17C#0000000010000021
(1728485392.120097) vcan0 18E#00006B
(1728485392.121168) vcan0 1CF#80050000001E
(1728485392.121175) vcan0 1DC#0200001B
(1728485392.122199) vcan0 183#0000000D0000102C
(1728485392.122210) vcan0 143#6B6B00E0
(1728485392.123928) vcan0 039#001B
(1728485392.125866) vcan0 095#800007F800000013
(1728485392.125873) vcan0 1A4#000000080000003E
(1728485392.125875) vcan0 1AA#7FFF00000000683E
(1728485392.125878) vcan0 1B0#000F0000000175
(1728485392.125880) vcan0 1D0#000000000000000A
(1728485392.126890) vcan0 166#D0320027
(1728485392.128784) vcan0 244#000000019A
(1728485392.129459) vcan0 158#0000000000000028
(1728485392.129466) vcan0 161#000005500108002B
(1728485392.129469) vcan0 191#010090A1410012
(1728485392.129471) vcan0 133#00000000B6
(1728485392.129473) vcan0 136#0002000000000039
(1728485392.129475) vcan0 13A#0000000000000037
(1728485392.129477) vcan0 13F#000000050000003D
(1728485392.130707) vcan0 164#0000C01AA8000013
(1728485392.130716) vcan0 17C#0000000010000030
(1728485392.130718) vcan0 18E#00007A
(1728485392.130720) vcan0 294#040B0002CF5A001D
(1728485392.130723) vcan0 21E#03E83745220610
(1728485392.132684) vcan0 183#000000090000103F
(1728485392.132690) vcan0 143#6B6B00FF
(1728485392.135607) vcan0 095#800007F800000022
(1728485392.137639) vcan0 166#D0320036
(1728485392.137647) vcan0 039#002A
(1728485392.138666) vcan0 158#0000000000000037
(1728485392.138676) vcan0 161#000005500108003A
(1728485392.138678) vcan0 191#010090A1410021
(1728485392.138680) vcan0 164#0000C01AA8000022
(1728485392.139677) vcan0 244#00000001A1
(1728485392.139693) vcan0 133#0000000089
(1728485392.139697) vcan0 136#000200000000000C
(1728485392.139699) vcan0 13A#000000000000000A
(1728485392.139703) vcan0 13F#0000000500000000
(1728485392.141433) vcan0 17C#0000000010000003
(1728485392.141441) vcan0 18E#00004D
(1728485392.141443) vcan0 1CF#80050000002D
(1728485392.141445) vcan0 1DC#0200002A
(1728485392.141447) vcan0 183#0000000600001005
(1728485392.142456) vcan0 143#6B6B00C2
(1728485392.144322) vcan0 095#800007F800000031
(1728485392.145352) vcan0 1A4#0000000800000001
(1728485392.145359) vcan0 1AA#7FFF000000006801
(1728485392.145362) vcan0 1B0#000F0000000148
(1728485392.145364) vcan0 1D0#000000000000000A
(1728485392.148240) vcan0 166#D0320009
(1728485392.148246) vcan0 158#000000000000000A
(1728485392.148248) vcan0 161#000005500108000D
(1728485392.149267) vcan0 191#010090A1410030
(1728485392.149273) vcan0 133#0000000098
(1728485392.149275) vcan0 136#000200000000001B
(1728485392.149277) vcan0 13A#0000000000000019
(1728485392.151130) vcan0 13F#000000050000001F
(1728485392.151138) vcan0 164#0000C01AA8000031
(1728485392.151140) vcan0 17C#0000000010000012
(1728485392.151142) vcan0 18E#00005C
(1728485392.151200) vcan0 244#000000017B
(1728485392.152157) vcan0 183#0000000C0000101E
(1728485392.152165) vcan0 143#6B6B00D1
(1728485392.153176) vcan0 039#0039
(1728485392.154336) vcan0 095#800007F800000004
(1728485392.157946) vcan0 166#D0320018
(1728485392.157960) vcan0 158#0000000000000019
(1728485392.159566) vcan0 161#000005500108001C
(1728485392.159573) vcan0 191#010090A1410003
(1728485392.159575) vcan0 133#00000000A7
(1728485392.159578) vcan0 136#000200000000002A
(1728485392.159580) vcan0 13A#0000000000000028
(1728485392.159582) vcan0 13F#000000050000002E
(1728485392.159584) vcan0 164#0000C01AA8000004
(1728485392.160637) vcan0 17C#0000000010000021
(1728485392.160642) vcan0 18E#00006B
(1728485392.160645) vcan0 1CF#80050000003C
(1728485392.160647) vcan0 1DC#02000039
(1728485392.161654) vcan0 183#0000000900001020
(1728485392.162584) vcan0 244#000000018B
(1728485392.162670) vcan0 143#6B6B00E0
(1728485392.164426) vcan0 333#0000000000000F
(1728485392.164435) vcan0 095#800007F800000013
(1728485392.165447) vcan0 1A4#0000000800000010
(1728485392.165455) vcan0 1AA#7FFF000000006711
(1728485392.165458) vcan0 1B0#000F0000000157
(1728485392.165460) vcan0 1D0#000000000000000A
(1728485392.165462) vcan0 305#8008
(1728485392.167478) vcan0 166#D0320027
(1728485392.169288) vcan0 158#0000000000000028
(1728485392.169296) vcan0 161#000005500108002B
(1728485392.169298) vcan0 191#010090A1410012
(1728485392.169300) vcan0 133#00000000B6
(1728485392.169302) vcan0 136#0002000000000039
(1728485392.169304) vcan0 13A#0000000000000037
(1728485392.170340) vcan0 13F#000000050000003D
(1728485392.170351) vcan0 164#0000C01AA8000013
(1728485392.170353) vcan0 17C#0000000010000030
(1728485392.170355) vcan0 18E#00007A
(1728485392.170358) vcan0 294#040B0002CF5A002C
(1728485392.171513) vcan0 21E#03E8374522062F
(1728485392.173206) vcan0 183#0000000E0000103A
(1728485392.173215) vcan0 143#6B6B00FF
(1728485392.173223) vcan0 039#000C
(1728485392.174201) vcan0 244#00000001E6
(1728485392.174472) vcan0 095#800007F800000022
(1728485392.177115) vcan0 166#D0320036
(1728485392.178128) vcan0 158#0000000000000037
(1728485392.180011) vcan0 161#000005500108003A
(1728485392.180020) vcan0 191#010010A1410029
(1728485392.180022) vcan0 133#0000000089
(1728485392.180025) vcan0 136#000200000000000C
(1728485392.180027) vcan0 13A#000000000000000A
(1728485392.180029) vcan0 13F#0000000500000000
(1728485392.180031) vcan0 164#0000C01AA8000022
(1728485392.180034) vcan0 17C#0000000010000003
(1728485392.180040) vcan0 18E#00004D
(1728485392.181057) vcan0 1CF#80050000000F
(1728485392.181063) vcan0 1DC#0200000C
(1728485392.181065) vcan0 320#000003
(1728485392.181067) vcan0 324#7465000000000E0B
(1728485392.181070) vcan0 37C#FD00FD00097F000B
(1728485392.182086) vcan0 183#0000001200001008
(1728485392.182093) vcan0 143#6B6B00C2
(1728485392.184856) vcan0 095#800007F800000031
(1728485392.184866) vcan0 1A4#000000080000002F
(1728485392.184868) vcan0 039#001B
(1728485392.185901) vcan0 244#00000001BD
(1728485392.186335) vcan0 1AA#7FFF000000006720
(1728485392.186343) vcan0 1B0#000F0000000166
(1728485392.186370) vcan0 1D0#000000000000000A
(1728485392.187813) vcan0 166#D0320009
(1728485392.188837) vcan0 158#000000000000000A
(1728485392.188847) vcan0 161#000005500108000D
(1728485392.188850) vcan0 191#010010A1410038
(1728485392.188852) vcan0 133#0000000098
(1728485392.188854) vcan0 136#000200000000001B
(1728485392.190660) vcan0 13A#0000000000000019
(1728485392.190668) vcan0 13F#000000050000001F
(1728485392.190672) vcan0 164#0000C01AA8000031
(1728485392.190674) vcan0 17C#0000000010000012
(1728485392.190676) vcan0 18E#00005C
(1728485392.192632) vcan0 183#0000000D0000101D
(1728485392.192640) vcan0 143#6B6B00D1
(1728485392.194662) vcan0 095#800007F800000004
(1728485392.197689) vcan0 244#0000000153
(1728485392.197698) vcan0 166#D0320018
(1728485392.199418) vcan0 158#0000000000000019
(1728485392.199427) vcan0 161#000005500108001C
(1728485392.199430) vcan0 191#010010A141000B
(1728485392.199432) vcan0 164#0000C01AA8000004
(1728485392.199434) vcan0 133#00000000A7
(1728485392.199436) vcan0 136#000200000000002A
(1728485392.199438) vcan0 13A#0000000000000028
(1728485392.200454) vcan0 13F#000000050000002E
(1728485392.200460) vcan0 039#002A
(1728485392.200462) vcan0 17C#0000000010000021
(1728485392.200464) vcan0 18E#00006B
(1728485392.200466) vcan0 1CF#80050000001E
(1728485392.200468) vcan0 1DC#0200001B
(1728485392.201481) vcan0 183#0000000900001020
(1728485392.203356) vcan0 143#6B6B00E0
(1728485392.204376) vcan0 095#800007F400000017
(1728485392.205396) vcan0 1A4#000000080000003E
(1728485392.205403) vcan0 1AA#7FFF00000000683E
(1728485392.205405) vcan0 1B0#000F0000000175
(1728485392.205407) vcan0 1D0#000000000000000A
(1728485392.206942) vcan0 166#D0320027
(1728485392.208303) vcan0 158#0000000000000028
(1728485392.208311) vcan0 161#000005500108002B
(1728485392.208415) vcan0 244#000000012F
(1728485392.209322) vcan0 191#010010A141001A
(1728485392.209329) vcan0 133#00000000B6
(1728485392.209331) vcan0 136#0002000000000039
(1728485392.209333) vcan0 13A#0000000000000037
(1728485392.209335) vcan0 13F#000000050000003D
(1728485392.210682) vcan0 164#0000C01AA8000013
(1728485392.210690) vcan0 17C#0000000010000030
(1728485392.210692) vcan0 18E#00007A
(1728485392.210695) vcan0 294#040B0002CF5A003B
(1728485392.210697) vcan0 21E#03E8374522063E
(1728485392.211713) vcan0 309#0000000000000093
(1728485392.213059) vcan0 183#0000000600001032
(1728485392.213065) vcan0 143#6B6B00FF
(1728485392.214079) vcan0 039#0039
(1728485392.215981) vcan0 095#800007F400000026
(1728485392.216996) vcan0 166#D0320036
(1728485392.218015) vcan0 158#0000000000000037
(1728485392.219034) vcan0 161#000005500108003A
(1728485392.219040) vcan0 191#010010A1410029
(1728485392.219042) vcan0 133#0000000089
(1728485392.219044) vcan0 136#000200000000000C
(1728485392.220868) vcan0 13A#000000000000000A
(1728485392.220878) vcan0 13F#0000000500000000
(1728485392.220880) vcan0 164#0000C01AA8000022
(1728485392.220882) vcan0 17C#0000000010000003
(1728485392.220885) vcan0 18E#00004D
(1728485392.220887) vcan0 1CF#80050000002D
(1728485392.220889) vcan0 1DC#0200002A
(1728485392.222256) vcan0 183#0000000C0000100F
(1728485392.222264) vcan0 143#6B6B00C2
(1728485392.224130) vcan0 244#000000011C
(1728485392.224334) vcan0 095#800007F400000035
(1728485392.225691) vcan0 1A4#0000000800000001
(1728485392.225700) vcan0 1AA#7FFF000000006801
(1728485392.225702) vcan0 1B0#000F0000000148
(1728485392.225704) vcan0 1D0#000000000000000A
(1728485392.226805) vcan0 166#D0320009
(1728485392.227826) vcan0 039#000C
(1728485392.228844) vcan0 158#000000000000000A
(1728485392.228849) vcan0 161#000005500108000D
(1728485392.228852) vcan0 191#010010A1410038
(1728485392.228854) vcan0 133#0000000098
(1728485392.228857) vcan0 136#000200000000001B
(1728485392.230603) vcan0 13A#0000000000000019
(1728485392.230608) vcan0 13F#000000050000001F
(1728485392.230610) vcan0 164#0000C01AA8000031
(1728485392.230613) vcan0 17C#0000000010000012
(1728485392.230615) vcan0 18E#00005C
(1728485392.232636) vcan0 183#0000001000001019
(1728485392.232648) vcan0 143#6B6B00D1
(1728485392.234471) vcan0 244#00000001A4
(1728485392.234780) vcan0 095#800007F400000008
(1728485392.237417) vcan0 166#D0320018
(1728485392.238433) vcan0 158#0000000000000019
(1728485392.238438) vcan0 161#000005500108001C
(1728485392.238441) vcan0 191#010010A141000B
(1728485392.239476) vcan0 133#00000000A7
(1728485392.239486) vcan0 136#000200000000002A
(1728485392.239488) vcan0 13A#0000000000000028
(1728485392.239491) vcan0 13F#000000050000002E
(1728485392.240593) vcan0 164#0000C01AA8000004
(1728485392.240607) vcan0 17C#0000000010000021
(1728485392.240609) vcan0 18E#00006B
(1728485392.240612) vcan0 1CF#80050000003C
(1728485392.240614) vcan0 1DC#02000039
(1728485392.242343) vcan0 183#0000000C0000102D
(1728485392.242356) vcan0 143#6B6B00E0
(1728485392.244210) vcan0 039#001B
(1728485392.245353) vcan0 095#800007F400000017
(1728485392.245365) vcan0 1A4#0000000800000010
(1728485392.245368) vcan0 1AA#7FFF000000006711
(1728485392.245370) vcan0 1B0#000F0000000157
(1728485392.245373) vcan0 1D0#000000000000000A
(1728485392.246717) vcan0 166#D0320027
(1728485392.249095) vcan0 158#0000000000000028
(1728485392.249113) vcan0 161#000005500108002B
(1728485392.249115) vcan0 191#010010A141001A
(1728485392.249118) vcan0 133#00000000B6
(1728485392.249120) vcan0 136#0002000000000039
(1728485392.249122) vcan0 13A#0000000000000037
(1728485392.250131) vcan0 13F#000000050000003D
(1728485392.250138) vcan0 164#0000C01AA8000013
(1728485392.250141) vcan0 17C#0000000010000030
(1728485392.250143) vcan0 18E#00007A
(1728485392.250292) vcan0 244#000000013C
(1728485392.251994) vcan0 294#040B0002CF5A000E
(1728485392.252010) vcan0 21E#03E83745220601
(1728485392.252012) vcan0 183#0000001000001037
(1728485392.252015) vcan0 143#6B6B00FF
(1728485392.254599) vcan0 095#800007F400000026
(1728485392.256370) vcan0 039#002A
(1728485392.258307) vcan0 166#D0320036
(1728485392.258314) vcan0 158#0000000000000037
(1728485392.258317) vcan0 161#000005500108003A
(1728485392.260336) vcan0 191#010010A1410029
(1728485392.260350) vcan0 133#0000000089
(1728485392.260353) vcan0 136#000200000000000C
(1728485392.260355) vcan0 13A#000000000000000A
(1728485392.260358) vcan0 13F#0000000500000000
(1728485392.260360) vcan0 164#0000C01AA8000022
(1728485392.260363) vcan0 17C#0000000010000003
(1728485392.260374) vcan0 18E#00004D
(1728485392.260377) vcan0 1CF#80050000000F
(1728485392.260380) vcan0 1DC#0200000C
(1728485392.260999) vcan0 244#0000000144
(1728485392.261487) vcan0 183#0000000C0000100F
(1728485392.263243) vcan0 143#6B6B00C2
(1728485392.263254) vcan0 333#0000000000001E
(1728485392.265148) vcan0 095#800007F400000035
(1728485392.265156) vcan0 1A4#000000080000002F
(1728485392.265158) vcan0 1AA#7FFF000000006720
(1728485392.265161) vcan0 1B0#000F0000000166
(1728485392.267076) vcan0 1D0#000000000000000A
(1728485392.267087) vcan0 166#D0320009
(1728485392.269058) vcan0 305#8017
(1728485392.269071) vcan0 158#000000000000000A
(1728485392.269074) vcan0 161#000005500108000D
(1728485392.269076) vcan0 191#010010A1410038
(1728485392.269078) vcan0 133#0000000098
(1728485392.269081) vcan0 136#000200000000001B
(1728485392.269083) vcan0 13A#0000000000000019
(1728485392.271027) vcan0 13F#000000050000001F
(1728485392.271064) vcan0 164#0000C01AA8000031
(1728485392.271071) vcan0 17C#0000000010000012
(1728485392.271073) vcan0 18E#00005C
(1728485392.272900) vcan0 244#0000000185
(1728485392.272964) vcan0 183#0000000900001011
(1728485392.272975) vcan0 143#6B6B00D1
(1728485392.275154) vcan0 095#800007F400000008
(1728485392.275167) vcan0 039#0039
(1728485392.276762) vcan0 166#D0320018
(1728485392.279730) vcan0 158#0000000000000019
(1728485392.279738) vcan0 161#000005500108001C
(1728485392.279741) vcan0 191#010010A141000B
(1728485392.279743) vcan0 133#00000000A7
(1728485392.279746) vcan0 136#000200000000002A
(1728485392.279748) vcan0 13A#0000000000000028
(1728485392.279751) vcan0 13F#000000050000002E
(1728485392.279753) vcan0 164#0000C01AA8000004
(1728485392.280834) vcan0 17C#0000000010000021
(1728485392.280845) vcan0 18E#00006B
(1728485392.280847) vcan0 1CF#80050000001E
(1728485392.280850) vcan0 1DC#0200001B
(1728485392.280852) vcan0 320#000012
(1728485392.280856) vcan0 324#7465000000000E1A
(1728485392.283048) vcan0 37C#FD00FD00097F001A
(1728485392.283072) vcan0 40C#0236323239533039
(1728485392.283075) vcan0 183#0000000E0000102B
(1728485392.283077) vcan0 454#23EF36
(1728485392.283079) vcan0 143#6B6B00E0
(1728485392.283753) vcan0 244#000000018E
(1728485392.285536) vcan0 095#800007F400000017
(1728485392.285549) vcan0 1A4#000000080000003E
(1728485392.285551) vcan0 1AA#7FFF00000000683E
(1728485392.285554) vcan0 1B0#000F0000000175
(1728485392.285556) vcan0 1D0#000000000000000A
(1728485392.287888) vcan0 166#D0320027
(1728485392.288997) vcan0 158#0000000000000028
(1728485392.289007) vcan0 039#000C
(1728485392.289009) vcan0 161#000005500108002B
(1728485392.289011) vcan0 191#010010A141001A
(1728485392.289014) vcan0 133#00000000B6
(1728485392.289016) vcan0 136#0002000000000039
(1728485392.290442) vcan0 13A#0000000000000037
(1728485392.290452) vcan0 13F#000000050000003D
(1728485392.290454) vcan0 164#0000C01AA8000013
(1728485392.290457) vcan0 17C#0000000010000030
(1728485392.290459) vcan0 18E#00007A
(1728485392.290462) vcan0 294#040B0002CF5A001D
(1728485392.291540) vcan0 21E#03E83745220610
(1728485392.293345) vcan0 183#0000000A0000103E
(1728485392.293354) vcan0 143#6B6B00FF
(1728485392.294537) vcan0 095#800007F400000026
(1728485392.298216) vcan0 166#D0320036
(1728485392.298231) vcan0 158#0000000000000037
(1728485392.298234) vcan0 161#000005500108003A
(1728485392.299252) vcan0 191#010010A1410029
(1728485392.299265) vcan0 133#0000000089
(1728485392.299269) vcan0 136#000200000000000C
(1728485392.299273) vcan0 13A#000000000000000A
(1728485392.299350) vcan0 244#000000012F
(1728485392.301101) vcan0 13F#0000000500000000
(1728485392.301109) vcan0 164#0000C01AA8000022
(1728485392.301111) vcan0 17C#0000000010000003
(1728485392.301114) vcan0 18E#00004D
(1728485392.301116) vcan0 1CF#80050000002D
(1728485392.301118) vcan0 1DC#0200002A
(1728485392.302227) vcan0 183#0000000700001004
(1728485392.302235) vcan0 143#6B6B00C2
(1728485392.305498) vcan0 095#800007F400000035
(1728485392.305505) vcan0 039#001B
(1728485392.305508) vcan0 1A4#0000000800000001
(1728485392.305510) vcan0 1AA#7FFF000000006801
(1728485392.305512) vcan0 1B0#000F0000000148
(1728485392.305514) vcan0 1D0#000000000000000A
(1728485392.306940) vcan0 166#D0320009
(1728485392.308879) vcan0 158#000000000000000A
(1728485392.308888) vcan0 161#000005500108000D
(1728485392.308890) vcan0 191#010010A1410038
(1728485392.308893) vcan0 133#0000000098
(1728485392.308896) vcan0 136#000200000000001B
(1728485392.309914) vcan0 13A#0000000000000019
(1728485392.309926) vcan0 13F#000000050000001F
(1728485392.309928) vcan0 164#0000C01AA8000031
(1728485392.309930) vcan0 17C#0000000010000012
(1728485392.310546) vcan0 244#0000000141
(1728485392.310950) vcan0 18E#00005C
(1728485392.310955) vcan0 309#00000000000000A2
(1728485392.310958) vcan0 428#01040000521C01
(1728485392.310960) vcan0 405#000004000000000B
(1728485392.312769) vcan0 183#0000000D0000101D
(1728485392.312781) vcan0 143#6B6B00D1
(1728485392.314808) vcan0 095#800007F400000008
(1728485392.317624) vcan0 166#D0320018
(1728485392.319598) vcan0 158#0000000000000019
(1728485392.319605) vcan0 161#000005500108001C
(1728485392.319607) vcan0 191#010010A141000B
(1728485392.319610) vcan0 039#002A
(1728485392.319612) vcan0 133#00000000A7
(1728485392.319615) vcan0 136#000200000000002A
(1728485392.319617) vcan0 13A#0000000000000028
(1728485392.319620) vcan0 13F#000000050000002E
(1728485392.320662) vcan0 164#0000C01AA8000004
(1728485392.320675) vcan0 17C#0000000010000021
(1728485392.320678) vcan0 18E#00006B
(1728485392.320680) vcan0 1CF#80050000003C
(1728485392.320683) vcan0 1DC#02000039
(1728485392.321837) vcan0 183#0000000900001020
(1728485392.322175) vcan0 244#00000001DB
(1728485392.322924) vcan0 143#6B6B00E0
(1728485392.325453) vcan0 095#800007F400000017
(1728485392.325463) vcan0 1A4#0000000800000010
(1728485392.325465) vcan0 1AA#7FFF000000006711
(1728485392.325468) vcan0 1B0#000F0000000157
(1728485392.325470) vcan0 1D0#000000000000000A
(1728485392.328359) vcan0 166#D0320027
(1728485392.328364) vcan0 158#0000000000000028
(1728485392.328366) vcan0 161#000005500108002B
(1728485392.329522) vcan0 191#010010A141001A
(1728485392.329535) vcan0 133#00000000B6
(1728485392.329538) vcan0 136#0002000000000039
(1728485392.329540) vcan0 13A#0000000000000037
(1728485392.329542) vcan0 13F#000000050000003D
(1728485392.330620) vcan0 164#0000C01AA8000013
(1728485392.330630) vcan0 17C#0000000010000030
(1728485392.330632) vcan0 18E#00007A
(1728485392.330635) vcan0 294#040B0002CF5A002C
(1728485392.330637) vcan0 21E#03E8374522062F
(1728485392.332222) vcan0 183#0000000E0000103A
(1728485392.332230) vcan0 143#6B6B00FF
(1728485392.332439) vcan0 244#000000016F
(1728485392.335133) vcan0 095#800007F400000026
(1728485392.335143) vcan0 5A1#960000000000623E
(1728485392.338060) vcan0 166#D0320036
(1728485392.338073) vcan0 158#0000000000000037
(1728485392.340052) vcan0 161#000005500108003A
(1728485392.340066) vcan0 191#010010A1410029
(1728485392.340069) vcan0 133#0000000089
(1728485392.340071) vcan0 039#0039
(1728485392.340074) vcan0 136#000200000000000C
(1728485392.340076) vcan0 13A#000000000000000A
(1728485392.340078) vcan0 13F#0000000500000000
(1728485392.340081) vcan0 164#0000C01AA8000022
(1728485392.340084) vcan0 17C#0000000010000003
(1728485392.340086) vcan0 18E#00004D
(1728485392.341957) vcan0 1CF#80050000000F
(1728485392.341966) vcan0 1DC#0200000C
(1728485392.341969) vcan0 183#0000000A00001001
(1728485392.343040) vcan0 143#6B6B00C2
(1728485392.344908) vcan0 095#800007F400000035
(1728485392.344920) vcan0 1A4#000000080000002F
(1728485392.344923) vcan0 1AA#7FFF000000006720
(1728485392.346841) vcan0 1B0#000F0000000166
(1728485392.346853) vcan0 1D0#000000000000000A
(1728485392.346855) vcan0 166#D0320009
(1728485392.347955) vcan0 158#000000000000000A
(1728485392.348199) vcan0 244#00000001A6
(1728485392.349716) vcan0 161#000005500108000D
(1728485392.349726) vcan0 191#010010A1410038
(1728485392.349728) vcan0 133#0000000098
(1728485392.349730) vcan0 136#000200000000001B
(1728485392.349733) vcan0 13A#0000000000000019
(1728485392.349735) vcan0 13F#000000050000001F
(1728485392.349737) vcan0 164#0000C01AA8000031
(1728485392.350931) vcan0 17C#0000000010000012
(1728485392.350942) vcan0 18E#00005C
(1728485392.353647) vcan0 183#0000000700001013
(1728485392.353659) vcan0 143#6B6B00D1
(1728485392.353661) vcan0 039#000C
(1728485392.354698) vcan0 095#800007F400000008
(1728485392.357627) vcan0 166#D0320018
(1728485392.358661) vcan0 158#0000000000000019
(1728485392.358674) vcan0 161#000005500108001C
(1728485392.358676) vcan0 191#010010A141000B
(1728485392.358679) vcan0 133#00000000A7
(1728485392.360459) vcan0 244#000000017D
(1728485392.360460) vcan0 136#000200000000002A
(1728485392.360468) vcan0 13A#0000000000000028
(1728485392.360471) vcan0 13F#000000050000002E
(1728485392.360473) vcan0 164#0000C01AA8000004
(1728485392.360475) vcan0 17C#0000000010000021
(1728485392.360477) vcan0 18E#00006B
(1728485392.360479) vcan0 1CF#80050000001E
(1728485392.360483) vcan0 1DC#0200001B
(1728485392.361500) vcan0 183#0000000500001024
(1728485392.363475) vcan0 143#6B6B00E0
(1728485392.363487) vcan0 333#0000000000002D
(1728485392.364517) vcan0 095#800007F400000017
(1728485392.366247) vcan0 1A4#000000080000003E
(1728485392.366256) vcan0 1AA#7FFF00000000683E
(1728485392.366259) vcan0 1B0#000F0000000175
(1728485392.366261) vcan0 1D0#000000000000000A
(1728485392.367333) vcan0 039#001B
(1728485392.367340) vcan0 166#D0320027
(1728485392.368409) vcan0 158#0000000000000028
(1728485392.368421) vcan0 161#000005500108002B
(1728485392.368423) vcan0 191#010010A141001A
(1728485392.370173) vcan0 133#00000000B6
(1728485392.370181) vcan0 136#0002000000000039
(1728485392.370183) vcan0 13A#0000000000000037
(1728485392.370185) vcan0 13F#000000050000003D
(1728485392.370187) vcan0 164#0000C01AA8000013
(1728485392.370190) vcan0 17C#0000000010000030
(1728485392.370192) vcan0 18E#00007A
(1728485392.370194) vcan0 294#040B0002CF5A003B
(1728485392.371276) vcan0 21E#03E8374522063E
(1728485392.371390) vcan0 244#0000000134
(1728485392.373080) vcan0 183#0000000300001035
(1728485392.373094) vcan0 143#6B6B00FF
(1728485392.373096) vcan0 305#8026
(1728485392.376035) vcan0 095#800007F400000026
(1728485392.377258) vcan0 166#D0320036
(1728485392.378960) vcan0 158#0000000000000037
(1728485392.378967) vcan0 161#000005500108003A
(1728485392.378983) vcan0 191#010010A1410029
(1728485392.378989) vcan0 133#0000000089
(1728485392.378991) vcan0 136#000200000000000C
(1728485392.380907) vcan0 13A#000000000000000A
(1728485392.380915) vcan0 13F#0000000500000000
(1728485392.380917) vcan0 164#0000C01AA8000022
(1728485392.380920) vcan0 039#002A
(1728485392.380922) vcan0 17C#0000000010000003
(1728485392.380924) vcan0 18E#00004D
(1728485392.380927) vcan0 1CF#80050000002D
(1728485392.380929) vcan0 1DC#0200002A
(1728485392.380931) vcan0 320#000021
(1728485392.380934) vcan0 324#7465000000000E29
(1728485392.382817) vcan0 244#0000000105
(1728485392.382847) vcan0 37C#FD00FD00097F0029
(1728485392.382852) vcan0 183#0000000A00001001
(1728485392.382855) vcan0 143#6B6B00C2
(1728485392.384768) vcan0 095#800007F400000035
(1728485392.384775) vcan0 1A4#0000000800000001
(1728485392.385871) vcan0 1AA#7FFF000000006801
(1728485392.385878) vcan0 1B0#000F0000000148
(1728485392.385881) vcan0 1D0#000000000000000A
(1728485392.387768) vcan0 166#D0320009
(1728485392.389723) vcan0 158#000000000000000A
(1728485392.389735) vcan0 161#000005500108000D
(1728485392.389738) vcan0 191#010010A1410038
(1728485392.389740) vcan0 133#0000000098
(1728485392.389742) vcan0 136#000200000000001B
(1728485392.389744) vcan0 13A#0000000000000019
(1728485392.389746) vcan0 13F#000000050000001F
(1728485392.389749) vcan0 164#0000C01AA8000031
(1728485392.391590) vcan0 17C#0000000010000012
(1728485392.391597) vcan0 18E#00005C
(1728485392.393623) vcan0 183#0000000700001013
(1728485392.393633) vcan0 143#6B6B00D1
(1728485392.394461) vcan0 244#0000000175
(1728485392.394741) vcan0 095#800007F400000008
(1728485392.398408) vcan0 166#D0320018
(1728485392.398416) vcan0 158#0000000000000019
(1728485392.398418) vcan0 161#000005500108001C
(1728485392.398421) vcan0 191#010010A141000B
(1728485392.399430) vcan0 133#00000000A7
(1728485392.399436) vcan0 136#000200000000002A
(1728485392.399438) vcan0 13A#0000000000000028
(1728485392.399440) vcan0 13F#000000050000002E
(1728485392.401351) vcan0 164#0000C01AA8000004
(1728485392.401362) vcan0 039#0039
(1728485392.401365) vcan0 17C#0000000010000021
(1728485392.401367) vcan0 18E#00006B
(1728485392.401369) vcan0 1CF#80050000003C
(1728485392.401371) vcan0 1DC#02000039
(1728485392.401373) vcan0 183#0000000500001024
(1728485392.402409) vcan0 143#6B6B00E0
(1728485392.405609) vcan0 095#800007F400000017
(1728485392.405619) vcan0 1A4#0000000800000010
(1728485392.405621) vcan0 1AA#7FFF000000006711
(1728485392.405623) vcan0 1B0#000F0000000157
(1728485392.405626) vcan0 1D0#000000000000000A
(1728485392.405717) vcan0 244#0000000197
(1728485392.407217) vcan0 166#D0320027
(1728485392.409157) vcan0 158#0000000000000028
(1728485392.409168) vcan0 161#000005500108002B
(1728485392.409170) vcan0 191#010010A141001A
(1728485392.409172) vcan0 133#00000000B6
(1728485392.409175) vcan0 136#0002000000000039
(1728485392.409177) vcan0 13A#0000000000000037
(1728485392.411300) vcan0 13F#000000050000003D
(1728485392.411309) vcan0 164#0000C01AA8000013
(1728485392.411311) vcan0 17C#0000000010000030
(1728485392.411314) vcan0 18E#00007A
(1728485392.411316) vcan0 294#040B0002CF5A000E
(1728485392.411322) vcan0 21E#03E83745220601
(1728485392.411324) vcan0 309#00000000000000B1
(1728485392.413010) vcan0 183#0000000B0000103D
(1728485392.413017) vcan0 143#6B6B00FF
(1728485392.414891) vcan0 039#000C
(1728485392.414899) vcan0 095#800007F400000026
(1728485392.417071) vcan0 166#D0320036
(1728485392.418822) vcan0 158#0000000000000037
(1728485392.418822) vcan0 244#0000000158
(1728485392.418829) vcan0 161#000005500108003A
(1728485392.418831) vcan0 191#010010A1410029
(1728485392.418833) vcan0 133#0000000089
(1728485392.418835) vcan0 136#000200000000000C
(1728485392.419849) vcan0 13A#000000000000000A
(1728485392.419857) vcan0 13F#0000000500000000
(1728485392.419859) vcan0 164#0000C01AA8000022
(1728485392.419861) vcan0 17C#0000000010000003
(1728485392.420936) vcan0 18E#00004D
(1728485392.420945) vcan0 1CF#80050000000F
(1728485392.420947) vcan0 1DC#0200000C
(1728485392.422967) vcan0 183#0000000800001003
(1728485392.422985) vcan0 143#6B6B00C2
(1728485392.425770) vcan0 095#800007F400000035
(1728485392.425779) vcan0 1A4#000000080000002F
(1728485392.425781) vcan0 1AA#7FFF000000006720
(1728485392.425783) vcan0 1B0#000F0000000166
(1728485392.425786) vcan0 1D0#000000000000000A
(1728485392.427718) vcan0 166#D0320009
(1728485392.427729) vcan0 039#001B
(1728485392.429624) vcan0 158#000000000000000A
(1728485392.429635) vcan0 161#000005500108000D
(1728485392.429637) vcan0 191#010010A1410038
(1728485392.429639) vcan0 133#0000000098
(1728485392.429642) vcan0 136#000200000000001B
(1728485392.429644) vcan0 13A#0000000000000019
(1728485392.429647) vcan0 13F#000000050000001F
(1728485392.429651) vcan0 164#0000C01AA8000031
(1728485392.430606) vcan0 244#00000001B0
(1728485392.431149) vcan0 17C#0000000010000012
(1728485392.431158) vcan0 18E#00005C
(1728485392.432557) vcan0 183#0000000600001014
(1728485392.432564) vcan0 143#6B6B00D1
(1728485392.434498) vcan0 095#800007F400000008
(1728485392.435629) vcan0 188#00000000
(1728485392.437421) vcan0 166#D0320018
(1728485392.438477) vcan0 158#0000000000000019
(1728485392.438494) vcan0 161#000005500108001C
(1728485392.438499) vcan0 191#010010A141000B
(1728485392.440424) vcan0 133#00000000A7
(1728485392.440435) vcan0 136#000200000000002A
(1728485392.440437) vcan0 13A#0000000000000028
(1728485392.440439) vcan0 13F#000000050000002E
(1728485392.440441) vcan0 164#0000C01AA8000004
(1728485392.440444) vcan0 17C#0000000010000021
(1728485392.440446) vcan0 18E#00006B
(1728485392.440448) vcan0 1CF#80050000001E
(1728485392.440450) vcan0 1DC#0200001B
(1728485392.441307) vcan0 244#0000000196
(1728485392.441488) vcan0 183#0000000C0000102D
(1728485392.443255) vcan0 143#6B6B00E0
(1728485392.443265) vcan0 039#002A
(1728485392.445213) vcan0 095#800007F400000017
(1728485392.445223) vcan0 1A4#000000080000003E
(1728485392.445226) vcan0 1AA#7FFF00000000683E
(1728485392.445228) vcan0 1B0#000F0000000175
(1728485392.446305) vcan0 1D0#000000000000000A
(1728485392.448178) vcan0 166#D0320027
(1728485392.448189) vcan0 158#0000000000000028
(1728485392.448191) vcan0 161#000005500108002B
(1728485392.450055) vcan0 191#010010A141001A
(1728485392.450065) vcan0 133#00000000B6
(1728485392.450068) vcan0 136#0002000000000039
(1728485392.450070) vcan0 13A#0000000000000037
(1728485392.450072) vcan0 13F#000000050000003D
(1728485392.450075) vcan0 164#0000C01AA8000013
(1728485392.450077) vcan0 17C#0000000010000030
(1728485392.450079) vcan0 18E#00007A
(1728485392.452034) vcan0 294#040B0002CF5A001D
(1728485392.452039) vcan0 21E#03E83745220610
(1728485392.452042) vcan0 183#000000090000103F
(1728485392.452044) vcan0 143#6B6B00FF
(1728485392.455270) vcan0 095#800007F400000026
(1728485392.456937) vcan0 166#D0320036
(1728485392.457067) vcan0 244#00000001E6
(1728485392.458823) vcan0 158#0000000000000037
(1728485392.458833) vcan0 161#000005500108003A
(1728485392.458835) vcan0 191#010010A1410029
(1728485392.458837) vcan0 133#0000000089
(1728485392.458840) vcan0 136#000200000000000C
(1728485392.460766) vcan0 13A#000000000000000A
(1728485392.460772) vcan0 13F#0000000500000000
(1728485392.460774) vcan0 164#0000C01AA8000022
(1728485392.460776) vcan0 17C#0000000010000003
(1728485392.460779) vcan0 18E#00004D
(1728485392.460781) vcan0 1CF#80050000002D
(1728485392.460783) vcan0 1DC#0200002A
(1728485392.461794) vcan0 183#0000000E0000100D
(1728485392.462907) vcan0 143#6B6B00C2
(1728485392.462918) vcan0 039#0039
(1728485392.462920) vcan0 333#0000000000003C
(1728485392.464690) vcan0 095#800007F400000035
(1728485392.464698) vcan0 1A4#0000000800000001
(1728485392.466611) vcan0 1AA#7FFF000000006801
(1728485392.466617) vcan0 1B0#000F0000000148
(1728485392.466620) vcan0 1D0#000000000000000A
(1728485392.467633) vcan0 166#D0320009
(1728485392.467712) vcan0 244#0000000147
(1728485392.469523) vcan0 158#000000000000000A
(1728485392.469530) vcan0 161#000005500108000D
(1728485392.469532) vcan0 191#010010A1410038
(1728485392.469534) vcan0 133#0000000098
(1728485392.469537) vcan0 136#000200000000001B
(1728485392.469539) vcan0 13A#0000000000000019
(1728485392.469541) vcan0 13F#000000050000001F
(1728485392.470585) vcan0 164#0000C01AA8000031
(1728485392.470594) vcan0 17C#0000000010000012
(1728485392.470596) vcan0 18E#00005C
(1728485392.472699) vcan0 183#0000000A00001010
(1728485392.472713) vcan0 143#6B6B00D1
(1728485392.474387) vcan0 095#800007F400000008
(1728485392.475437) vcan0 305#8035
(1728485392.477394) vcan0 166#D0320018
(1728485392.479262) vcan0 158#0000000000000019
(1728485392.479270) vcan0 161#000005500108001C
(1728485392.479273) vcan0 191#010090A1410003
(1728485392.479275) vcan0 133#00000000A7
(1728485392.479277) vcan0 136#000200000000002A
(1728485392.479280) vcan0 13A#0000000000000028
(1728485392.481212) vcan0 13F#000000050000002E
(1728485392.481219) vcan0 164#0000C01AA8000004
(1728485392.481222) vcan0 17C#0000000010000021
(1728485392.481224) vcan0 18E#00006B
(1728485392.481226) vcan0 1CF#80050000003C
(1728485392.481229) vcan0 1DC#02000039
(1728485392.481231) vcan0 320#000030
(1728485392.481235) vcan0 324#7465000000000E38
(1728485392.481238) vcan0 37C#FD00FD00097F0038
(1728485392.482291) vcan0 183#0000000F0000102A
(1728485392.482301) vcan0 143#6B6B00E0
(1728485392.483271) vcan0 244#000000013F
(1728485392.483469) vcan0 039#000C
(1728485392.485144) vcan0 095#800007F400000017
(1728485392.485161) vcan0 1A4#0000000800000010
(1728485392.485165) vcan0 1AA#7FFF000000006711
(1728485392.485168) vcan0 1B0#000F0000000157
(1728485392.487086) vcan0 1D0#000000000000000A
(1728485392.487097) vcan0 166#D0320027
(1728485392.488233) vcan0 158#0000000000000028
(1728485392.488244) vcan0 161#000005500108002B
(1728485392.489963) vcan0 191#010090A1410012
(1728485392.489974) vcan0 133#00000000B6
(1728485392.489976) vcan0 136#0002000000000039
(1728485392.489978) vcan0 13A#0000000000000037
(1728485392.489981) vcan0 13F#000000050000003D
(1728485392.489983) vcan0 164#0000C01AA8000013
(1728485392.489985) vcan0 17C#0000000010000030
(1728485392.489988) vcan0 18E#00007A
(1728485392.491905) vcan0 294#040B0002CF5A002C
(1728485392.491915) vcan0 21E#03E8374522062F
(1728485392.491917) vcan0 183#0000001300001034
(1728485392.493803) vcan0 143#6B6B00FF
(1728485392.494818) vcan0 244#000000018B
(1728485392.494944) vcan0 095#800007F400000026
(1728485392.496764) vcan0 166#D0320036
(1728485392.497798) vcan0 039#001B
(1728485392.498828) vcan0 158#0000000000000037
(1728485392.498842) vcan0 161#000005500108003A
(1728485392.498844) vcan0 191#010090A1410021
(1728485392.498846) vcan0 133#0000000089
(1728485392.498849) vcan0 136#000200000000000C
(1728485392.500781) vcan0 13A#000000000000000A
(1728485392.500792) vcan0 13F#0000000500000000
(1728485392.500795) vcan0 164#0000C01AA8000022
(1728485392.500797) vcan0 17C#0000000010000003
(1728485392.500799) vcan0 18E#00004D
(1728485392.500801) vcan0 1CF#80050000000F
(1728485392.500803) vcan0 1DC#0200000C
(1728485392.502604) vcan0 183#0000000E0000100D
(1728485392.502613) vcan0 143#6B6B00C2
(1728485392.504555) vcan0 095#800007F400000035
(1728485392.505580) vcan0 1A4#000000080000002F
(1728485392.505592) vcan0 1AA#7FFF000000006720
(1728485392.505594) vcan0 1B0#000F0000000166
(1728485392.505597) vcan0 1D0#000000000000000A
(1728485392.505732) vcan0 244#00000001FE
(1728485392.507485) vcan0 166#D0320009
(1728485392.509500) vcan0 158#000000000000000A
(1728485392.509512) vcan0 161#000005500108000D
(1728485392.509515) vcan0 191#010090A1410030
(1728485392.509518) vcan0 133#0000000098
(1728485392.509520) vcan0 136#000200000000001B
(1728485392.509524) vcan0 13A#0000000000000019
(1728485392.509526) vcan0 13F#000000050000001F
(1728485392.510543) vcan0 164#0000C01AA8000031
(1728485392.510551) vcan0 17C#0000000010000012
(1728485392.510553) vcan0 18E#00005C
(1728485392.510556) vcan0 309#0000000000000084
(1728485392.511750) vcan0 039#002A
(1728485392.512796) vcan0 183#0000000A00001010
(1728485392.512804) vcan0 143#6B6B00D1
(1728485392.514341) vcan0 095#800007F400000008
(1728485392.517224) vcan0 166#D0320018
(1728485392.518235) vcan0 158#0000000000000019
(1728485392.518240) vcan0 161#000005500108001C
(1728485392.521085) vcan0 191#010090A1410003
(1728485392.521093) vcan0 133#00000000A7
(1728485392.521095) vcan0 136#000200000000002A
(1728485392.521097) vcan0 13A#0000000000000028
(1728485392.521099) vcan0 13F#000000050000002E
(1728485392.521101) vcan0 164#0000C01AA8000004
(1728485392.521103) vcan0 17C#0000000010000021
(1728485392.521105) vcan0 18E#00006B
(1728485392.521108) vcan0 1CF#80050000001E
(1728485392.521110) vcan0 1DC#0200001B
(1728485392.521237) vcan0 244#00000001FC
(1728485392.522182) vcan0 183#0000000700001022
(1728485392.522192) vcan0 143#6B6B00E0
(1728485392.525063) vcan0 095#800007F400000017
(1728485392.525072) vcan0 1A4#000000080000003E
(1728485392.525075) vcan0 1AA#7FFF00000000683E
(1728485392.525082) vcan0 039#0039
(1728485392.526095) vcan0 1B0#000F0000000175
(1728485392.526102) vcan0 1D0#000000000000000A
(1728485392.527112) vcan0 166#D0320027
(1728485392.528130) vcan0 158#0000000000000028
(1728485392.529141) vcan0 161#000005500108002B
(1728485392.529145) vcan0 191#010090A1410012
(1728485392.529147) vcan0 133#00000000B6
(1728485392.529149) vcan0 136#0002000000000039
(1728485392.529152) vcan0 13A#0000000000000037
(1728485392.530946) vcan0 13F#000000050000003D
(1728485392.530950) vcan0 164#0000C01AA8000013
(1728485392.530953) vcan0 17C#0000000010000030
(1728485392.530955) vcan0 18E#00007A
(1728485392.530957) vcan0 294#040B0002CF5A003B
(1728485392.530959) vcan0 21E#03E8374522063E
(1728485392.531901) vcan0 244#00000001A2
(1728485392.531968) vcan0 183#0000000D0000103B
(1728485392.532986) vcan0 143#6B6B00FF
(1728485392.535783) vcan0 095#800007F400000026
(1728485392.536799) vcan0 166#D0320036
(1728485392.539798) vcan0 158#0000000000000037
(1728485392.539813) vcan0 161#000005500108003A
(1728485392.539816) vcan0 191#010090A1410021
(1728485392.539818) vcan0 133#0000000089
(1728485392.539820) vcan0 136#000200000000000C
(1728485392.539822) vcan0 13A#000000000000000A
(1728485392.539824) vcan0 13F#0000000500000000
(1728485392.539826) vcan0 039#000C
(1728485392.539830) vcan0 164#0000C01AA8000022
(1728485392.540839) vcan0 17C#0000000010000003
(1728485392.540845) vcan0 18E#00004D
(1728485392.540847) vcan0 1CF#80050000002D
(1728485392.540849) vcan0 1DC#0200002A
(1728485392.542605) vcan0 244#0000000125
(1728485392.542619) vcan0 183#0000001100001009
(1728485392.542623) vcan0 143#6B6B00C2
(1728485392.544641) vcan0 095#800007F400000035
(1728485392.544656) vcan0 1A4#0000000800000001
(1728485392.545667) vcan0 1AA#7FFF000000006801
(1728485392.545675) vcan0 1B0#000F0000000148
(1728485392.545680) vcan0 1D0#000000000000000A
(1728485392.547708) vcan0 166#D0320009
(1728485392.548726) vcan0 158#000000000000000A
(1728485392.548734) vcan0 161#000005500108000D
(1728485392.548741) vcan0 191#010090A1410030
(1728485392.548746) vcan0 133#0000000098
(1728485392.549764) vcan0 136#000200000000001B
(1728485392.549772) vcan0 13A#0000000000000019
(1728485392.549777) vcan0 13F#000000050000001F
(1728485392.549782) vcan0 164#0000C01AA8000031
(1728485392.550798) vcan0 17C#0000000010000012
(1728485392.550808) vcan0 18E#00005C
(1728485392.552302) vcan0 183#0000000C0000101E
(1728485392.552310) vcan0 143#6B6B00D1
(1728485392.553254) vcan0 244#00000001FE
(1728485392.553406) vcan0 039#001B
(1728485392.554435) vcan0 095#800007F400000008
(1728485392.558224) vcan0 166#D0320018
(1728485392.558233) vcan0 158#0000000000000019
(1728485392.558235) vcan0 161#000005500108001C
(1728485392.560137) vcan0 191#010090A1410003
(1728485392.560150) vcan0 133#00000000A7
(1728485392.560156) vcan0 136#000200000000002A
(1728485392.560162) vcan0 13A#0000000000000028
(1728485392.560167) vcan0 13F#000000050000002E
(1728485392.560172) vcan0 164#0000C01AA8000004
(1728485392.560203) vcan0 17C#0000000010000021
(1728485392.560210) vcan0 18E#00006B
(1728485392.560215) vcan0 1CF#80050000003C
(1728485392.562157) vcan0 1DC#02000039
(1728485392.562197) vcan0 183#0000001000001028
(1728485392.562204) vcan0 143#6B6B00E0
(1728485392.563222) vcan0 333#0000000000000F
(1728485392.564987) vcan0 095#800007F400000017
(1728485392.564997) vcan0 1A4#0000000800000010
(1728485392.565003) vcan0 1AA#7FFF000000006711
(1728485392.566935) vcan0 1B0#000F0000000157
(1728485392.566956) vcan0 1D0#000000000000000A
(1728485392.566964) vcan0 039#002A
(1728485392.566969) vcan0 166#D0320027
(1728485392.568872) vcan0 158#0000000000000028
(1728485392.568885) vcan0 161#000005500108002B
(1728485392.568891) vcan0 191#010090A1410012
(1728485392.568898) vcan0 133#00000000B6
(1728485392.568903) vcan0 136#0002000000000039
(1728485392.568970) vcan0 244#000000017B
(1728485392.569924) vcan0 13A#0000000000000037
(1728485392.569941) vcan0 13F#000000050000003D
(1728485392.569950) vcan0 164#0000C01AA8000013
(1728485392.569955) vcan0 17C#0000000010000030
(1728485392.569960) vcan0 18E#00007A
(1728485392.571051) vcan0 294#040B0002CF5A000E
(1728485392.571069) vcan0 21E#03E83745220601
(1728485392.572818) vcan0 183#0000000C0000103C
(1728485392.572843) vcan0 143#6B6B00FF
(1728485392.574659) vcan0 095#800007F400000026
(1728485392.577707) vcan0 166#D0320036
(1728485392.578748) vcan0 158#0000000000000037
(1728485392.578761) vcan0 161#000005500108003A
(1728485392.578767) vcan0 191#010090A1410021
(1728485392.578772) vcan0 133#0000000089
(1728485392.579731) vcan0 244#0000000195
(1728485392.579907) vcan0 136#000200000000000C
(1728485392.579916) vcan0 13A#000000000000000A
(1728485392.579921) vcan0 039#0039
(1728485392.579926) vcan0 13F#0000000500000000
(1728485392.579931) vcan0 164#0000C01AA8000022
(1728485392.581472) vcan0 17C#0000000010000003
(1728485392.581486) vcan0 18E#00004D
(1728485392.581491) vcan0 1CF#80050000000F
(1728485392.581496) vcan0 1DC#0200000C
(1728485392.581500) vcan0 305#8008
(1728485392.581505) vcan0 320#000003
(1728485392.581510) vcan0 324#7465000000000E0B
(1728485392.581515) vcan0 37C#FD00FD00097F000B
(1728485392.581521) vcan0 183#0000000900001002
(1728485392.583472) vcan0 40C#033133383439000D
(1728485392.583482) vcan0 454#23EF09
(1728485392.583484) vcan0 143#6B6B00C2
(1728485392.584503) vcan0 095#800007F400000035
(1728485392.585529) vcan0 1A4#000000080000002F
(1728485392.585538) vcan0 1AA#7FFF000000006720
(1728485392.585544) vcan0 1B0#000F0000000166
(1728485392.585549) vcan0 1D0#000000000000000A
(1728485392.587642) vcan0 166#D0320009
(1728485392.589254) vcan0 158#000000000000000A
(1728485392.589271) vcan0 161#000005500108000D
(1728485392.589276) vcan0 191#010090A1410030
(1728485392.589281) vcan0 133#0000000098
(1728485392.589286) vcan0 136#000200000000001B
(1728485392.589291) vcan0 13A#0000000000000019
(1728485392.590307) vcan0 244#0000000149
(1728485392.590399) vcan0 13F#000000050000001F
(1728485392.590411) vcan0 164#0000C01AA8000031
(1728485392.590416) vcan0 17C#0000000010000012
(1728485392.590422) vcan0 18E#00005C
(1728485392.592446) vcan0 183#0000000E0000101C
(1728485392.592464) vcan0 143#6B6B00D1
(1728485392.594139) vcan0 039#000C
(1728485392.595174) vcan0 095#800007F400000008
(1728485392.597215) vcan0 166#D0320018
(1728485392.598245) vcan0 158#0000000000000019
(1728485392.598263) vcan0 161#000005500108001C
(1728485392.599982) vcan0 191#010090A1410003
(1728485392.600001) vcan0 133#00000000A7
(1728485392.600007) vcan0 136#000200000000002A
(1728485392.600012) vcan0 13A#0000000000000028
(1728485392.600017) vcan0 13F#000000050000002E
(1728485392.600022) vcan0 164#0000C01AA8000004
(1728485392.600027) vcan0 17C#0000000010000021
(1728485392.600032) vcan0 18E#00006B
(1728485392.601050) vcan0 1CF#80050000001E
(1728485392.601058) vcan0 1DC#0200001B
(1728485392.602078) vcan0 183#0000000A0000102F
(1728485392.602088) vcan0 143#6B6B00E0
(1728485392.605146) vcan0 095#800007F400000017
(1728485392.605161) vcan0 1A4#000000080000003E
(1728485392.605163) vcan0 1AA#7FFF00000000683E
(1728485392.605166) vcan0 1B0#000F0000000175
(1728485392.606012) vcan0 244#0000000133
(1728485392.606351) vcan0 1D0#000000000000000A
(1728485392.607883) vcan0 166#D0320027
(1728485392.609854) vcan0 158#0000000000000028
(1728485392.609865) vcan0 161#000005500108002B
(1728485392.609868) vcan0 191#010090A1410012
(1728485392.609871) vcan0 133#00000000B6
(1728485392.609873) vcan0 136#0002000000000039
(1728485392.609886) vcan0 13A#0000000000000037
(1728485392.609889) vcan0 039#001B
(1728485392.609892) vcan0 13F#000000050000003D
(1728485392.609895) vcan0 164#0000C01AA8000013
(1728485392.610913) vcan0 17C#0000000010000030
(1728485392.610944) vcan0 18E#00007A
(1728485392.610947) vcan0 294#040B0002CF5A001D
(1728485392.610949) vcan0 21E#03E83745220610
(1728485392.610951) vcan0 309#0000000000000093
(1728485392.612063) vcan0 428#01040000521C10
(1728485392.612080) vcan0 405#000004000000001A
(1728485392.612086) vcan0 183#0000000700001031
(1728485392.612091) vcan0 143#6B6B00FF
(1728485392.614567) vcan0 095#800007F400000026
(1728485392.616552) vcan0 244#00000001D5
(1728485392.617588) vcan0 166#D0320036
(1728485392.618736) vcan0 158#0000000000000037
(1728485392.618756) vcan0 161#000005500108003A
(1728485392.618763) vcan0 191#010090A1410021
(1728485392.618769) vcan0 133#0000000089
(1728485392.620416) vcan0 136#000200000000000C
(1728485392.620429) vcan0 13A#000000000000000A
(1728485392.620434) vcan0 13F#0000000500000000
(1728485392.620439) vcan0 164#0000C01AA8000022
(1728485392.620444) vcan0 17C#0000000010000003
(1728485392.620449) vcan0 18E#00004D
(1728485392.620455) vcan0 1CF#80050000002D
(1728485392.620460) vcan0 1DC#0200002A
(1728485392.621473) vcan0 183#0000000D0000100E
(1728485392.622496) vcan0 143#6B6B00C2
(1728485392.624364) vcan0 039#002A
(1728485392.624391) vcan0 095#800007F400000035
(1728485392.625453) vcan0 1A4#0000000800000001
(1728485392.625470) vcan0 1AA#7FFF000000006801
(1728485392.625476) vcan0 1B0#000F0000000148
(1728485392.625481) vcan0 1D0#000000000000000A
(1728485392.628175) vcan0 166#D0320009
(1728485392.628190) vcan0 158#000000000000000A
(1728485392.628196) vcan0 161#000005500108000D
(1728485392.629208) vcan0 191#010090A1410030
(1728485392.629217) vcan0 133#0000000098
(1728485392.629222) vcan0 136#000200000000001B
(1728485392.629227) vcan0 13A#0000000000000019
(1728485392.631103) vcan0 13F#000000050000001F
(1728485392.631116) vcan0 164#0000C01AA9000030
(1728485392.631121) vcan0 17C#0000000010000012
(1728485392.631126) vcan0 18E#00005C
(1728485392.631679) vcan0 244#0000000123
(1728485392.632239) vcan0 183#0000000900001011
(1728485392.632368) vcan0 143#6B6B00D1
(1728485392.636004) vcan0 095#800007F400000008
(1728485392.638008) vcan0 166#D0320018
(1728485392.638019) vcan0 158#0000000000000019
(1728485392.639234) vcan0 161#000005500108001C
(1728485392.639275) vcan0 191#010090A1410003
(1728485392.639280) vcan0 133#00000000A7
(1728485392.639282) vcan0 136#000200000000002A
(1728485392.639285) vcan0 13A#0000000000000028
(1728485392.640310) vcan0 13F#000000050000002E
(1728485392.640323) vcan0 164#0000C01AA8000004
(1728485392.640325) vcan0 17C#0000000010000021
(1728485392.640327) vcan0 18E#00006B
(1728485392.640329) vcan0 1CF#80050000003C
(1728485392.640331) vcan0 1DC#02000039
(1728485392.641823) vcan0 183#0000000E0000102B
(1728485392.643748) vcan0 143#6B6B00E0
(1728485392.643764) vcan0 039#0039
(1728485392.645345) vcan0 095#800007F400000017
(1728485392.645363) vcan0 1A4#0000000800000010
(1728485392.645368) vcan0 1AA#7FFF000000006711
(1728485392.645373) vcan0 1B0#000F0000000157
(1728485392.645378) vcan0 1D0#000000000000000A
(1728485392.647680) vcan0 244#0000000194
(1728485392.648311) vcan0 166#D0320027
(1728485392.648328) vcan0 158#0000000000000028
(1728485392.648334) vcan0 161#000005500108002B
(1728485392.649702) vcan0 191#010090A1410012
(1728485392.649713) vcan0 133#00000000B6
(1728485392.649716) vcan0 136#0002000000000039
(1728485392.649718) vcan0 13A#0000000000000037
(1728485392.649721) vcan0 13F#000000050000003D
(1728485392.649725) vcan0 164#0000C01AA8000013
(1728485392.650779) vcan0 17C#0000000010000030
(1728485392.650791) vcan0 18E#00007A
(1728485392.650793) vcan0 294#040B0002CF5A002C
(1728485392.650796) vcan0 21E#03E8374522062F
(1728485392.652079) vcan0 183#0000000A0000103E
(1728485392.652089) vcan0 143#6B6B00FF
(1728485392.654552) vcan0 095#800007F400000026
(1728485392.656477) vcan0 039#000C
(1728485392.658328) vcan0 166#D0320036
(1728485392.658340) vcan0 158#0000000000000037
(1728485392.658343) vcan0 161#000005500108003A
(1728485392.659025) vcan0 244#0000000176
(1728485392.659667) vcan0 191#010090A1410021
(1728485392.659678) vcan0 133#0000000089
(1728485392.659681) vcan0 136#000200000000000C
(1728485392.659683) vcan0 13A#000000000000000A
(1728485392.659686) vcan0 13F#0000000500000000
(1728485392.659688) vcan0 164#0000C01AA8000022
(1728485392.660743) vcan0 17C#0000000010000003
(1728485392.660753) vcan0 18E#00004D
(1728485392.660756) vcan0 1CF#80050000000F
(1728485392.660758) vcan0 1DC#0200000C
(1728485392.662331) vcan0 183#0000000700001004
(1728485392.662343) vcan0 143#6B6B00C2
(1728485392.664295) vcan0 333#0000000000001E
(1728485392.665947) vcan0 095#800007F400000035
(1728485392.665959) vcan0 1A4#000000080000002F
(1728485392.665962) vcan0 1AA#7FFF000000006720
(1728485392.665965) vcan0 1B0#000F0000000166
(1728485392.665967) vcan0 1D0#000000000000000A
(1728485392.667037) vcan0 166#D0320009
(1728485392.668103) vcan0 158#000000000000000A
(1728485392.670050) vcan0 161#000005500108000D
(1728485392.670057) vcan0 191#010090A1410030
(1728485392.670059) vcan0 133#0000000098
(1728485392.670062) vcan0 136#000200000000001B
(1728485392.670064) vcan0 13A#0000000000000019
(1728485392.670067) vcan0 13F#000000050000001F
(1728485392.670069) vcan0 164#0000C01AA8000031
(1728485392.670071) vcan0 039#001B
(1728485392.670075) vcan0 17C#0000000010000012
(1728485392.670077) vcan0 18E#00005C
(1728485392.670080) vcan0 244#00000001CD
(1728485392.672783) vcan0 183#0000000D0000101D
(1728485392.672796) vcan0 143#6B6B00D1
(1728485392.674907) vcan0 095#800007F400000008
(1728485392.676849) vcan0 166#D0320018
(1728485392.678759) vcan0 158#0000000000000019
(1728485392.678770) vcan0 161#000005500108001C
(1728485392.678773) vcan0 191#010090A1410003
(1728485392.678775) vcan0 133#00000000A7
(1728485392.680126) vcan0 136#000200000000002A
(1728485392.680141) vcan0 13A#0000000000000028
(1728485392.680143) vcan0 13F#000000050000002E
(1728485392.680146) vcan0 164#0000C01AA8000004
(1728485392.680148) vcan0 17C#0000000010000021
(1728485392.680151) vcan0 18E#00006B
(1728485392.680153) vcan0 1CF#80050000001E
(1728485392.680985) vcan0 244#00000001E0
(1728485392.681183) vcan0 1DC#0200001B
(1728485392.681189) vcan0 320#000012
(1728485392.681191) vcan0 324#7465000000000E1A
(1728485392.681193) vcan0 37C#FD00FD00097F001A
(1728485392.682692) vcan0 183#0000000900001020
(1728485392.682703) vcan0 143#6B6B00E0
(1728485392.682705) vcan0 039#002A
(1728485392.684609) vcan0 305#8017
(1728485392.684618) vcan0 095#800007F400000017
(1728485392.685631) vcan0 1A4#000000080000003E
(1728485392.685641) vcan0 1AA#7FFF00000000683E
(1728485392.685644) vcan0 1B0#000F0000000175
(1728485392.685646) vcan0 1D0#000000000000000A
(1728485392.687828) vcan0 166#D0320027
(1728485392.689113) vcan0 158#0000000000000028
(1728485392.689128) vcan0 161#000005500108002B
(1728485392.689130) vcan0 191#010090A1410012
(1728485392.689133) vcan0 133#00000000B6
(1728485392.689135) vcan0 136#0002000000000039
(1728485392.689138) vcan0 13A#0000000000000037
(1728485392.690254) vcan0 13F#000000050000003D
(1728485392.690264) vcan0 164#0000C01AA8000013
(1728485392.690267) vcan0 17C#0000000010000030
(1728485392.690269) vcan0 18E#00007A
(1728485392.690271) vcan0 294#040B0002CF5A003B
(1728485392.691437) vcan0 21E#03E8374522063E
(1728485392.691542) vcan0 244#0000000153
(1728485392.692468) vcan0 183#0000000E0000103A
(1728485392.692478) vcan0 143#6B6B00FF
(1728485392.695368) vcan0 095#800007F400000026
(1728485392.698329) vcan0 166#D0320036
(1728485392.698349) vcan0 158#0000000000000037
(1728485392.698355) vcan0 161#000005500108003A
(1728485392.700181) vcan0 191#010090A1410021
(1728485392.700214) vcan0 039#0039
(1728485392.700221) vcan0 133#0000000089
(1728485392.700247) vcan0 136#000200000000000C
(1728485392.700278) vcan0 13A#000000000000000A
(1728485392.700287) vcan0 13F#0000000500000000
(1728485392.700293) vcan0 164#0000C01AA8000022
(1728485392.700308) vcan0 17C#0000000010000003
(1728485392.700314) vcan0 18E#00004D
(1728485392.700319) vcan0 1CF#80050000002D
(1728485392.701400) vcan0 1DC#0200002A
(1728485392.701417) vcan0 183#0000000A00001001
(1728485392.702157) vcan0 244#00000001C4
(1728485392.702589) vcan0 143#6B6B00C2
(1728485392.705264) vcan0 095#800007F400000035
(1728485392.705292) vcan0 1A4#0000000800000001
(1728485392.705298) vcan0 1AA#7FFF000000006801
(1728485392.705303) vcan0 1B0#000F0000000148
(1728485392.707058) vcan0 1D0#000000000000000A
(1728485392.707076) vcan0 166#D0320009
(1728485392.708181) vcan0 158#000000000000000A
(1728485392.708192) vcan0 161#000005500108000D
(1728485392.709926) vcan0 191#010090A1410030
(1728485392.709935) vcan0 133#0000000098
(1728485392.709940) vcan0 136#000200000000001B
(1728485392.709946) vcan0 13A#0000000000000019
(1728485392.709951) vcan0 13F#000000050000001F
(1728485392.709956) vcan0 164#0000C01AA8000031
(1728485392.709960) vcan0 17C#0000000010000012
(1728485392.709965) vcan0 18E#00005C
(1728485392.710994) vcan0 309#00000000000000A2
(1728485392.712162) vcan0 183#0000000700001013
(1728485392.712175) vcan0 143#6B6B00D1
(1728485392.713800) vcan0 039#000C
(1728485392.714868) vcan0 095#800007F400000008
(1728485392.717723) vcan0 166#D0320018
(1728485392.717733) vcan0 244#00000001EB
(1728485392.718761) vcan0 158#0000000000000019
(1728485392.718771) vcan0 161#000005500108001C
(1728485392.718776) vcan0 191#010090A1410003
(1728485392.718791) vcan0 133#00000000A7
(1728485392.720754) vcan0 136#000200000000002A
(1728485392.720776) vcan0 13A#0000000000000028
(1728485392.720782) vcan0 13F#000000050000002E
(1728485392.720788) vcan0 164#0000C01AA8000004
(1728485392.720793) vcan0 17C#0000000010000021
(1728485392.720802) vcan0 18E#00006B
(1728485392.720808) vcan0 1CF#80050000003C
(1728485392.720813) vcan0 1DC#02000039
(1728485392.722147) vcan0 183#0000000500001024
(1728485392.722159) vcan0 143#6B6B00E0
(1728485392.725634) vcan0 095#800007F400000017
(1728485392.725651) vcan0 1A4#0000000800000010
(1728485392.725661) vcan0 1AA#7FFF000000006711
(1728485392.725667) vcan0 1B0#000F0000000157
(1728485392.725672) vcan0 1D0#000000000000000A
(1728485392.725677) vcan0 039#001B
(1728485392.727428) vcan0 166#D0320027
(1728485392.728211) vcan0 244#0000000196
(1728485392.728497) vcan0 158#0000000000000028
(1728485392.728515) vcan0 161#000005500108002B
(1728485392.728521) vcan0 191#010090A1410012
(1728485392.730360) vcan0 133#00000000B6
(1728485392.730372) vcan0 136#0002000000000039
(1728485392.730379) vcan0 13A#0000000000000037
(1728485392.730384) vcan0 13F#000000050000003D
(1728485392.730389) vcan0 164#0000C01AA8000013
(1728485392.730394) vcan0 17C#0000000010000030
(1728485392.730399) vcan0 18E#00007A
(1728485392.730404) vcan0 294#040B0002CF5A000E
(1728485392.732307) vcan0 21E#03E83745220601
(1728485392.732320) vcan0 183#0000000300001035
(1728485392.732326) vcan0 143#6B6B00FF
(1728485392.735241) vcan0 095#800007F400000026
(1728485392.737173) vcan0 166#D0320036
(1728485392.738513) vcan0 158#0000000000000037
(1728485392.738529) vcan0 161#000005500108003A
(1728485392.738534) vcan0 191#010090A1410021
(1728485392.740130) vcan0 133#0000000089
(1728485392.740151) vcan0 136#000200000000000C
(1728485392.740157) vcan0 13A#000000000000000A
(1728485392.740162) vcan0 13F#0000000500000000
(1728485392.740168) vcan0 164#0000C01AA8000022
(1728485392.740173) vcan0 17C#0000000010000003
(1728485392.740178) vcan0 18E#00004D
(1728485392.740183) vcan0 1CF#80050000000F
(1728485392.741122) vcan0 244#00000001DD
(1728485392.741299) vcan0 1DC#0200000C
(1728485392.742437) vcan0 183#0000000A00001001
(1728485392.742530) vcan0 039#002A
(1728485392.742538) vcan0 143#6B6B00C2
(1728485392.745164) vcan0 095#800007F400000035
(1728485392.745185) vcan0 1A4#000000080000002F
(1728485392.745190) vcan0 1AA#7FFF000000006720
(1728485392.745195) vcan0 1B0#000F0000000166
(1728485392.746295) vcan0 1D0#000000000000000A
(1728485392.748082) vcan0 166#D0320009
(1728485392.748110) vcan0 158#000000000000000A
(1728485392.749132) vcan0 161#000005500108000D
(1728485392.749151) vcan0 191#010090A1410030
(1728485392.749214) vcan0 133#0000000098
(1728485392.749223) vcan0 136#000200000000001B
(1728485392.749229) vcan0 13A#0000000000000019
(1728485392.750882) vcan0 13F#000000050000001F
(1728485392.750901) vcan0 164#0000C01AA8000031
(1728485392.750909) vcan0 17C#0000000010000012
(1728485392.750915) vcan0 18E#00005C
(1728485392.752739) vcan0 244#00000001BC
(1728485392.752818) vcan0 183#0000000700001013
(1728485392.752827) vcan0 143#6B6B00D1
(1728485392.754655) vcan0 095#800007F400000008
(1728485392.754669) vcan0 039#0039
(1728485392.758585) vcan0 166#D0320018
(1728485392.758609) vcan0 158#0000000000000019
(1728485392.758615) vcan0 161#000005500108001C
(1728485392.758620) vcan0 191#010090A1410003
(1728485392.758636) vcan0 133#00000000A7
(1728485392.760522) vcan0 136#000200000000002A
(1728485392.760546) vcan0 13A#0000000000000028
(1728485392.760552) vcan0 13F#000000050000002E
(1728485392.760560) vcan0 164#0000C01AA8000004
(1728485392.760565) vcan0 17C#0000000010000021
(1728485392.760570) vcan0 18E#00006B
(1728485392.760575) vcan0 1CF#80050000001E
(1728485392.760580) vcan0 1DC#0200001B
(1728485392.762477) vcan0 183#0000000500001024
(1728485392.762490) vcan0 143#6B6B00E0
(1728485392.763587) vcan0 333#0000000000002D
(1728485392.765379) vcan0 095#800007F400000017
(1728485392.765389) vcan0 1A4#000000080000003E
(1728485392.765394) vcan0 1AA#7FFF00000000683E
(1728485392.765399) vcan0 1B0#000F0000000175
(1728485392.766351) vcan0 244#00000001B7
(1728485392.766998) vcan0 1D0#000000000000000A
