(1728485211.284235) vcan0 166#D0320027
(1728485211.287307) vcan0 158#0000000000000028
(1728485211.287316) vcan0 161#000005500108002B
(1728485211.287318) vcan0 191#010010A141001A
(1728485211.287320) vcan0 164#0000C01AA8000013
(1728485211.287323) vcan0 133#00000000B6
(1728485211.287325) vcan0 136#0002000000000039
(1728485211.287327) vcan0 13A#0000000000000037
(1728485211.287329) vcan0 13F#000000050000003D
(1728485211.288517) vcan0 17C#0000000010000030
(1728485211.288528) vcan0 18E#00007A
(1728485211.288530) vcan0 294#040B0002CF5A003B
(1728485211.288533) vcan0 21E#03E8374522063E
(1728485211.288535) vcan0 309#0000000000000093
(1728485211.290244) vcan0 183#0000000700001031
(1728485211.290252) vcan0 143#6B6B00FF
(1728485211.293252) vcan0 244#00000001AF
(1728485211.293265) vcan0 095#800007F400000026
(1728485211.293270) vcan0 039#0039
(1728485211.294332) vcan0 166#D0320036
(1728485211.295467) vcan0 158#0000000000000037
(1728485211.296790) vcan0 161#000005500108003A
(1728485211.296800) vcan0 191#010010A1410029
(1728485211.296802) vcan0 164#0000C01AA8000022
(1728485211.296810) vcan0 133#0000000089
(1728485211.296812) vcan0 136#000200000000000C
(1728485211.298122) vcan0 13A#000000000000000A
(1728485211.298132) vcan0 13F#0000000500000000
(1728485211.298135) vcan0 17C#0000000010000003
(1728485211.298137) vcan0 18E#00004D
(1728485211.298139) vcan0 1CF#80050000002D
(1728485211.298142) vcan0 1DC#0200002A
(1728485211.299974) vcan0 183#0000000D0000100E
(1728485211.299982) vcan0 143#6B6B00C2
(1728485211.302984) vcan0 095#800007F400000035
(1728485211.303006) vcan0 1A4#0000000800000001
(1728485211.303010) vcan0 1AA#7FFF000000006801
(1728485211.303012) vcan0 1B0#000F0000000148
(1728485211.303014) vcan0 1D0#000000000000000A
(1728485211.304869) vcan0 244#0000000113
(1728485211.304878) vcan0 166#D0320009
(1728485211.306839) vcan0 158#000000000000000A
(1728485211.306849) vcan0 161#000005500108000D
(1728485211.306852) vcan0 191#010010A1410038
(1728485211.306854) vcan0 039#000C
(1728485211.306856) vcan0 133#0000000098
(1728485211.306858) vcan0 136#000200000000001B
(1728485211.306860) vcan0 13A#0000000000000019
(1728485211.308758) vcan0 13F#000000050000001F
(1728485211.308769) vcan0 164#0000C01AA8000031
(1728485211.308772) vcan0 17C#0000000010000012
(1728485211.308774) vcan0 18E#00005C
(1728485211.309805) vcan0 183#0000001100001018
(1728485211.309815) vcan0 143#6B6B00D1
(1728485211.311717) vcan0 095#800007F400000008
(1728485211.314715) vcan0 166#D0320018
(1728485211.315973) vcan0 158#0000000000000019
(1728485211.315986) vcan0 161#000005500108001C
(1728485211.315989) vcan0 191#010010A141000B
(1728485211.315999) vcan0 244#00000001AC
(1728485211.317504) vcan0 164#0000C01AA8000004
(1728485211.317512) vcan0 133#00000000A7
(1728485211.317514) vcan0 136#000200000000002A
(1728485211.317516) vcan0 13A#0000000000000028
(1728485211.317518) vcan0 13F#000000050000002E
(1728485211.317520) vcan0 17C#0000000010000021
(1728485211.317522) vcan0 18E#00006B
(1728485211.318580) vcan0 1CF#80050000003C
(1728485211.318590) vcan0 1DC#02000039
(1728485211.318593) vcan0 183#0000000C0000102D
(1728485211.319657) vcan0 039#001B
(1728485211.319664) vcan0 143#6B6B00E0
(1728485211.323392) vcan0 095#800007F400000017
(1728485211.323403) vcan0 1A4#0000000800000010
(1728485211.323406) vcan0 1AA#7FFF000000006810
(1728485211.323408) vcan0 1B0#000F0000000157
(1728485211.323410) vcan0 1D0#000000000000000A
(1728485211.325333) vcan0 166#D0320027
(1728485211.327238) vcan0 244#000000016E
(1728485211.327338) vcan0 158#0000000000000028
(1728485211.327346) vcan0 161#000005500108002B
(1728485211.327348) vcan0 191#010010A141001A
(1728485211.327350) vcan0 164#0000C01AA8000013
(1728485211.327352) vcan0 133#00000000B6
(1728485211.327354) vcan0 136#0002000000000039
(1728485211.327359) vcan0 13A#0000000000000037
(1728485211.327361) vcan0 13F#000000050000003D
(1728485211.328513) vcan0 17C#0000000010000030
(1728485211.328530) vcan0 18E#00007A
(1728485211.328534) vcan0 294#040B0002CF5A000E
(1728485211.328537) vcan0 21E#03E83745220601
(1728485211.330595) vcan0 183#000000090000103F
(1728485211.330618) vcan0 143#6B6B00FF
(1728485211.332164) vcan0 095#800007F400000026
(1728485211.334100) vcan0 039#002A
(1728485211.335976) vcan0 166#D0320036
(1728485211.335984) vcan0 158#0000000000000037
(1728485211.335987) vcan0 161#000005500108003A
(1728485211.335989) vcan0 191#010010A1410029
(1728485211.337968) vcan0 164#0000C01AA8000022
(1728485211.337988) vcan0 133#0000000089
(1728485211.337990) vcan0 136#000200000000000C
(1728485211.337994) vcan0 13A#000000000000000A
(1728485211.337996) vcan0 13F#0000000500000000
(1728485211.337998) vcan0 17C#0000000010000003
(1728485211.338001) vcan0 18E#00004D
(1728485211.338003) vcan0 1CF#80050000000F
(1728485211.338007) vcan0 1DC#0200000C
(1728485211.339879) vcan0 183#0000000600001005
(1728485211.339887) vcan0 143#6B6B00C2
(1728485211.339973) vcan0 244#000000014E
(1728485211.341871) vcan0 333#0000000000001E
(1728485211.341882) vcan0 095#800007F400000035
(1728485211.343855) vcan0 1A4#000000080000002F
(1728485211.343868) vcan0 1AA#7FFF00000000682F
(1728485211.343871) vcan0 1B0#000F0000000166
(1728485211.343873) vcan0 1D0#000000000000000A
(1728485211.345351) vcan0 166#D0320009
(1728485211.346785) vcan0 158#000000000000000A
(1728485211.346807) vcan0 161#000005500108000D
(1728485211.346810) vcan0 191#010010A1410038
(1728485211.346813) vcan0 133#0000000098
(1728485211.346826) vcan0 136#000200000000001B
(1728485211.346829) vcan0 13A#0000000000000019
(1728485211.348642) vcan0 13F#000000050000001F
(1728485211.348653) vcan0 164#0000C01AA8000031
(1728485211.348655) vcan0 17C#0000000010000012
(1728485211.348657) vcan0 18E#00005C
(1728485211.348660) vcan0 039#0039
(1728485211.350632) vcan0 183#0000000C0000101E
(1728485211.350645) vcan0 143#6B6B00D1
(1728485211.352526) vcan0 095#800007F400000008
(1728485211.354504) vcan0 166#D0320018
(1728485211.355594) vcan0 158#0000000000000019
(1728485211.355660) vcan0 244#00000001B2
(1728485211.357448) vcan0 161#000005500108001C
(1728485211.357460) vcan0 191#010090A1410003
(1728485211.357463) vcan0 164#0000C01AA8000004
(1728485211.357465) vcan0 133#00000000A7
(1728485211.357468) vcan0 136#000200000000002A
(1728485211.357470) vcan0 13A#0000000000000028
(1728485211.357472) vcan0 13F#000000050000002E
(1728485211.357474) vcan0 17C#0000000010000021
(1728485211.359348) vcan0 18E#00006B
(1728485211.359357) vcan0 1CF#80050000001E
(1728485211.359360) vcan0 1DC#0200001B
(1728485211.359362) vcan0 320#000012
(1728485211.359364) vcan0 324#7465000000000E1A
(1728485211.359367) vcan0 37C#FD00FD00097F001A
(1728485211.359369) vcan0 183#0000001000001028
(1728485211.361304) vcan0 143#6B6B00E0
(1728485211.363219) vcan0 095#800007F400000017
(1728485211.363227) vcan0 1A4#000000080000003E
(1728485211.363230) vcan0 1AA#7FFF00000000673F
(1728485211.363232) vcan0 1B0#000F0000000175
(1728485211.363234) vcan0 1D0#000000000000000A
(1728485211.364775) vcan0 166#D0320027
(1728485211.366145) vcan0 158#0000000000000028
(1728485211.366155) vcan0 161#000005500108002B
(1728485211.366157) vcan0 191#010090A1410012
(1728485211.367134) vcan0 244#0000000191
(1728485211.367227) vcan0 133#00000000B6
(1728485211.367234) vcan0 136#0002000000000039
(1728485211.367236) vcan0 13A#0000000000000037
(1728485211.367239) vcan0 13F#000000050000003D
(1728485211.367241) vcan0 164#0000C01AA8000013
(1728485211.369065) vcan0 17C#0000000010000030
(1728485211.369074) vcan0 18E#00007A
(1728485211.369076) vcan0 294#040B0002CF5A001D
(1728485211.369079) vcan0 039#000C
(1728485211.369081) vcan0 21E#03E83745220610
(1728485211.369083) vcan0 183#0000000C0000103C
(1728485211.370996) vcan0 143#6B6B00FF
(1728485211.372027) vcan0 095#800007F400000026
(1728485211.374947) vcan0 166#D0320036
(1728485211.376782) vcan0 158#0000000000000037
(1728485211.376790) vcan0 161#000005500108003A
(1728485211.376792) vcan0 191#010090A1410021
(1728485211.376795) vcan0 164#0000C01AA8000022
(1728485211.376797) vcan0 133#0000000089
(1728485211.376799) vcan0 136#000200000000000C
(1728485211.377867) vcan0 244#00000001E9
(1728485211.377878) vcan0 13A#000000000000000A
(1728485211.377881) vcan0 13F#0000000500000000
(1728485211.377884) vcan0 17C#0000000010000003
(1728485211.377886) vcan0 18E#00004D
(1728485211.377888) vcan0 1CF#80050000002D
(1728485211.377890) vcan0 1DC#0200002A
(1728485211.379769) vcan0 183#0000000900001002
(1728485211.379781) vcan0 143#6B6B00C2
(1728485211.380816) vcan0 305#8026
(1728485211.382733) vcan0 095#800007F400000035
(1728485211.382745) vcan0 1A4#0000000800000001
(1728485211.382747) vcan0 1AA#7FFF000000006801
(1728485211.382750) vcan0 1B0#000F0000000148
(1728485211.383802) vcan0 1D0#000000000000000A
(1728485211.385641) vcan0 166#D0320009
(1728485211.385653) vcan0 158#000000000000000A
(1728485211.387625) vcan0 161#000005500108000D
(1728485211.387635) vcan0 191#010090A1410030
(1728485211.387638) vcan0 164#0000C01AA8000031
(1728485211.387640) vcan0 133#0000000098
(1728485211.387642) vcan0 136#000200000000001B
(1728485211.387644) vcan0 13A#0000000000000019
(1728485211.387646) vcan0 13F#000000050000001F
(1728485211.387648) vcan0 17C#0000000010000012
(1728485211.387650) vcan0 18E#00005C
(1728485211.389499) vcan0 244#0000000105
(1728485211.389509) vcan0 309#00000000000000A2
(1728485211.389512) vcan0 039#001B
(1728485211.389517) vcan0 183#0000000600001014
(1728485211.391388) vcan0 143#6B6B00D1
(1728485211.393407) vcan0 095#800007F400000008
(1728485211.395345) vcan0 166#D0320018
(1728485211.396703) vcan0 158#0000000000000019
(1728485211.396712) vcan0 161#000005500108001C
(1728485211.396715) vcan0 191#010090A1410003
(1728485211.396717) vcan0 133#00000000A7
(1728485211.396719) vcan0 136#000200000000002A
(1728485211.396721) vcan0 13A#0000000000000028
(1728485211.398293) vcan0 13F#000000050000002E
(1728485211.398312) vcan0 164#0000C01AA8000004
(1728485211.398315) vcan0 17C#0000000010000021
(1728485211.398317) vcan0 18E#00006B
(1728485211.398320) vcan0 1CF#80050000003C
(1728485211.398325) vcan0 1DC#02000039
(1728485211.400244) vcan0 183#0000000C0000102D
(1728485211.400255) vcan0 143#6B6B00E0
(1728485211.401165) vcan0 244#0000000199
(1728485211.403172) vcan0 095#800007F400000017
(1728485211.403184) vcan0 1A4#0000000800000010
(1728485211.403187) vcan0 1AA#7FFF000000006810
(1728485211.403189) vcan0 1B0#000F0000000157
(1728485211.403191) vcan0 039#002A
(1728485211.403196) vcan0 1D0#000000000000000A
(1728485211.405117) vcan0 166#D0320027
(1728485211.407084) vcan0 158#0000000000000028
(1728485211.407093) vcan0 161#000005500108002B
(1728485211.407095) vcan0 191#010090A1410012
(1728485211.407098) vcan0 133#00000000B6
(1728485211.407100) vcan0 136#0002000000000039
(1728485211.407103) vcan0 13A#0000000000000037
(1728485211.407105) vcan0 13F#000000050000003D
(1728485211.408115) vcan0 164#0000C01AA8000013
(1728485211.408122) vcan0 17C#0000000010000030
(1728485211.408124) vcan0 18E#00007A
(1728485211.408126) vcan0 294#040B0002CF5A002C
(1728485211.408128) vcan0 21E#03E8374522062F
(1728485211.409906) vcan0 183#0000001000001037
(1728485211.409912) vcan0 143#6B6B00FF
(1728485211.411922) vcan0 095#800007F400000026
(1728485211.412916) vcan0 244#000000019A
(1728485211.415754) vcan0 166#D0320036
(1728485211.415764) vcan0 158#0000000000000037
(1728485211.415767) vcan0 161#000005500108003A
(1728485211.416820) vcan0 191#010090A1410021
(1728485211.416824) vcan0 164#0000C01AA8000022
(1728485211.416826) vcan0 133#0000000089
(1728485211.416829) vcan0 136#000200000000000C
(1728485211.417842) vcan0 13A#000000000000000A
(1728485211.417847) vcan0 13F#0000000500000000
(1728485211.417850) vcan0 17C#0000000010000003
(1728485211.417852) vcan0 18E#00004D
(1728485211.417854) vcan0 1CF#80050000000F
(1728485211.420601) vcan0 039#0039
(1728485211.420609) vcan0 1DC#0200000C
(1728485211.420612) vcan0 183#0000000C0000100F
(1728485211.420614) vcan0 143#6B6B00C2
(1728485211.421624) vcan0 095#800007F400000035
(1728485211.422643) vcan0 1A4#000000080000002F
(1728485211.422649) vcan0 1AA#7FFF00000000682F
(1728485211.424501) vcan0 244#00000001C8
(1728485211.424900) vcan0 1B0#000F0000000166
(1728485211.424906) vcan0 1D0#000000000000000A
(1728485211.424908) vcan0 166#D0320009
(1728485211.426477) vcan0 158#000000000000000A
(1728485211.426487) vcan0 161#000005500108000D
(1728485211.426490) vcan0 191#010090A1410030
(1728485211.426492) vcan0 133#0000000098
(1728485211.426494) vcan0 136#000200000000001B
(1728485211.427518) vcan0 13A#0000000000000019
(1728485211.427526) vcan0 13F#000000050000001F
(1728485211.427528) vcan0 164#0000C01AA8000031
(1728485211.427530) vcan0 17C#0000000010000012
(1728485211.428669) vcan0 18E#00005C
(1728485211.430407) vcan0 183#0000001000001019
(1728485211.430420) vcan0 143#6B6B00D1
(1728485211.432344) vcan0 039#000C
(1728485211.432355) vcan0 095#800007F400000008
(1728485211.434292) vcan0 166#D0320018
(1728485211.436275) vcan0 158#0000000000000019
(1728485211.436285) vcan0 161#000005500108001C
(1728485211.436287) vcan0 191#010090A1410003
(1728485211.436290) vcan0 164#0000C01AA8000004
(1728485211.437233) vcan0 244#00000001DE
(1728485211.437633) vcan0 133#00000000A7
(1728485211.437639) vcan0 136#000200000000002A
(1728485211.437642) vcan0 13A#0000000000000028
(1728485211.437644) vcan0 13F#000000050000002E
(1728485211.437646) vcan0 17C#0000000010000021
(1728485211.437648) vcan0 18E#00006B
(1728485211.439145) vcan0 1CF#80050000001E
(1728485211.439153) vcan0 1DC#0200001B
(1728485211.439155) vcan0 183#0000000C0000102D
(1728485211.440192) vcan0 143#6B6B00E0
(1728485211.442067) vcan0 333#0000000000002D
(1728485211.442078) vcan0 095#800007F400000017
(1728485211.444024) vcan0 1A4#000000080000003E
(1728485211.444034) vcan0 1AA#7FFF00000000673F
(1728485211.444037) vcan0 1B0#000F0000000175
(1728485211.444039) vcan0 1D0#000000000000000A
(1728485211.445154) vcan0 166#D0320027
(1728485211.446379) vcan0 158#0000000000000028
(1728485211.446393) vcan0 161#000005500108002B
(1728485211.446395) vcan0 191#010090A1410012
(1728485211.446397) vcan0 133#00000000B6
(1728485211.447870) vcan0 136#0002000000000039
(1728485211.447880) vcan0 13A#0000000000000037
(1728485211.447882) vcan0 13F#000000050000003D
(1728485211.447890) vcan0 164#0000C01AA8000013
(1728485211.447894) vcan0 17C#0000000010000030
(1728485211.447896) vcan0 18E#00007A
(1728485211.447898) vcan0 294#040B0002CF5A003B
(1728485211.448889) vcan0 244#000000017D
(1728485211.449284) vcan0 21E#03E8374522063E
(1728485211.449299) vcan0 183#000000090000103F
(1728485211.450778) vcan0 143#6B6B00FF
(1728485211.452702) vcan0 039#001B
(1728485211.452709) vcan0 095#800007F400000026
(1728485211.455697) vcan0 166#D0320036
(1728485211.455708) vcan0 158#0000000000000037
(1728485211.455711) vcan0 161#000005500108003A
(1728485211.457637) vcan0 191#010090A1410021
(1728485211.457647) vcan0 164#0000C01AA8000022
(1728485211.457649) vcan0 133#0000000089
(1728485211.457651) vcan0 136#000200000000000C
(1728485211.457655) vcan0 13A#000000000000000A
(1728485211.457658) vcan0 13F#0000000500000000
(1728485211.457660) vcan0 17C#0000000010000003
(1728485211.457662) vcan0 18E#00004D
(1728485211.458706) vcan0 1CF#80050000002D
(1728485211.458714) vcan0 1DC#0200002A
(1728485211.458716) vcan0 320#000021
(1728485211.458719) vcan0 324#7465000000000E29
(1728485211.458721) vcan0 183#0000000E0000100D
(1728485211.460624) vcan0 37C#FD00FD00097F0029
(1728485211.460632) vcan0 40C#014A484D46413325
(1728485211.460636) vcan0 454#23EF27
(1728485211.460638) vcan0 143#6B6B00C2
(1728485211.462542) vcan0 095#800007F400000035
(1728485211.462550) vcan0 1A4#0000000800000001
(1728485211.462553) vcan0 1AA#7FFF000000006801
(1728485211.464489) vcan0 1B0#000F0000000148
(1728485211.464501) vcan0 1D0#000000000000000A
(1728485211.464504) vcan0 166#D0320009
(1728485211.465470) vcan0 244#000000013C
(1728485211.465555) vcan0 158#000000000000000A
(1728485211.467396) vcan0 161#000005500108000D
(1728485211.467405) vcan0 191#010090A1410030
(1728485211.467407) vcan0 133#0000000098
(1728485211.467410) vcan0 136#000200000000001B
(1728485211.467412) vcan0 13A#0000000000000019
(1728485211.467414) vcan0 13F#000000050000001F
(1728485211.467416) vcan0 164#0000C01AA8000031
(1728485211.468505) vcan0 17C#0000000010000012
(1728485211.468515) vcan0 18E#00005C
(1728485211.470383) vcan0 183#0000000A00001010
(1728485211.470391) vcan0 143#6B6B00D1
(1728485211.472384) vcan0 095#800007F400000008
(1728485211.472394) vcan0 039#002A
(1728485211.474255) vcan0 166#D0320018
(1728485211.476263) vcan0 158#0000000000000019
(1728485211.476292) vcan0 161#000005500108001C
(1728485211.476299) vcan0 191#010090A1410003
(1728485211.476301) vcan0 164#0000C01AA8000004
(1728485211.476442) vcan0 244#000000012D
(1728485211.478142) vcan0 133#00000000A7
(1728485211.478148) vcan0 136#000200000000002A
(1728485211.478151) vcan0 13A#0000000000000028
(1728485211.478153) vcan0 13F#000000050000002E
(1728485211.478155) vcan0 17C#0000000010000021
(1728485211.478158) vcan0 18E#00006B
(1728485211.478160) vcan0 1CF#80050000003C
(1728485211.478163) vcan0 1DC#02000039
(1728485211.479181) vcan0 183#0000000700001022
(1728485211.481055) vcan0 143#6B6B00E0
(1728485211.483050) vcan0 095#800007F400000017
(1728485211.483061) vcan0 1A4#0000000800000010
(1728485211.483064) vcan0 1AA#7FFF000000006810
(1728485211.483066) vcan0 1B0#000F0000000157
(1728485211.483068) vcan0 1D0#000000000000000A
(1728485211.485013) vcan0 166#D0320027
(1728485211.485026) vcan0 039#0039
(1728485211.486877) vcan0 158#0000000000000028
(1728485211.486885) vcan0 161#000005500108002B
(1728485211.486888) vcan0 191#010090A1410012
(1728485211.486891) vcan0 305#8035
(1728485211.486893) vcan0 164#0000C01AA8000013
(1728485211.486896) vcan0 133#00000000B6
(1728485211.486898) vcan0 136#0002000000000039
(1728485211.487870) vcan0 244#0000000122
(1728485211.488174) vcan0 13A#0000000000000037
(1728485211.488181) vcan0 13F#000000050000003D
(1728485211.488196) vcan0 17C#0000000010000030
(1728485211.488199) vcan0 18E#00007A
(1728485211.488201) vcan0 294#040B0002CF5A000E
(1728485211.488203) vcan0 21E#03E83745220601
(1728485211.489819) vcan0 309#00000000000000B1
(1728485211.489828) vcan0 428#01040000521C3E
(1728485211.489830) vcan0 405#0000040000000038
(1728485211.489832) vcan0 183#0000000D0000103B
(1728485211.489834) vcan0 143#6B6B00FF
(1728485211.491748) vcan0 095#800007F400000026
(1728485211.495678) vcan0 166#D0320036
(1728485211.495689) vcan0 158#0000000000000037
(1728485211.495691) vcan0 161#000005500108003A
(1728485211.497585) vcan0 191#010090A1410021
(1728485211.497593) vcan0 164#0000C01AA8000022
(1728485211.497601) vcan0 133#0000000089
(1728485211.497603) vcan0 136#000200000000000C
(1728485211.497605) vcan0 13A#000000000000000A
(1728485211.497607) vcan0 13F#0000000500000000
(1728485211.497610) vcan0 17C#0000000010000003
(1728485211.497612) vcan0 18E#00004D
(1728485211.499642) vcan0 244#0000000135
(1728485211.499656) vcan0 1CF#80050000000F
(1728485211.499661) vcan0 1DC#0200000C
(1728485211.499663) vcan0 183#0000000900001002
(1728485211.499665) vcan0 039#000C
(1728485211.499667) vcan0 143#6B6B00C2
(1728485211.503425) vcan0 095#800007F400000035
(1728485211.503436) vcan0 1A4#000000080000002F
(1728485211.503438) vcan0 1AA#7FFF00000000682F
(1728485211.503441) vcan0 1B0#000F0000000166
(1728485211.503443) vcan0 1D0#000000000000000A
(1728485211.505381) vcan0 166#D0320009
(1728485211.507260) vcan0 158#000000000000000A
(1728485211.507266) vcan0 161#000005500108000D
(1728485211.507269) vcan0 191#010090A1410030
(1728485211.507271) vcan0 18E#00005C
(1728485211.507273) vcan0 133#0000000098
(1728485211.507275) vcan0 136#000200000000001B
(1728485211.507277) vcan0 13A#0000000000000019
(1728485211.507279) vcan0 13F#000000050000001F
(1728485211.507281) vcan0 164#0000C01AA8000031
(1728485211.508429) vcan0 17C#0000000010000012
(1728485211.510277) vcan0 183#0000000E0000101C
(1728485211.510287) vcan0 143#6B6B00D1
(1728485211.511219) vcan0 244#00000001EB
(1728485211.513252) vcan0 095#800007F400000008
(1728485211.515155) vcan0 039#001B
(1728485211.515168) vcan0 166#D0320018
(1728485211.516997) vcan0 158#0000000000000019
(1728485211.517006) vcan0 161#000005500108001C
(1728485211.517009) vcan0 191#010090A1410003
(1728485211.517011) vcan0 164#0000C01AA8000004
(1728485211.517013) vcan0 133#00000000A7
(1728485211.517015) vcan0 136#000200000000002A
(1728485211.517018) vcan0 13A#0000000000000028
(1728485211.518982) vcan0 13F#000000050000002E
(1728485211.518989) vcan0 17C#0000000010000021
(1728485211.518991) vcan0 18E#00006B
(1728485211.518993) vcan0 1CF#80050000001E
(1728485211.518995) vcan0 1DC#0200001B
(1728485211.518998) vcan0 183#0000000A0000102F
(1728485211.520081) vcan0 143#6B6B00E0
(1728485211.521857) vcan0 095#800007F400000017
(1728485211.522936) vcan0 1A4#000000080000003E
(1728485211.522943) vcan0 1AA#7FFF00000000673F
(1728485211.522956) vcan0 1B0#000F0000000175
(1728485211.522982) vcan0 244#000000012D
(1728485211.524554) vcan0 1D0#000000000000000A
(1728485211.524566) vcan0 166#D0320027
(1728485211.525793) vcan0 158#0000000000000028
(1728485211.525799) vcan0 161#000005500108002B
(1728485211.527785) vcan0 191#010090A1410012
(1728485211.527790) vcan0 164#0000C01AA8000013
(1728485211.527792) vcan0 133#00000000B6
(1728485211.527794) vcan0 136#0002000000000039
(1728485211.527797) vcan0 13A#0000000000000037
(1728485211.527799) vcan0 13F#000000050000003D
(1728485211.527801) vcan0 17C#0000000010000030
(1728485211.527803) vcan0 18E#00007A
(1728485211.528932) vcan0 294#040B0002CF5A001D
(1728485211.528941) vcan0 21E#03E83745220610
(1728485211.528944) vcan0 039#002A
(1728485211.530698) vcan0 183#0000000F00001039
(1728485211.530710) vcan0 143#6B6B00FF
(1728485211.532683) vcan0 095#800007F400000026
(1728485211.534537) vcan0 166#D0320036
(1728485211.535618) vcan0 158#0000000000000037
(1728485211.535639) vcan0 244#0000000159
(1728485211.537488) vcan0 161#000005500108003A
(1728485211.537500) vcan0 191#010090A1410021
(1728485211.537502) vcan0 164#0000C01AA8000022
(1728485211.537505) vcan0 133#0000000089
(1728485211.537507) vcan0 136#000200000000000C
(1728485211.537509) vcan0 13A#000000000000000A
(1728485211.537511) vcan0 13F#0000000500000000
(1728485211.537514) vcan0 17C#0000000010000003
(1728485211.537517) vcan0 18E#00004D
(1728485211.538552) vcan0 1CF#80050000002D
(1728485211.538562) vcan0 1DC#0200002A
(1728485211.538584) vcan0 183#0000001300001007
(1728485211.540384) vcan0 143#6B6B00C2
(1728485211.540393) vcan0 333#0000000000003C
(1728485211.543373) vcan0 095#800007F400000035
(1728485211.543379) vcan0 1A4#0000000800000001
(1728485211.543381) vcan0 1AA#7FFF000000006801
(1728485211.543384) vcan0 1B0#000F0000000148
(1728485211.543386) vcan0 1D0#000000000000000A
(1728485211.545307) vcan0 166#D0320009
(1728485211.546349) vcan0 158#000000000000000A
(1728485211.546360) vcan0 161#000005500108000D
(1728485211.546362) vcan0 191#010090A1410030
(1728485211.546364) vcan0 133#0000000098
(1728485211.546676) vcan0 244#0000000178
(1728485211.547436) vcan0 136#000200000000001B
(1728485211.547447) vcan0 13A#0000000000000019
(1728485211.547449) vcan0 13F#000000050000001F
(1728485211.547452) vcan0 039#0039
(1728485211.547454) vcan0 164#0000C01AA8000031
(1728485211.548468) vcan0 17C#0000000010000012
(1728485211.548476) vcan0 18E#00005C
(1728485211.550258) vcan0 183#0000000E0000101C
(1728485211.550265) vcan0 143#6B6B00D1
(1728485211.553192) vcan0 095#800007F400000008
(1728485211.554205) vcan0 166#D0320018
(1728485211.556173) vcan0 158#0000000000000019
(1728485211.556206) vcan0 161#000005500108001C
(1728485211.556210) vcan0 191#010090A1410003
(1728485211.557320) vcan0 244#0000000103
(1728485211.557752) vcan0 164#0000C01AA8000004
(1728485211.557757) vcan0 133#00000000A7
(1728485211.557759) vcan0 136#000200000000002A
(1728485211.557769) vcan0 13A#0000000000000028
(1728485211.557772) vcan0 13F#000000050000002E
(1728485211.557775) vcan0 17C#0000000010000021
(1728485211.557777) vcan0 18E#00006B
(1728485211.557780) vcan0 1CF#80050000003C
(1728485211.560070) vcan0 1DC#02000039
(1728485211.560079) vcan0 320#000030
(1728485211.560082) vcan0 324#7465000000000E38
(1728485211.560084) vcan0 37C#FD00FD00097F0038
(1728485211.560086) vcan0 183#0000000A0000102F
(1728485211.560088) vcan0 143#6B6B00E0
(1728485211.562013) vcan0 095#800007F400000017
(1728485211.563078) vcan0 1A4#0000000800000010
(1728485211.563086) vcan0 1AA#7FFF000000006810
(1728485211.563088) vcan0 1B0#000F0000000157
(1728485211.563091) vcan0 1D0#000000000000000A
(1728485211.565916) vcan0 166#D0320027
(1728485211.565930) vcan0 158#0000000000000028
(1728485211.565932) vcan0 161#000005500108002B
(1728485211.565934) vcan0 039#000C
(1728485211.566956) vcan0 191#010090A1410012
(1728485211.566964) vcan0 133#00000000B6
(1728485211.566966) vcan0 136#0002000000000039
(1728485211.566968) vcan0 13A#0000000000000037
(1728485211.566971) vcan0 13F#000000050000003D
(1728485211.568830) vcan0 164#0000C01AA8000013
(1728485211.568837) vcan0 17C#0000000010000030
(1728485211.568839) vcan0 18E#00007A
(1728485211.568841) vcan0 294#040B0002CF5A002C
(1728485211.568843) vcan0 21E#03E8374522062F
(1728485211.568847) vcan0 244#00000001F6
(1728485211.569862) vcan0 183#0000000700001031
(1728485211.569869) vcan0 143#6B6B00FF
(1728485211.571765) vcan0 095#800007F400000026
(1728485211.575641) vcan0 166#D0320036
(1728485211.575650) vcan0 158#0000000000000037
(1728485211.577593) vcan0 161#000005500108003A
(1728485211.577600) vcan0 191#010090A1410021
(1728485211.577603) vcan0 164#0000C01AA8000022
(1728485211.577605) vcan0 133#0000000089
(1728485211.577608) vcan0 136#000200000000000C
(1728485211.577610) vcan0 13A#000000000000000A
(1728485211.577612) vcan0 13F#0000000500000000
(1728485211.577615) vcan0 17C#0000000010000003
(1728485211.577617) vcan0 18E#00004D
(1728485211.579243) vcan0 1CF#80050000000F
(1728485211.579258) vcan0 1DC#0200000C
(1728485211.579260) vcan0 183#0000000500001006
(1728485211.580509) vcan0 143#6B6B00C2
(1728485211.580527) vcan0 244#000000014E
(1728485211.583402) vcan0 095#800007F400000035
(1728485211.583409) vcan0 039#001B
(1728485211.583412) vcan0 1A4#000000080000002F
(1728485211.583414) vcan0 1AA#7FFF000000006720
(1728485211.583416) vcan0 1B0#000F0000000166
(1728485211.583419) vcan0 1D0#000000000000000A
(1728485211.585353) vcan0 166#D0320009
(1728485211.587298) vcan0 158#000000000000000A
(1728485211.587305) vcan0 161#000005500108000D
(1728485211.587307) vcan0 191#010090A1410030
(1728485211.587309) vcan0 164#0000C01AA9000030
(1728485211.587311) vcan0 133#0000000098
(1728485211.587313) vcan0 136#000200000000001B
(1728485211.587316) vcan0 13A#0000000000000019
(1728485211.587318) vcan0 13F#000000050000001F
(1728485211.588330) vcan0 17C#0000000010000012
(1728485211.588336) vcan0 18E#00005C
(1728485211.588338) vcan0 309#0000000000000084
(1728485211.591193) vcan0 305#8008
(1728485211.591201) vcan0 183#0000000B0000101F
(1728485211.591203) vcan0 143#6B6B00D1
(1728485211.593154) vcan0 095#800007F400000008
(1728485211.593242) vcan0 244#00000001BA
(1728485211.596056) vcan0 166#D0320018
(1728485211.596063) vcan0 158#0000000000000019
(1728485211.596066) vcan0 161#000005500108001C
(1728485211.596068) vcan0 191#010090A1410003
(1728485211.597083) vcan0 133#00000000A7
(1728485211.597095) vcan0 136#000200000000002A
(1728485211.597097) vcan0 13A#0000000000000028
(1728485211.597099) vcan0 039#002A
(1728485211.597101) vcan0 13F#000000050000002E
(1728485211.598125) vcan0 164#0000C01AA8000004
(1728485211.598133) vcan0 17C#0000000010000021
(1728485211.598136) vcan0 18E#00006B
(1728485211.598138) vcan0 1CF#80050000001E
(1728485211.598140) vcan0 1DC#0200001B
(1728485211.599951) vcan0 183#0000000800001021
(1728485211.599958) vcan0 143#6B6B00E0
(1728485211.601980) vcan0 095#800007F400000017
(1728485211.602997) vcan0 1A4#000000080000003E
(1728485211.603002) vcan0 1AA#7FFF00000000673F
(1728485211.603005) vcan0 1B0#000F0000000175
(1728485211.604843) vcan0 1D0#000000000000000A
(1728485211.604849) vcan0 166#D0320027
(1728485211.604863) vcan0 244#0000000119
(1728485211.605866) vcan0 158#0000000000000028
(1728485211.605874) vcan0 161#000005500108002B
(1728485211.606896) vcan0 191#010090A1410012
(1728485211.606901) vcan0 133#00000000B6
(1728485211.606904) vcan0 136#0002000000000039
(1728485211.606906) vcan0 13A#0000000000000037
(1728485211.608718) vcan0 13F#000000050000003D
(1728485211.608724) vcan0 164#0000C01AA8000013
(1728485211.608726) vcan0 17C#0000000010000030
(1728485211.608728) vcan0 18E#00007A
(1728485211.608730) vcan0 294#040B0002CF5A003B
(1728485211.608733) vcan0 21E#03E8374522063E
(1728485211.610611) vcan0 183#0000000D0000103B
(1728485211.610618) vcan0 143#6B6B00FF
(1728485211.611834) vcan0 095#800007F400000026
(1728485211.615584) vcan0 166#D0320036
(1728485211.615598) vcan0 158#0000000000000037
(1728485211.616520) vcan0 244#00000001CA
(1728485211.616669) vcan0 161#000005500108003A
(1728485211.616673) vcan0 191#010090A1410021
(1728485211.616676) vcan0 164#0000C01AA8000022
(1728485211.616678) vcan0 133#0000000089
(1728485211.616680) vcan0 136#000200000000000C
(1728485211.618513) vcan0 13A#000000000000000A
(1728485211.618523) vcan0 13F#0000000500000000
(1728485211.618526) vcan0 17C#0000000010000003
(1728485211.618528) vcan0 18E#00004D
(1728485211.618530) vcan0 1CF#80050000002D
(1728485211.618532) vcan0 039#0039
(1728485211.618534) vcan0 1DC#0200002A
(1728485211.618536) vcan0 183#0000000900001002
(1728485211.620459) vcan0 143#6B6B00C2
(1728485211.622442) vcan0 095#800007F400000035
(1728485211.622453) vcan0 1A4#0000000800000001
(1728485211.624339) vcan0 1AA#7FFF000000006801
(1728485211.624347) vcan0 1B0#000F0000000148
(1728485211.624350) vcan0 1D0#000000000000000A
(1728485211.624352) vcan0 166#D0320009
(1728485211.626395) vcan0 158#000000000000000A
(1728485211.626406) vcan0 161#000005500108000D
(1728485211.626408) vcan0 191#010090A1410030
(1728485211.626410) vcan0 164#0000C01AA8000031
(1728485211.628179) vcan0 244#000000018F
(1728485211.628190) vcan0 133#0000000098
(1728485211.628193) vcan0 136#000200000000001B
(1728485211.628196) vcan0 13A#0000000000000019
(1728485211.628198) vcan0 13F#000000050000001F
(1728485211.628200) vcan0 17C#0000000010000012
(1728485211.628204) vcan0 18E#00005C
(1728485211.629229) vcan0 183#0000000600001014
(1728485211.631055) vcan0 143#6B6B00D1
(1728485211.631064) vcan0 039#000C
(1728485211.633090) vcan0 095#800007F400000008
(1728485211.635124) vcan0 166#D0320018
(1728485211.636145) vcan0 158#0000000000000019
(1728485211.636156) vcan0 161#000005500108001C
(1728485211.636159) vcan0 191#010090A1410003
(1728485211.637173) vcan0 164#0000C01AA8000004
(1728485211.637182) vcan0 133#00000000A7
(1728485211.637184) vcan0 136#000200000000002A
(1728485211.637187) vcan0 13A#0000000000000028
(1728485211.637189) vcan0 13F#000000050000002E
(1728485211.638875) vcan0 244#00000001CF
(1728485211.638884) vcan0 17C#0000000010000021
(1728485211.638887) vcan0 18E#00006B
(1728485211.638890) vcan0 1CF#80050000003C
(1728485211.638892) vcan0 1DC#02000039
(1728485211.638899) vcan0 183#0000000C0000102D
(1728485211.640820) vcan0 143#6B6B00E0
(1728485211.640828) vcan0 333#0000000000000F
(1728485211.642870) vcan0 095#800007F400000017
(1728485211.642881) vcan0 1A4#0000000800000010
(1728485211.642884) vcan0 1AA#7FFF000000006810
(1728485211.642886) vcan0 1B0#000F0000000157
(1728485211.643915) vcan0 1D0#000000000000000A
(1728485211.643924) vcan0 039#001B
(1728485211.645202) vcan0 166#D0320027
(1728485211.646676) vcan0 158#0000000000000028
(1728485211.646687) vcan0 161#000005500108002B
(1728485211.646689) vcan0 191#010090A1410012
(1728485211.646691) vcan0 133#00000000B6
(1728485211.646693) vcan0 136#0002000000000039
(1728485211.646696) vcan0 13A#0000000000000037
(1728485211.648629) vcan0 13F#000000050000003D
(1728485211.648646) vcan0 164#0000C01AA8000013
(1728485211.648650) vcan0 17C#0000000010000030
(1728485211.648654) vcan0 18E#00007A
(1728485211.648656) vcan0 294#040B0002CF5A000E
(1728485211.648659) vcan0 21E#03E83745220601
(1728485211.650548) vcan0 183#000000090000103F
(1728485211.650556) vcan0 143#6B6B00FF
(1728485211.652547) vcan0 095#800007F400000026
(1728485211.654441) vcan0 166#D0320036
(1728485211.655479) vcan0 244#0000000175
(1728485211.655492) vcan0 158#0000000000000037
(1728485211.657364) vcan0 161#000005500108003A
(1728485211.657373) vcan0 191#010010A1410029
(1728485211.657376) vcan0 164#0000C01AA8000022
(1728485211.657378) vcan0 133#0000000089
(1728485211.657380) vcan0 136#000200000000000C
(1728485211.657382) vcan0 13A#000000000000000A
(1728485211.657385) vcan0 13F#0000000500000000
(1728485211.657387) vcan0 17C#0000000010000003
(1728485211.659263) vcan0 18E#00004D
(1728485211.659271) vcan0 1CF#80050000000F
(1728485211.659274) vcan0 1DC#0200000C
(1728485211.659276) vcan0 320#000003
(1728485211.659278) vcan0 324#7465000000000E0B
(1728485211.659282) vcan0 183#0000000600001005
(1728485211.659284) vcan0 37C#FD00FD00097F000B
(1728485211.659287) vcan0 039#002A
(1728485211.660342) vcan0 143#6B6B00C2
(1728485211.662280) vcan0 095#800007F400000035
(1728485211.662291) vcan0 1A4#000000080000002F
(1728485211.664186) vcan0 1AA#7FFF000000006720
(1728485211.664196) vcan0 1B0#000F0000000166
(1728485211.664198) vcan0 1D0#000000000000000A
(1728485211.666204) vcan0 166#D0320009
(1728485211.666223) vcan0 158#000000000000000A
(1728485211.666225) vcan0 161#000005500108000D
(1728485211.666228) vcan0 191#010010A1410038
(1728485211.666230) vcan0 133#0000000098
(1728485211.667176) vcan0 244#0000000159
(1728485211.667290) vcan0 136#000200000000001B
(1728485211.667297) vcan0 13A#0000000000000019
(1728485211.667299) vcan0 13F#000000050000001F
(1728485211.667301) vcan0 164#0000C01AA8000031
(1728485211.669080) vcan0 17C#0000000010000012
(1728485211.669090) vcan0 18E#00005C
(1728485211.669093) vcan0 183#0000000C0000101E
(1728485211.670980) vcan0 143#6B6B00D1
(1728485211.672983) vcan0 095#800007F400000008
(1728485211.672992) vcan0 039#0039
(1728485211.674885) vcan0 166#D0320018
(1728485211.676855) vcan0 158#0000000000000019
(1728485211.676866) vcan0 161#000005500108001C
(1728485211.676869) vcan0 191#010010A141000B
(1728485211.676871) vcan0 164#0000C01AA8000004
(1728485211.676873) vcan0 133#00000000A7
(1728485211.676875) vcan0 136#000200000000002A
(1728485211.676878) vcan0 13A#0000000000000028
(1728485211.678779) vcan0 244#00000001FE
(1728485211.678788) vcan0 13F#000000050000002E
(1728485211.678791) vcan0 17C#0000000010000021
(1728485211.678793) vcan0 18E#00006B
(1728485211.678795) vcan0 1CF#80050000001E
(1728485211.678797) vcan0 1DC#0200001B
(1728485211.678799) vcan0 183#0000000900001020
(1728485211.680788) vcan0 143#6B6B00E0
(1728485211.682647) vcan0 095#800007F400000017
(1728485211.682654) vcan0 1A4#000000080000003E
(1728485211.682657) vcan0 1AA#7FFF00000000673F
(1728485211.683701) vcan0 1B0#000F0000000175
(1728485211.683712) vcan0 1D0#000000000000000A
(1728485211.685638) vcan0 166#D0320027
(1728485211.685648) vcan0 039#000C
(1728485211.685651) vcan0 158#0000000000000028
(1728485211.687523) vcan0 161#000005500108002B
(1728485211.687530) vcan0 191#010010A141001A
(1728485211.687532) vcan0 133#00000000B6
(1728485211.687534) vcan0 136#0002000000000039
(1728485211.687537) vcan0 13A#0000000000000037
(1728485211.687539) vcan0 13F#000000050000003D
(1728485211.687541) vcan0 164#0000C01AA8000013
(1728485211.687543) vcan0 17C#0000000010000030
(1728485211.689477) vcan0 18E#00007A
(1728485211.689483) vcan0 294#040B0002CF5A001D
(1728485211.689486) vcan0 21E#03E83745220610
(1728485211.689488) vcan0 309#0000000000000093
(1728485211.689490) vcan0 183#0000000E0000103A
(1728485211.690540) vcan0 244#00000001BD
(1728485211.690554) vcan0 143#6B6B00FF
(1728485211.692397) vcan0 095#800007F400000026
(1728485211.692404) vcan0 305#8017
(1728485211.694395) vcan0 166#D0320036
(1728485211.696344) vcan0 158#0000000000000037
(1728485211.696354) vcan0 161#000005500108003A
(1728485211.696357) vcan0 191#010010A1410029
(1728485211.696359) vcan0 164#0000C01AA8000022
(1728485211.697827) vcan0 133#0000000089
(1728485211.697836) vcan0 136#000200000000000C
(1728485211.697838) vcan0 13A#000000000000000A
(1728485211.697840) vcan0 13F#0000000500000000
(1728485211.697848) vcan0 17C#0000000010000003
(1728485211.697851) vcan0 18E#00004D
(1728485211.697853) vcan0 1CF#80050000002D
(1728485211.699202) vcan0 1DC#0200002A
(1728485211.699209) vcan0 183#0000000A00001001
(1728485211.701226) vcan0 143#6B6B00C2
(1728485211.701239) vcan0 039#001B
(1728485211.702187) vcan0 244#0000000164
(1728485211.702320) vcan0 095#800007F400000035
(1728485211.702486) vcan0 1A4#0000000800000001
(1728485211.702489) vcan0 1AA#7FFF000000006801
(1728485211.704082) vcan0 1B0#000F0000000148
(1728485211.704090) vcan0 1D0#000000000000000A
(1728485211.706001) vcan0 166#D0320009
(1728485211.706007) vcan0 158#000000000000000A
(1728485211.706010) vcan0 161#000005500108000D
(1728485211.706012) vcan0 191#010010A1410038
(1728485211.707960) vcan0 133#0000000098
(1728485211.707967) vcan0 136#000200000000001B
(1728485211.707969) vcan0 13A#0000000000000019
(1728485211.707971) vcan0 13F#000000050000001F
(1728485211.707973) vcan0 164#0000C01AA8000031
(1728485211.707975) vcan0 17C#0000000010000012
(1728485211.707977) vcan0 18E#00005C
(1728485211.709908) vcan0 183#0000000700001013
(1728485211.709914) vcan0 143#6B6B00D1
(1728485211.711911) vcan0 095#800007F400000008
(1728485211.713822) vcan0 244#00000001E9
(1728485211.713830) vcan0 188#00000000
(1728485211.713848) vcan0 039#002A
(1728485211.714878) vcan0 166#D0320018
(1728485211.716709) vcan0 158#0000000000000019
(1728485211.716717) vcan0 161#000005500108001C
(1728485211.716719) vcan0 191#010010A141000B
(1728485211.716721) vcan0 133#00000000A7
(1728485211.716723) vcan0 136#000200000000002A
(1728485211.716725) vcan0 13A#0000000000000028
(1728485211.717738) vcan0 13F#000000050000002E
(1728485211.717747) vcan0 164#0000C01AA8000004
(1728485211.717749) vcan0 17C#0000000010000021
(1728485211.717752) vcan0 18E#00006B
(1728485211.719704) vcan0 1CF#80050000003C
(1728485211.719717) vcan0 1DC#02000039
(1728485211.719719) vcan0 183#0000000500001024
(1728485211.719722) vcan0 143#6B6B00E0
(1728485211.721649) vcan0 095#800007F400000017
(1728485211.722677) vcan0 1A4#0000000800000010
(1728485211.722684) vcan0 1AA#7FFF000000006810
(1728485211.722686) vcan0 1B0#000F0000000157
(1728485211.724521) vcan0 1D0#000000000000000A
(1728485211.724532) vcan0 166#D0320027
(1728485211.725502) vcan0 244#000000010B
(1728485211.725652) vcan0 158#0000000000000028
(1728485211.727356) vcan0 161#000005500108002B
(1728485211.727363) vcan0 191#010010A141001A
(1728485211.727365) vcan0 133#00000000B6
(1728485211.727367) vcan0 136#0002000000000039
(1728485211.727370) vcan0 13A#0000000000000037
(1728485211.727372) vcan0 13F#000000050000003D
(1728485211.727374) vcan0 164#0000C01AA8000013
(1728485211.729350) vcan0 17C#0000000010000030
(1728485211.729358) vcan0 039#0039
(1728485211.729360) vcan0 18E#00007A
(1728485211.729362) vcan0 294#040B0002CF5A002C
(1728485211.729365) vcan0 21E#03E8374522062F
(1728485211.729367) vcan0 183#0000000300001035
(1728485211.731334) vcan0 143#6B6B00FF
(1728485211.733300) vcan0 095#800007F400000026
(1728485211.735257) vcan0 166#D0320036
(1728485211.737157) vcan0 244#0000000191
(1728485211.737170) vcan0 158#0000000000000037
(1728485211.737174) vcan0 161#000005500108003A
(1728485211.737176) vcan0 191#010010A1410029
(1728485211.737179) vcan0 133#0000000089
(1728485211.737181) vcan0 136#000200000000000C
(1728485211.737183) vcan0 13A#000000000000000A
(1728485211.737185) vcan0 13F#0000000500000000
(1728485211.737187) vcan0 164#0000C01AA8000022
(1728485211.739170) vcan0 17C#0000000010000003
(1728485211.739182) vcan0 18E#00004D
(1728485211.739185) vcan0 1CF#80050000000F
(1728485211.739188) vcan0 1DC#0200000C
(1728485211.739190) vcan0 183#0000000A00001001
(1728485211.740258) vcan0 143#6B6B00C2
(1728485211.740267) vcan0 039#000C
(1728485211.740270) vcan0 333#0000000000001E
(1728485211.741985) vcan0 095#800007F400000035
(1728485211.743073) vcan0 1A4#000000080000002F
(1728485211.743083) vcan0 1AA#7FFF000000006720
(1728485211.743085) vcan0 1B0#000F0000000166
(1728485211.743088) vcan0 1D0#000000000000000A
(1728485211.745012) vcan0 166#D0320009
(1728485211.746871) vcan0 158#000000000000000A
(1728485211.746881) vcan0 161#000005500108000D
(1728485211.746883) vcan0 191#010010A1410038
(1728485211.746886) vcan0 133#0000000098
(1728485211.746888) vcan0 136#000200000000001B
(1728485211.746890) vcan0 13A#0000000000000019
(1728485211.749801) vcan0 244#00000001EF
(1728485211.749815) vcan0 13F#000000050000001F
(1728485211.749819) vcan0 164#0000C01AA8000031
(1728485211.749826) vcan0 17C#0000000010000012
(1728485211.749828) vcan0 18E#00005C
(1728485211.749831) vcan0 183#0000000700001013
(1728485211.749833) vcan0 143#6B6B00D1
(1728485211.751725) vcan0 095#800007F400000008
(1728485211.755740) vcan0 166#D0320018
(1728485211.755750) vcan0 158#0000000000000019
(1728485211.755752) vcan0 161#000005500108001C
(1728485211.757627) vcan0 191#010010A141000B
(1728485211.757639) vcan0 133#00000000A7
(1728485211.757642) vcan0 136#000200000000002A
(1728485211.757644) vcan0 13A#0000000000000028
(1728485211.757646) vcan0 13F#000000050000002E
(1728485211.757649) vcan0 164#0000C01AA8000004
(1728485211.757651) vcan0 17C#0000000010000021
(1728485211.757653) vcan0 18E#00006B
(1728485211.759565) vcan0 1CF#80050000001E
(1728485211.759575) vcan0 1DC#0200001B
(1728485211.759579) vcan0 320#000012
(1728485211.759582) vcan0 324#7465000000000E1A
(1728485211.759584) vcan0 37C#FD00FD00097F001A
(1728485211.759586) vcan0 183#0000000500001024
(1728485211.759588) vcan0 40C#0236323239533039
(1728485211.759590) vcan0 454#23EF36
(1728485211.761562) vcan0 244#000000012D
(1728485211.761585) vcan0 143#6B6B00E0
(1728485211.763410) vcan0 095#800007F400000017
(1728485211.763421) vcan0 039#001B
(1728485211.763424) vcan0 1A4#000000080000003E
(1728485211.763426) vcan0 1AA#7FFF00000000673F
(1728485211.763428) vcan0 1B0#000F0000000175
(1728485211.763430) vcan0 1D0#000000000000000A
(1728485211.765343) vcan0 166#D0320027
(1728485211.767393) vcan0 158#0000000000000028
(1728485211.767406) vcan0 161#000005500108002B
(1728485211.767408) vcan0 191#010010A141001A
(1728485211.767410) vcan0 133#00000000B6
(1728485211.767412) vcan0 136#0002000000000039
(1728485211.767415) vcan0 13A#0000000000000037
(1728485211.767417) vcan0 13F#000000050000003D
(1728485211.767419) vcan0 164#0000C01AA8000013
(1728485211.767422) vcan0 17C#0000000010000030
(1728485211.768498) vcan0 18E#00007A
(1728485211.768507) vcan0 294#040B0002CF5A003B
(1728485211.768510) vcan0 21E#03E8374522063E
(1728485211.770313) vcan0 183#0000000B0000103D
(1728485211.770324) vcan0 143#6B6B00FF
(1728485211.773218) vcan0 244#0000000146
(1728485211.773246) vcan0 095#800007F400000026
(1728485211.774962) vcan0 166#D0320036
(1728485211.777987) vcan0 158#0000000000000037
(1728485211.777995) vcan0 161#000005500108003A
(1728485211.777997) vcan0 191#010010A1410029
(1728485211.777999) vcan0 164#0000C01AA8000022
(1728485211.778002) vcan0 133#0000000089
(1728485211.778004) vcan0 136#000200000000000C
(1728485211.778007) vcan0 13A#000000000000000A
(1728485211.778010) vcan0 13F#0000000500000000
(1728485211.778013) vcan0 17C#0000000010000003
(1728485211.778015) vcan0 18E#00004D
(1728485211.778017) vcan0 1CF#80050000002D
(1728485211.778019) vcan0 1DC#0200002A
(1728485211.779296) vcan0 183#0000000800001003
(1728485211.780478) vcan0 143#6B6B00C2
(1728485211.781885) vcan0 095#800007F400000035
(1728485211.781891) vcan0 039#002A
(1728485211.783799) vcan0 1A4#0000000800000001
(1728485211.783806) vcan0 1AA#7FFF000000006801
(1728485211.783809) vcan0 1B0#000F0000000148
(1728485211.783811) vcan0 1D0#000000000000000A
(1728485211.784904) vcan0 244#00000001A5
(1728485211.784960) vcan0 166#D0320009
(1728485211.786758) vcan0 158#000000000000000A
(1728485211.786765) vcan0 161#000005500108000D
(1728485211.786767) vcan0 191#010010A1410038
(1728485211.786769) vcan0 133#0000000098
(1728485211.786771) vcan0 136#000200000000001B
(1728485211.786773) vcan0 13A#0000000000000019
(1728485211.788795) vcan0 13F#000000050000001F
(1728485211.788803) vcan0 164#0000C01AA9000030
(1728485211.788805) vcan0 17C#0000000010000012
(1728485211.788807) vcan0 18E#00005C
(1728485211.788809) vcan0 309#00000000000000A2
(1728485211.788812) vcan0 428#01040000521C01
(1728485211.788816) vcan0 405#000004000000000B
(1728485211.790866) vcan0 183#0000000600001014
(1728485211.790878) vcan0 143#6B6B00D1
(1728485211.792594) vcan0 095#800007F400000008
(1728485211.795515) vcan0 166#D0320018
(1728485211.795522) vcan0 305#8026
(1728485211.795524) vcan0 158#0000000000000019
(1728485211.796577) vcan0 244#0000000111
(1728485211.796592) vcan0 161#000005500108001C
(1728485211.796597) vcan0 191#010010A141000B
(1728485211.796600) vcan0 164#0000C01AA8000004
(1728485211.796602) vcan0 133#00000000A7
(1728485211.796604) vcan0 136#000200000000002A
(1728485211.798437) vcan0 13A#0000000000000028
(1728485211.798453) vcan0 13F#000000050000002E
(1728485211.798455) vcan0 17C#0000000010000021
(1728485211.798457) vcan0 18E#00006B
(1728485211.798459) vcan0 1CF#80050000003C
(1728485211.798461) vcan0 1DC#02000039
(1728485211.799487) vcan0 183#0000000C0000102D
(1728485211.800567) vcan0 143#6B6B00E0
(1728485211.802357) vcan0 095#800007F400000017
(1728485211.802365) vcan0 1A4#0000000800000010
(1728485211.803398) vcan0 1AA#7FFF000000006810
(1728485211.803410) vcan0 1B0#000F0000000157
(1728485211.803413) vcan0 039#0039
(1728485211.803415) vcan0 1D0#000000000000000A
(1728485211.805231) vcan0 166#D0320027
(1728485211.807280) vcan0 158#0000000000000028
(1728485211.807291) vcan0 161#000005500108002B
(1728485211.807293) vcan0 191#010010A141001A
(1728485211.807296) vcan0 133#00000000B6
(1728485211.807298) vcan0 136#0002000000000039
(1728485211.807300) vcan0 13A#0000000000000037
(1728485211.807306) vcan0 13F#000000050000003D
(1728485211.807309) vcan0 164#0000C01AA8000013
(1728485211.808130) vcan0 244#0000000140
(1728485211.808562) vcan0 17C#0000000010000030
(1728485211.808567) vcan0 18E#00007A
(1728485211.808569) vcan0 294#040B0002CF5A000E
(1728485211.808571) vcan0 21E#03E83745220601
(1728485211.810166) vcan0 183#000000090000103F
(1728485211.810173) vcan0 143#6B6B00FF
(1728485211.812594) vcan0 095#800007F400000026
(1728485211.814921) vcan0 166#D0320036
(1728485211.815945) vcan0 158#0000000000000037
(1728485211.815952) vcan0 161#000005500108003A
(1728485211.815954) vcan0 191#010010A1410029
(1728485211.818850) vcan0 164#0000C01AA8000022
(1728485211.818857) vcan0 133#0000000089
(1728485211.818859) vcan0 136#000200000000000C
(1728485211.818862) vcan0 13A#000000000000000A
(1728485211.818864) vcan0 039#000C
(1728485211.818866) vcan0 13F#0000000500000000
(1728485211.818869) vcan0 17C#0000000010000003
(1728485211.818871) vcan0 18E#00004D
(1728485211.818875) vcan0 1CF#80050000000F
(1728485211.818879) vcan0 1DC#0200000C
(1728485211.818881) vcan0 183#0000000E0000100D
(1728485211.819913) vcan0 143#6B6B00C2
(1728485211.819941) vcan0 244#000000013D
(1728485211.821820) vcan0 095#800007F400000035
(1728485211.823779) vcan0 1A4#000000080000002F
(1728485211.823789) vcan0 1AA#7FFF000000006720
(1728485211.823791) vcan0 1B0#000F0000000166
(1728485211.823794) vcan0 1D0#000000000000000A
(1728485211.825950) vcan0 166#D0320009
(1728485211.825962) vcan0 158#000000000000000A
(1728485211.825965) vcan0 161#000005500108000D
(1728485211.825967) vcan0 191#010010A1410038
(1728485211.827849) vcan0 133#0000000098
(1728485211.827866) vcan0 136#000200000000001B
(1728485211.827871) vcan0 13A#0000000000000019
(1728485211.827873) vcan0 13F#000000050000001F
(1728485211.827875) vcan0 164#0000C01AA8000031
(1728485211.827878) vcan0 17C#0000000010000012
(1728485211.827880) vcan0 18E#00005C
(1728485211.829093) vcan0 183#0000000A00001010
(1728485211.830629) vcan0 143#6B6B00D1
(1728485211.831699) vcan0 244#00000001EA
(1728485211.832090) vcan0 039#001B
(1728485211.832097) vcan0 095#800007F400000008
(1728485211.834608) vcan0 166#D0320018
(1728485211.836505) vcan0 158#0000000000000019
(1728485211.836514) vcan0 161#000005500108001C
(1728485211.836517) vcan0 191#010010A141000B
(1728485211.836520) vcan0 164#0000C01AA8000004
(1728485211.836522) vcan0 133#00000000A7
(1728485211.839381) vcan0 136#000200000000002A
(1728485211.839387) vcan0 13A#0000000000000028
(1728485211.839389) vcan0 13F#000000050000002E
(1728485211.839391) vcan0 17C#0000000010000021
(1728485211.839394) vcan0 18E#00006B
(1728485211.839396) vcan0 1CF#80050000001E
(1728485211.839398) vcan0 1DC#0200001B
(1728485211.839400) vcan0 183#0000000700001022
(1728485211.840447) vcan0 143#6B6B00E0
(1728485211.840452) vcan0 333#0000000000002D
(1728485211.842357) vcan0 095#800007F400000017
(1728485211.842368) vcan0 1A4#000000080000003E
(1728485211.843371) vcan0 244#000000010A
(1728485211.843931) vcan0 1AA#7FFF00000000673F
(1728485211.843936) vcan0 1B0#000F0000000175
(1728485211.843939) vcan0 1D0#000000000000000A
(1728485211.843941) vcan0 039#002A
(1728485211.846265) vcan0 166#D0320027
(1728485211.846275) vcan0 158#0000000000000028
(1728485211.846278) vcan0 161#000005500108002B
(1728485211.846280) vcan0 191#010010A141001A
(1728485211.846284) vcan0 133#00000000B6
(1728485211.848143) vcan0 136#0002000000000039
(1728485211.848155) vcan0 13A#0000000000000037
(1728485211.848158) vcan0 13F#000000050000003D
(1728485211.848166) vcan0 164#0000C01AA8000013
(1728485211.848168) vcan0 17C#0000000010000030
(1728485211.848170) vcan0 18E#00007A
(1728485211.848173) vcan0 294#040B0002CF5A001D
(1728485211.848175) vcan0 21E#03E83745220610
(1728485211.849217) vcan0 183#0000000500001033
(1728485211.851051) vcan0 143#6B6B00FF
(1728485211.852127) vcan0 095#800007F400000026
(1728485211.855059) vcan0 166#D0320036
(1728485211.855085) vcan0 244#00000001FC
(1728485211.856840) vcan0 158#0000000000000037
(1728485211.856848) vcan0 161#000005500108003A
(1728485211.856850) vcan0 191#010010A1410029
(1728485211.856853) vcan0 164#0000C01AA8000022
(1728485211.856855) vcan0 133#0000000089
(1728485211.856857) vcan0 136#000200000000000C
(1728485211.858925) vcan0 13A#000000000000000A
(1728485211.858947) vcan0 13F#0000000500000000
(1728485211.858952) vcan0 17C#0000000010000003
(1728485211.858954) vcan0 18E#00004D
(1728485211.858957) vcan0 1CF#80050000002D
(1728485211.858959) vcan0 1DC#0200002A
(1728485211.858962) vcan0 320#000021
(1728485211.858966) vcan0 324#7465000000000E29
(1728485211.858969) vcan0 37C#FD00FD00097F0029
(1728485211.858971) vcan0 183#0000000300001008
(1728485211.860866) vcan0 143#6B6B00C2
(1728485211.862020) vcan0 095#800007F400000035
(1728485211.863049) vcan0 1A4#0000000800000001
(1728485211.863059) vcan0 1AA#7FFF000000006801
(1728485211.863062) vcan0 1B0#000F0000000148
(1728485211.863064) vcan0 1D0#000000000000000A
(1728485211.864668) vcan0 039#0039
(1728485211.864677) vcan0 166#D0320009
(1728485211.866624) vcan0 158#000000000000000A
(1728485211.866631) vcan0 161#000005500108000D
(1728485211.866633) vcan0 191#010010A1410038
(1728485211.866636) vcan0 133#0000000098
(1728485211.866639) vcan0 136#000200000000001B
(1728485211.866724) vcan0 244#00000001BD
(1728485211.868567) vcan0 13A#0000000000000019
(1728485211.868575) vcan0 13F#000000050000001F
(1728485211.868578) vcan0 164#0000C01AA8000031
(1728485211.868581) vcan0 17C#0000000010000012
(1728485211.868583) vcan0 18E#00005C
(1728485211.870549) vcan0 183#0000000A00001010
(1728485211.870561) vcan0 143#6B6B00D1
(1728485211.872514) vcan0 095#800007F400000008
(1728485211.874439) vcan0 166#D0320018
(1728485211.876484) vcan0 039#000C
(1728485211.876493) vcan0 158#0000000000000019
(1728485211.876496) vcan0 161#000005500108001C
(1728485211.876499) vcan0 191#010010A141000B
(1728485211.876502) vcan0 164#0000C01AA8000004
(1728485211.876504) vcan0 133#00000000A7
(1728485211.877554) vcan0 136#000200000000002A
(1728485211.877562) vcan0 13A#0000000000000028
(1728485211.877565) vcan0 13F#000000050000002E
(1728485211.877567) vcan0 17C#0000000010000021
(1728485211.877569) vcan0 18E#00006B
(1728485211.879262) vcan0 1CF#80050000003C
(1728485211.879270) vcan0 1DC#02000039
(1728485211.879272) vcan0 183#0000000700001022
(1728485211.881281) vcan0 143#6B6B00E0
(1728485211.883230) vcan0 095#800007F400000017
(1728485211.883240) vcan0 1A4#0000000800000010
(1728485211.883243) vcan0 1AA#7FFF000000006810
(1728485211.883245) vcan0 1B0#000F0000000157
(1728485211.883247) vcan0 1D0#000000000000000A
(1728485211.884171) vcan0 244#0000000111
(1728485211.884676) vcan0 166#D0320027
(1728485211.886072) vcan0 158#0000000000000028
(1728485211.886079) vcan0 161#000005500108002B
(1728485211.886081) vcan0 191#010010A141001A
(1728485211.887165) vcan0 133#00000000B6
(1728485211.887171) vcan0 136#0002000000000039
(1728485211.887174) vcan0 13A#0000000000000037
(1728485211.887176) vcan0 13F#000000050000003D
(1728485211.887178) vcan0 164#0000C01AA8000013
(1728485211.889070) vcan0 17C#0000000010000030
(1728485211.889080) vcan0 18E#00007A
(1728485211.889083) vcan0 294#040B0002CF5A002C
(1728485211.889085) vcan0 21E#03E8374522062F
(1728485211.889087) vcan0 309#00000000000000B1
(1728485211.889090) vcan0 039#001B
(1728485211.891896) vcan0 183#0000000500001033
(1728485211.891904) vcan0 143#6B6B00FF
(1728485211.891906) vcan0 095#800007F400000026
(1728485211.894928) vcan0 166#D0320036
(1728485211.895134) vcan0 244#0000000145
(1728485211.896840) vcan0 158#0000000000000037
(1728485211.896855) vcan0 161#000005500108003A
(1728485211.896857) vcan0 191#010010A1410029
(1728485211.896859) vcan0 164#0000C01AA9000021
(1728485211.896862) vcan0 133#0000000089
(1728485211.896864) vcan0 136#000200000000000C
(1728485211.897884) vcan0 13A#000000000000000A
(1728485211.897893) vcan0 13F#0000000500000000
(1728485211.897895) vcan0 17C#0000000010000003
(1728485211.897902) vcan0 18E#00004D
(1728485211.897905) vcan0 1CF#80050000000F
(1728485211.899700) vcan0 1DC#0200000C
(1728485211.899709) vcan0 183#0000000B00001000
(1728485211.899712) vcan0 143#6B6B00C2
(1728485211.902693) vcan0 095#800007F400000035
(1728485211.902706) vcan0 305#8035
(1728485211.902709) vcan0 1A4#000000080000002F
(1728485211.902711) vcan0 1AA#7FFF000000006720
(1728485211.902713) vcan0 1B0#000F0000000166
(1728485211.904562) vcan0 1D0#000000000000000A
(1728485211.904569) vcan0 166#D0320009
(1728485211.906501) vcan0 158#000000000000000A
(1728485211.906510) vcan0 161#000005500108000D
(1728485211.906512) vcan0 191#010010A1410038
(1728485211.906514) vcan0 133#0000000098
(1728485211.906517) vcan0 136#000200000000001B
(1728485211.906690) vcan0 244#0000000132
(1728485211.908461) vcan0 13A#0000000000000019
(1728485211.908469) vcan0 13F#000000050000001F
(1728485211.908471) vcan0 164#0000C01AA8000031
(1728485211.908474) vcan0 17C#0000000010000012
(1728485211.908476) vcan0 18E#00005C
(1728485211.910400) vcan0 039#002A
(1728485211.910408) vcan0 183#0000000800001012
(1728485211.910410) vcan0 143#6B6B00D1
(1728485211.912425) vcan0 095#800007F400000008
(1728485211.914290) vcan0 166#D0320018
(1728485211.917206) vcan0 158#0000000000000019
(1728485211.917213) vcan0 161#000005500108001C
(1728485211.917215) vcan0 191#010010A141000B
(1728485211.917218) vcan0 164#0000C01AA8000004
(1728485211.917220) vcan0 133#00000000A7
(1728485211.917222) vcan0 136#000200000000002A
(1728485211.917224) vcan0 13A#0000000000000028
(1728485211.917227) vcan0 13F#000000050000002E
(1728485211.918183) vcan0 244#00000001A6
(1728485211.918577) vcan0 17C#0000000010000021
(1728485211.918591) vcan0 18E#00006B
(1728485211.918594) vcan0 1CF#80050000001E
(1728485211.918596) vcan0 1DC#0200001B
(1728485211.918598) vcan0 183#0000000600001023
(1728485211.920130) vcan0 143#6B6B00E0
(1728485211.923043) vcan0 095#800007F400000017
(1728485211.923050) vcan0 1A4#000000080000003E
(1728485211.923052) vcan0 1AA#7FFF00000000673F
(1728485211.923054) vcan0 1B0#000F0000000175
(1728485211.923057) vcan0 1D0#000000000000000A
(1728485211.925973) vcan0 039#0039
(1728485211.925985) vcan0 166#D0320027
(1728485211.925987) vcan0 158#0000000000000028
(1728485211.925990) vcan0 161#000005500108002B
(1728485211.925992) vcan0 191#010010A141001A
(1728485211.927007) vcan0 133#00000000B6
(1728485211.927015) vcan0 136#0002000000000039
(1728485211.927018) vcan0 13A#0000000000000037
(1728485211.927021) vcan0 13F#000000050000003D
(1728485211.928947) vcan0 164#0000C01AA8000013
(1728485211.928958) vcan0 17C#0000000010000030
(1728485211.928960) vcan0 18E#00007A
(1728485211.928962) vcan0 294#040B0002CF5A003B
(1728485211.928965) vcan0 21E#03E8374522063E
(1728485211.929124) vcan0 244#0000000166
(1728485211.930157) vcan0 183#0000000C0000103C
(1728485211.930170) vcan0 143#6B6B00FF
(1728485211.931866) vcan0 095#800007F800000022
(1728485211.934727) vcan0 166#D0320036
(1728485211.936724) vcan0 158#0000000000000037
(1728485211.936730) vcan0 161#000005500108003A
(1728485211.936733) vcan0 191#010010A1410029
(1728485211.936735) vcan0 164#0000C01AA8000022
(1728485211.936737) vcan0 133#0000000089
(1728485211.936740) vcan0 039#000C
(1728485211.938557) vcan0 136#000200000000000C
(1728485211.938563) vcan0 13A#000000000000000A
(1728485211.938565) vcan0 13F#0000000500000000
(1728485211.938568) vcan0 17C#0000000010000003
(1728485211.938570) vcan0 18E#00004D
(1728485211.938572) vcan0 1CF#80050000002D
(1728485211.938574) vcan0 1DC#0200002A
(1728485211.938577) vcan0 183#0000000900001002
(1728485211.939608) vcan0 143#6B6B00C2
(1728485211.941530) vcan0 333#0000000000003C
(1728485211.941540) vcan0 095#800007F800000031
(1728485211.941632) vcan0 244#00000001C5
(1728485211.943544) vcan0 1A4#0000000800000001
(1728485211.943555) vcan0 1AA#7FFF000000006801
(1728485211.943557) vcan0 1B0#000F0000000148
(1728485211.943561) vcan0 1D0#000000000000000A
(1728485211.945474) vcan0 166#D0320009
(1728485211.945481) vcan0 158#000000000000000A
(1728485211.946786) vcan0 161#000005500108000D
(1728485211.946797) vcan0 191#010010A1410038
(1728485211.946800) vcan0 133#0000000098
(1728485211.946802) vcan0 136#000200000000001B
(1728485211.946805) vcan0 13A#0000000000000019
(1728485211.948344) vcan0 13F#000000050000001F
(1728485211.948353) vcan0 164#0000C01AA8000031
(1728485211.948360) vcan0 17C#0000000010000012
(1728485211.948362) vcan0 18E#00005C
(1728485211.950286) vcan0 183#0000000E0000101C
(1728485211.950292) vcan0 143#6B6B00D1
(1728485211.950294) vcan0 039#001B
(1728485211.952207) vcan0 095#800007F800000004
(1728485211.954259) vcan0 166#D0320018
(1728485211.956126) vcan0 158#0000000000000019
(1728485211.956134) vcan0 161#000005500108001C
(1728485211.956136) vcan0 191#010090A1410003
(1728485211.957224) vcan0 133#00000000A7
(1728485211.957230) vcan0 136#000200000000002A
(1728485211.957232) vcan0 13A#0000000000000028
(1728485211.957234) vcan0 13F#000000050000002E
(1728485211.957237) vcan0 164#0000C01AA8000004
(1728485211.958154) vcan0 244#0000000191
(1728485211.958531) vcan0 17C#0000000010000021
(1728485211.958537) vcan0 18E#00006B
(1728485211.958539) vcan0 1CF#80050000003C
(1728485211.958541) vcan0 1DC#02000039
(1728485211.958543) vcan0 320#000030
(1728485211.958545) vcan0 324#7465000000000E38
(1728485211.960020) vcan0 37C#FD00FD00097F0038
(1728485211.960029) vcan0 183#0000000A0000102F
(1728485211.960031) vcan0 143#6B6B00E0
(1728485211.962180) vcan0 095#800007F800000013
(1728485211.963291) vcan0 1A4#0000000800000010
(1728485211.963301) vcan0 1AA#7FFF000000006810
(1728485211.963304) vcan0 1B0#000F0000000157
(1728485211.963306) vcan0 1D0#000000000000000A
(1728485211.964867) vcan0 039#002A
(1728485211.964875) vcan0 166#D0320027
(1728485211.966914) vcan0 158#0000000000000028
(1728485211.966940) vcan0 161#000005500108002B
(1728485211.966945) vcan0 191#010090A1410012
(1728485211.966947) vcan0 133#00000000B6
(1728485211.966949) vcan0 136#0002000000000039
(1728485211.966951) vcan0 13A#0000000000000037
(1728485211.966954) vcan0 13F#000000050000003D
(1728485211.968759) vcan0 164#0000C01AA9000012
(1728485211.968768) vcan0 17C#0000000010000030
(1728485211.968770) vcan0 18E#00007A
(1728485211.968772) vcan0 294#040B0002CF5A000E
(1728485211.968774) vcan0 21E#03E83745220601
(1728485211.969847) vcan0 183#0000000F00001039
(1728485211.969854) vcan0 143#6B6B00FF
(1728485211.969862) vcan0 244#00000001BC
(1728485211.971682) vcan0 095#800007F800000022
(1728485211.974647) vcan0 166#D0320036
(1728485211.975684) vcan0 158#0000000000000037
(1728485211.975694) vcan0 161#000005500108003A
(1728485211.977518) vcan0 191#010090A1410021
(1728485211.977526) vcan0 164#0000C01AA8000022
(1728485211.977528) vcan0 133#0000000089
(1728485211.977531) vcan0 136#000200000000000C
(1728485211.977533) vcan0 13A#000000000000000A
(1728485211.977535) vcan0 13F#0000000500000000
(1728485211.977537) vcan0 17C#0000000010000003
(1728485211.977542) vcan0 18E#00004D
(1728485211.978714) vcan0 1CF#80050000000F
(1728485211.978719) vcan0 1DC#0200000C
(1728485211.978721) vcan0 183#0000001300001007
(1728485211.980431) vcan0 039#0039
(1728485211.980439) vcan0 143#6B6B00C2
(1728485211.981425) vcan0 244#00000001FB
(1728485211.981471) vcan0 095#800007F400000035
(1728485211.983458) vcan0 1A4#000000080000002F
(1728485211.983469) vcan0 1AA#7FFF000000006720
(1728485211.983471) vcan0 1B0#000F0000000166
(1728485211.983473) vcan0 1D0#000000000000000A
(1728485211.984502) vcan0 166#D0320009
(1728485211.985519) vcan0 158#000000000000000A
(1728485211.987247) vcan0 161#000005500108000D
(1728485211.987252) vcan0 191#010090A1410030
(1728485211.987255) vcan0 133#0000000098
(1728485211.987257) vcan0 136#000200000000001B
(1728485211.987260) vcan0 13A#0000000000000019
(1728485211.987262) vcan0 13F#000000050000001F
(1728485211.987264) vcan0 164#0000C01AA8000031
(1728485211.989194) vcan0 17C#0000000010000012
(1728485211.989203) vcan0 18E#00005C
(1728485211.989205) vcan0 309#0000000000000084
(1728485211.989207) vcan0 183#0000000E0000101C
(1728485211.991140) vcan0 143#6B6B00D1
(1728485211.993087) vcan0 095#800007F400000008
(1728485211.993093) vcan0 039#000C
(1728485211.995044) vcan0 166#D0320018
(1728485211.996099) vcan0 244#0000000178
(1728485211.996406) vcan0 158#0000000000000019
(1728485211.996414) vcan0 161#000005500108001C
(1728485211.996416) vcan0 191#010090A1410003
(1728485211.996421) vcan0 164#0000C01AA8000004
(1728485211.996423) vcan0 133#00000000A7
(1728485211.997946) vcan0 136#000200000000002A
(1728485211.997956) vcan0 13A#0000000000000028
(1728485211.997959) vcan0 13F#000000050000002E
(1728485211.997961) vcan0 17C#0000000010000021
(1728485211.997963) vcan0 18E#00006B
(1728485211.997965) vcan0 1CF#80050000001E
(1728485211.997970) vcan0 1DC#0200001B
(1728485211.999923) vcan0 183#0000000A0000102F
(1728485211.999931) vcan0 143#6B6B00E0
(1728485212.001909) vcan0 095#800007F400000017
(1728485212.003823) vcan0 1A4#000000080000003E
(1728485212.003833) vcan0 1AA#7FFF00000000673F
(1728485212.003836) vcan0 1B0#000F0000000175
(1728485212.003838) vcan0 1D0#000000000000000A
(1728485212.005727) vcan0 166#D0320027
(1728485212.005736) vcan0 158#0000000000000028
(1728485212.005738) vcan0 161#000005500108002B
(1728485212.008126) vcan0 191#010090A1410012
(1728485212.008137) vcan0 133#00000000B6
(1728485212.008139) vcan0 136#0002000000000039
(1728485212.008141) vcan0 039#001B
(1728485212.008144) vcan0 13A#0000000000000037
(1728485212.008146) vcan0 13F#000000050000003D
(1728485212.008149) vcan0 164#0000C01AA8000013
(1728485212.008153) vcan0 17C#0000000010000030
(1728485212.008155) vcan0 18E#00007A
(1728485212.008158) vcan0 294#040B0002CF5A001D
(1728485212.008160) vcan0 305#8008
(1728485212.009051) vcan0 244#0000000167
(1728485212.009250) vcan0 21E#03E83745220610
(1728485212.009260) vcan0 183#0000000700001031
(1728485212.010324) vcan0 143#6B6B00FF
(1728485212.012550) vcan0 095#800007F400000026
(1728485212.012569) vcan0 5A1#960000000000622F
(1728485212.014443) vcan0 166#D0320036
(1728485212.015795) vcan0 158#0000000000000037
(1728485212.015806) vcan0 161#000005500108003A
(1728485212.017518) vcan0 191#010090A1410021
(1728485212.017529) vcan0 133#0000000089
(1728485212.017531) vcan0 136#000200000000000C
(1728485212.017534) vcan0 13A#000000000000000A
(1728485212.017536) vcan0 13F#0000000500000000
(1728485212.017538) vcan0 164#0000C01AA8000022
(1728485212.017541) vcan0 17C#0000000010000003
(1728485212.017543) vcan0 18E#00004D
(1728485212.019446) vcan0 1CF#80050000002D
(1728485212.019452) vcan0 1DC#0200002A
(1728485212.019455) vcan0 183#0000000500001006
(1728485212.020429) vcan0 244#0000000167
(1728485212.020974) vcan0 143#6B6B00C2
(1728485212.020981) vcan0 039#002A
(1728485212.022097) vcan0 095#800007F400000035
(1728485212.023124) vcan0 1A4#0000000800000001
(1728485212.023133) vcan0 1AA#7FFF000000006801
(1728485212.023136) vcan0 1B0#000F0000000148
(1728485212.023138) vcan0 1D0#000000000000000A
(1728485212.024307) vcan0 166#D0320009
(1728485212.025900) vcan0 158#000000000000000A
(1728485212.025907) vcan0 161#000005500108000D
(1728485212.025909) vcan0 191#010090A1410030
(1728485212.027183) vcan0 133#0000000098
(1728485212.027190) vcan0 136#000200000000001B
(1728485212.027193) vcan0 13A#0000000000000019
(1728485212.027195) vcan0 13F#000000050000001F
(1728485212.027197) vcan0 164#0000C01AA8000031
(1728485212.028928) vcan0 17C#0000000010000012
(1728485212.028946) vcan0 18E#00005C
(1728485212.030120) vcan0 183#0000000B0000101F
(1728485212.030139) vcan0 143#6B6B00D1
(1728485212.031092) vcan0 244#0000000189
(1728485212.033076) vcan0 095#800007F400000008
(1728485212.033086) vcan0 039#0039
(1728485212.034968) vcan0 166#D0320018
(1728485212.036034) vcan0 158#0000000000000019
(1728485212.036044) vcan0 161#000005500108001C
(1728485212.036047) vcan0 191#010090A1410003
(1728485212.037931) vcan0 133#00000000A7
(1728485212.037944) vcan0 136#000200000000002A
(1728485212.037946) vcan0 13A#0000000000000028
(1728485212.037949) vcan0 13F#000000050000002E
(1728485212.037951) vcan0 164#0000C01AA8000004
(1728485212.037953) vcan0 17C#0000000010000021
(1728485212.037956) vcan0 18E#00006B
(1728485212.037959) vcan0 1CF#80050000003C
(1728485212.037964) vcan0 1DC#02000039
(1728485212.039892) vcan0 183#0000000800001021
(1728485212.039900) vcan0 143#6B6B00E0
(1728485212.041718) vcan0 244#000000015C
(1728485212.041799) vcan0 333#0000000000000F
(1728485212.041805) vcan0 095#800007F400000017
(1728485212.042868) vcan0 1A4#0000000800000010
(1728485212.042893) vcan0 1AA#7FFF000000006810
(1728485212.042896) vcan0 1B0#000F0000000157
(1728485212.044762) vcan0 1D0#000000000000000A
(1728485212.044779) vcan0 166#D0320027
(1728485212.046358) vcan0 158#0000000000000028
(1728485212.046371) vcan0 161#000005500108002B
(1728485212.046374) vcan0 191#010090A1410012
(1728485212.046377) vcan0 133#00000000B6
(1728485212.048131) vcan0 136#0002000000000039
(1728485212.048143) vcan0 13A#0000000000000037
(1728485212.048146) vcan0 13F#000000050000003D
(1728485212.048148) vcan0 164#0000C01AA8000013
(1728485212.048150) vcan0 17C#0000000010000030
(1728485212.048153) vcan0 18E#00007A
(1728485212.048162) vcan0 294#040B0002CF5A002C
(1728485212.048165) vcan0 21E#03E8374522062F
(1728485212.049810) vcan0 183#0000000D0000103B
(1728485212.049823) vcan0 143#6B6B00FF
(1728485212.051544) vcan0 095#800007F400000026
(1728485212.053384) vcan0 039#000C
(1728485212.054466) vcan0 166#D0320036
(1728485212.055513) vcan0 158#0000000000000037
(1728485212.057058) vcan0 161#000005500108003A
(1728485212.057070) vcan0 191#010090A1410021
(1728485212.057073) vcan0 133#0000000089
(1728485212.057075) vcan0 136#000200000000000C
(1728485212.057078) vcan0 13A#000000000000000A
(1728485212.057080) vcan0 13F#0000000500000000
(1728485212.058347) vcan0 244#0000000102
(1728485212.058377) vcan0 164#0000C01AA8000022
(1728485212.058384) vcan0 17C#0000000010000003
(1728485212.058386) vcan0 18E#00004D
(1728485212.058389) vcan0 1CF#80050000000F
(1728485212.058391) vcan0 1DC#0200000C
(1728485212.058393) vcan0 320#000003
(1728485212.058396) vcan0 324#7465000000000E0B
(1728485212.059424) vcan0 37C#FD00FD00097F000B
(1728485212.059432) vcan0 183#0000000900001002
(1728485212.059435) vcan0 40C#033133383439000D
(1728485212.059437) vcan0 454#23EF09
(1728485212.061203) vcan0 143#6B6B00C2
(1728485212.063191) vcan0 095#800007F400000035
(1728485212.063201) vcan0 1A4#000000080000002F
(1728485212.063203) vcan0 1AA#7FFF000000006720
(1728485212.063205) vcan0 1B0#000F0000000166
(1728485212.063208) vcan0 1D0#000000000000000A
(1728485212.065169) vcan0 166#D0320009
(1728485212.067066) vcan0 158#000000000000000A
(1728485212.067073) vcan0 161#000005500108000D
(1728485212.067075) vcan0 191#010090A1410030
(1728485212.067077) vcan0 18E#00005C
(1728485212.067079) vcan0 133#0000000098
(1728485212.067081) vcan0 136#000200000000001B
(1728485212.067084) vcan0 13A#0000000000000019
(1728485212.067086) vcan0 039#001B
(1728485212.068992) vcan0 13F#000000050000001F
(1728485212.068997) vcan0 164#0000C01AA8000031
(1728485212.068999) vcan0 17C#0000000010000012
(1728485212.070215) vcan0 183#0000000600001014
(1728485212.070220) vcan0 143#6B6B00D1
(1728485212.071011) vcan0 244#0000000161
(1728485212.072972) vcan0 095#800007F400000008
(1728485212.074822) vcan0 166#D0320018
(1728485212.075928) vcan0 158#0000000000000019
(1728485212.075938) vcan0 161#000005500108001C
(1728485212.075941) vcan0 191#010090A1410003
(1728485212.077706) vcan0 164#0000C01AA8000004
(1728485212.077718) vcan0 133#00000000A7
(1728485212.077720) vcan0 136#000200000000002A
(1728485212.077724) vcan0 13A#0000000000000028
(1728485212.077726) vcan0 13F#000000050000002E
(1728485212.077728) vcan0 17C#0000000010000021
(1728485212.077731) vcan0 18E#00006B
(1728485212.077733) vcan0 1CF#80050000001E
(1728485212.078747) vcan0 1DC#0200001B
(1728485212.078759) vcan0 183#0000000C0000102D
(1728485212.080657) vcan0 143#6B6B00E0
(1728485212.081721) vcan0 095#800007F400000017
(1728485212.082671) vcan0 244#000000015C
(1728485212.083650) vcan0 039#002A
(1728485212.083671) vcan0 1A4#000000080000003E
(1728485212.083674) vcan0 1AA#7FFF00000000673F
(1728485212.083677) vcan0 1B0#000F0000000175
(1728485212.083680) vcan0 1D0#000000000000000A
(1728485212.084721) vcan0 166#D0320027
(1728485212.086509) vcan0 158#0000000000000028
(1728485212.086518) vcan0 161#000005500108002B
(1728485212.086521) vcan0 191#010090A1410012
(1728485212.086523) vcan0 133#00000000B6
(1728485212.086525) vcan0 136#0002000000000039
(1728485212.087585) vcan0 13A#0000000000000037
(1728485212.087597) vcan0 13F#000000050000003D
(1728485212.087599) vcan0 164#0000C01AA8000013
(1728485212.087602) vcan0 17C#0000000010000030
(1728485212.087604) vcan0 18E#00007A
(1728485212.089491) vcan0 294#040B0002CF5A003B
(1728485212.089503) vcan0 21E#03E8374522063E
(1728485212.089505) vcan0 309#0000000000000093
(1728485212.089507) vcan0 428#01040000521C10
(1728485212.089510) vcan0 405#000004000000001A
(1728485212.089512) vcan0 183#000000090000103F
(1728485212.090836) vcan0 143#6B6B00FF
(1728485212.092442) vcan0 095#800007F400000026
(1728485212.094344) vcan0 244#0000000107
(1728485212.094362) vcan0 166#D0320036
(1728485212.096315) vcan0 158#0000000000000037
(1728485212.096330) vcan0 161#000005500108003A
(1728485212.096332) vcan0 191#010090A1410021
(1728485212.096334) vcan0 039#0039
(1728485212.096337) vcan0 133#0000000089
(1728485212.097412) vcan0 136#000200000000000C
(1728485212.097422) vcan0 13A#000000000000000A
(1728485212.097425) vcan0 13F#0000000500000000
(1728485212.097433) vcan0 164#0000C01AA8000022
(1728485212.098550) vcan0 17C#0000000010000003
(1728485212.098561) vcan0 18E#00004D
(1728485212.098563) vcan0 1CF#80050000002D
(1728485212.098566) vcan0 1DC#0200002A
(1728485212.100197) vcan0 183#0000000E0000100D
(1728485212.100208) vcan0 143#6B6B00C2
(1728485212.102067) vcan0 095#800007F400000035
(1728485212.103122) vcan0 1A4#0000000800000001
(1728485212.103134) vcan0 1AA#7FFF000000006801
(1728485212.103137) vcan0 1B0#000F0000000148
(1728485212.103139) vcan0 1D0#000000000000000A
(1728485212.104788) vcan0 166#D0320009
(1728485212.105324) vcan0 244#0000000189
(1728485212.105889) vcan0 158#000000000000000A
(1728485212.105899) vcan0 161#000005500108000D
(1728485212.105902) vcan0 191#010090A1410030
(1728485212.107933) vcan0 133#0000000098
(1728485212.107944) vcan0 136#000200000000001B
(1728485212.107946) vcan0 13A#0000000000000019
(1728485212.107949) vcan0 13F#000000050000001F
(1728485212.107951) vcan0 164#0000C01AA8000031
(1728485212.107953) vcan0 17C#0000000010000012
(1728485212.107956) vcan0 18E#00005C
(1728485212.110834) vcan0 183#0000000A00001010
(1728485212.110841) vcan0 039#000C
(1728485212.110843) vcan0 143#6B6B00D1
(1728485212.110846) vcan0 305#8017
(1728485212.111970) vcan0 095#800007F400000008
(1728485212.114720) vcan0 166#D0320018
(1728485212.116680) vcan0 158#0000000000000019
(1728485212.116688) vcan0 161#000005500108001C
(1728485212.116690) vcan0 191#010090A1410003
(1728485212.116693) vcan0 133#00000000A7
(1728485212.116695) vcan0 136#000200000000002A
(1728485212.116697) vcan0 13A#0000000000000028
(1728485212.118325) vcan0 13F#000000050000002E
(1728485212.118336) vcan0 164#0000C01AA8000004
(1728485212.118339) vcan0 17C#0000000010000021
(1728485212.118341) vcan0 18E#00006B
(1728485212.118344) vcan0 1CF#80050000003C
(1728485212.118346) vcan0 1DC#02000039
(1728485212.118811) vcan0 244#000000010A
(1728485212.119389) vcan0 183#0000000700001022
(1728485212.120516) vcan0 143#6B6B00E0
(1728485212.121574) vcan0 095#800007F400000017
(1728485212.123633) vcan0 1A4#0000000800000010
(1728485212.123641) vcan0 1AA#7FFF000000006810
(1728485212.123643) vcan0 1B0#000F0000000157
(1728485212.123645) vcan0 1D0#000000000000000A
(1728485212.124706) vcan0 166#D0320027
(1728485212.126401) vcan0 158#0000000000000028
(1728485212.126411) vcan0 161#000005500108002B
(1728485212.126413) vcan0 191#010090A1410012
(1728485212.126416) vcan0 133#00000000B6
(1728485212.126418) vcan0 136#0002000000000039
(1728485212.128336) vcan0 039#001B
(1728485212.128345) vcan0 13A#0000000000000037
(1728485212.128348) vcan0 13F#000000050000003D
(1728485212.128350) vcan0 164#0000C01AA8000013
(1728485212.128353) vcan0 17C#0000000010000030
(1728485212.128355) vcan0 18E#00007A
(1728485212.128357) vcan0 294#040B0002CF5A000E
(1728485212.128360) vcan0 21E#03E83745220601
(1728485212.130390) vcan0 244#0000000112
(1728485212.130403) vcan0 183#0000000D0000103B
(1728485212.130407) vcan0 143#6B6B00FF
(1728485212.132691) vcan0 095#800007F400000026
(1728485212.135154) vcan0 166#D0320036
(1728485212.137117) vcan0 158#0000000000000037
(1728485212.137128) vcan0 161#000005500108003A
(1728485212.137131) vcan0 191#010090A1410021
(1728485212.137133) vcan0 164#0000C01AA8000022
(1728485212.137135) vcan0 133#0000000089
(1728485212.137138) vcan0 136#000200000000000C
(1728485212.137140) vcan0 13A#000000000000000A
(1728485212.137143) vcan0 13F#0000000500000000
(1728485212.139090) vcan0 17C#0000000010000003
(1728485212.139115) vcan0 18E#00004D
(1728485212.139118) vcan0 1CF#80050000000F
(1728485212.139121) vcan0 1DC#0200000C
(1728485212.139123) vcan0 183#0000000900001002
(1728485212.139125) vcan0 039#002A
(1728485212.141050) vcan0 143#6B6B00C2
(1728485212.141062) vcan0 333#0000000000001E
(1728485212.143100) vcan0 095#800007F400000035
(1728485212.143109) vcan0 1A4#000000080000002F
(1728485212.143142) vcan0 1AA#7FFF000000006720
(1728485212.143147) vcan0 1B0#000F0000000166
(1728485212.143149) vcan0 1D0#000000000000000A
(1728485212.143929) vcan0 244#0000000152
(1728485212.144415) vcan0 166#D0320009
(1728485212.145961) vcan0 158#000000000000000A
(1728485212.145976) vcan0 161#000005500108000D
(1728485212.145979) vcan0 191#010090A1410030
(1728485212.147000) vcan0 133#0000000098
(1728485212.147011) vcan0 136#000200000000001B
(1728485212.147013) vcan0 13A#0000000000000019
(1728485212.147016) vcan0 13F#000000050000001F
(1728485212.148751) vcan0 164#0000C01AA8000031
(1728485212.148760) vcan0 17C#0000000010000012
(1728485212.148762) vcan0 18E#00005C
(1728485212.150684) vcan0 183#0000000600001014
(1728485212.150690) vcan0 143#6B6B00D1
(1728485212.151703) vcan0 095#800007F400000008
(1728485212.154606) vcan0 166#D0320018
(1728485212.155612) vcan0 244#000000016D
(1728485212.155690) vcan0 158#0000000000000019
(1728485212.155697) vcan0 161#000005500108001C
(1728485212.157519) vcan0 191#010090A1410003
(1728485212.157525) vcan0 164#0000C01AA8000004
(1728485212.157527) vcan0 133#00000000A7
(1728485212.157529) vcan0 136#000200000000002A
(1728485212.157531) vcan0 13A#0000000000000028
(1728485212.157534) vcan0 13F#000000050000002E
(1728485212.157536) vcan0 17C#0000000010000021
(1728485212.157538) vcan0 18E#00006B
(1728485212.159477) vcan0 1CF#80050000001E
(1728485212.159484) vcan0 1DC#0200001B
(1728485212.159487) vcan0 320#000012
(1728485212.159489) vcan0 324#7465000000000E1A
(1728485212.159492) vcan0 37C#FD00FD00097F001A
(1728485212.159494) vcan0 039#0039
(1728485212.159496) vcan0 183#0000000C0000102D
(1728485212.161412) vcan0 143#6B6B00E0
(1728485212.163455) vcan0 095#800007F400000017
(1728485212.163463) vcan0 1A4#000000080000003E
(1728485212.163465) vcan0 1AA#7FFF00000000673F
(1728485212.163467) vcan0 1B0#000F0000000175
(1728485212.163470) vcan0 1D0#000000000000000A
(1728485212.164488) vcan0 166#D0320027
(1728485212.166231) vcan0 158#0000000000000028
(1728485212.166239) vcan0 161#000005500108002B
(1728485212.166242) vcan0 191#010090A1410012
(1728485212.166244) vcan0 133#00000000B6
(1728485212.166675) vcan0 244#0000000153
(1728485212.167371) vcan0 136#0002000000000039
(1728485212.167390) vcan0 13A#0000000000000037
(1728485212.167393) vcan0 13F#000000050000003D
(1728485212.167395) vcan0 164#0000C01AA9000012
(1728485212.167398) vcan0 17C#0000000010000030
(1728485212.169317) vcan0 18E#00007A
(1728485212.169330) vcan0 294#040B0002CF5A001D
(1728485212.169332) vcan0 21E#03E83745220610
(1728485212.169335) vcan0 183#000000090000103F
(1728485212.171150) vcan0 143#6B6B00FF
(1728485212.171157) vcan0 039#000C
(1728485212.173131) vcan0 095#800007F400000026
(1728485212.174208) vcan0 166#D0320036
(1728485212.175960) vcan0 158#0000000000000037
(1728485212.175969) vcan0 161#000005500108003A
(1728485212.175971) vcan0 191#010090A1410021
(1728485212.177949) vcan0 164#0000C01AA9000021
(1728485212.177955) vcan0 133#0000000089
(1728485212.177958) vcan0 136#000200000000000C
(1728485212.177960) vcan0 13A#000000000000000A
(1728485212.177962) vcan0 13F#0000000500000000
(1728485212.177965) vcan0 17C#0000000010000003
(1728485212.177968) vcan0 18E#00004D
(1728485212.177970) vcan0 1CF#80050000002D
(1728485212.177973) vcan0 1DC#0200002A
(1728485212.178196) vcan0 244#0000000100
(1728485212.179185) vcan0 183#0000000E0000100D
(1728485212.180238) vcan0 143#6B6B00C2
(1728485212.182770) vcan0 095#800007F400000035
(1728485212.182781) vcan0 1A4#0000000800000001
(1728485212.182784) vcan0 1AA#7FFF000000006801
(1728485212.182786) vcan0 1B0#000F0000000148
(1728485212.184733) vcan0 1D0#000000000000000A
(1728485212.184740) vcan0 166#D0320009
(1728485212.185752) vcan0 158#000000000000000A
(1728485212.185758) vcan0 161#000005500108000D
(1728485212.187845) vcan0 191#010090A1410030
(1728485212.187871) vcan0 039#001B
(1728485212.187874) vcan0 133#0000000098
(1728485212.187877) vcan0 136#000200000000001B
(1728485212.187879) vcan0 13A#0000000000000019
(1728485212.187882) vcan0 13F#000000050000001F
(1728485212.187884) vcan0 164#0000C01AA8000031
(1728485212.187886) vcan0 17C#0000000010000012
(1728485212.187889) vcan0 18E#00005C
(1728485212.187899) vcan0 309#00000000000000A2
(1728485212.190643) vcan0 244#0000000149
(1728485212.190656) vcan0 183#0000000A00001010
(1728485212.190661) vcan0 143#6B6B00D1
(1728485212.192535) vcan0 095#800007F400000008
(1728485212.194696) vcan0 166#D0320018
(1728485212.195802) vcan0 158#0000000000000019
(1728485212.195813) vcan0 161#000005500108001C
(1728485212.197410) vcan0 191#010090A1410003
(1728485212.197418) vcan0 133#00000000A7
(1728485212.197421) vcan0 136#000200000000002A
(1728485212.197423) vcan0 13A#0000000000000028
(1728485212.197426) vcan0 13F#000000050000002E
(1728485212.197428) vcan0 164#0000C01AA8000004
(1728485212.197430) vcan0 17C#0000000010000021
(1728485212.199360) vcan0 18E#00006B
(1728485212.199384) vcan0 1CF#80050000003C
(1728485212.199386) vcan0 1DC#02000039
(1728485212.199389) vcan0 183#0000000700001022
(1728485212.200993) vcan0 143#6B6B00E0
(1728485212.201497) vcan0 039#002A
(1728485212.201505) vcan0 095#800007F400000017
(1728485212.203276) vcan0 1A4#0000000800000010
(1728485212.203286) vcan0 1AA#7FFF000000006810
(1728485212.203288) vcan0 1B0#000F0000000157
(1728485212.203291) vcan0 1D0#000000000000000A
(1728485212.205203) vcan0 166#D0320027
(1728485212.206182) vcan0 244#000000012E
(1728485212.206232) vcan0 158#0000000000000028
(1728485212.206239) vcan0 161#000005500108002B
(1728485212.206241) vcan0 191#010090A1410012
(1728485212.206243) vcan0 133#00000000B6
(1728485212.207331) vcan0 136#0002000000000039
(1728485212.207341) vcan0 13A#0000000000000037
(1728485212.207343) vcan0 13F#000000050000003D
(1728485212.207345) vcan0 164#0000C01AA8000013
(1728485212.208419) vcan0 17C#0000000010000030
(1728485212.208428) vcan0 18E#00007A
(1728485212.208430) vcan0 294#040B0002CF5A002C
(1728485212.208433) vcan0 21E#03E8374522062F
(1728485212.210047) vcan0 183#0000000500001033
(1728485212.210055) vcan0 143#6B6B00FF
(1728485212.212074) vcan0 095#800007F400000026
(1728485212.215545) vcan0 166#D0320036
(1728485212.215575) vcan0 039#0039
(1728485212.215584) vcan0 158#0000000000000037
(1728485212.216849) vcan0 161#000005500108003A
(1728485212.216863) vcan0 191#010090A1410021
(1728485212.216865) vcan0 305#8026
(1728485212.216867) vcan0 133#0000000089
(1728485212.216870) vcan0 136#000200000000000C
(1728485212.216872) vcan0 13A#000000000000000A
(1728485212.217172) vcan0 244#0000000107
(1728485212.217177) vcan0 188#00000000
(1728485212.217962) vcan0 13F#0000000500000000
(1728485212.217974) vcan0 164#0000C01AA8000022
(1728485212.217976) vcan0 17C#0000000010000003
(1728485212.217979) vcan0 18E#00004D
(1728485212.217981) vcan0 1CF#80050000000F
(1728485212.217983) vcan0 1DC#0200000C
(1728485212.219050) vcan0 183#0000000300001008
(1728485212.220723) vcan0 143#6B6B00C2
(1728485212.221816) vcan0 095#800007F400000035
(1728485212.223779) vcan0 1A4#000000080000002F
(1728485212.223789) vcan0 1AA#7FFF000000006720
(1728485212.223792) vcan0 1B0#000F0000000166
(1728485212.223794) vcan0 1D0#000000000000000A
(1728485212.225711) vcan0 166#D0320009
(1728485212.225721) vcan0 158#000000000000000A
(1728485212.225723) vcan0 161#000005500108000D
(1728485212.227559) vcan0 191#010090A1410030
(1728485212.227568) vcan0 133#0000000098
(1728485212.227570) vcan0 136#000200000000001B
(1728485212.227572) vcan0 13A#0000000000000019
(1728485212.227575) vcan0 13F#000000050000001F
(1728485212.227577) vcan0 164#0000C01AA8000031
(1728485212.227579) vcan0 17C#0000000010000012
(1728485212.227581) vcan0 18E#00005C
(1728485212.229522) vcan0 244#0000000171
(1728485212.229576) vcan0 039#000C
(1728485212.229585) vcan0 183#0000000A00001010
(1728485212.229588) vcan0 143#6B6B00D1
(1728485212.232491) vcan0 095#800007F400000008
(1728485212.235422) vcan0 166#D0320018
(1728485212.236445) vcan0 158#0000000000000019
(1728485212.236453) vcan0 161#000005500108001C
(1728485212.236455) vcan0 191#010090A1410003
(1728485212.236458) vcan0 133#00000000A7
(1728485212.236460) vcan0 136#000200000000002A
(1728485212.238315) vcan0 13A#0000000000000028
(1728485212.238325) vcan0 13F#000000050000002E
(1728485212.238327) vcan0 164#0000C01AA8000004
(1728485212.238330) vcan0 17C#0000000010000021
(1728485212.238332) vcan0 18E#00006B
(1728485212.238334) vcan0 1CF#80050000001E
(1728485212.238336) vcan0 1DC#0200001B
(1728485212.240217) vcan0 183#0000000700001022
(1728485212.240225) vcan0 143#6B6B00E0
(1728485212.242156) vcan0 333#0000000000002D
(1728485212.242162) vcan0 095#800007F400000017
(1728485212.243243) vcan0 1A4#000000080000003E
(1728485212.243249) vcan0 1AA#7FFF00000000673F
(1728485212.243251) vcan0 1B0#000F0000000175
(1728485212.243253) vcan0 1D0#000000000000000A
(1728485212.243256) vcan0 039#001B
(1728485212.245028) vcan0 166#D0320027
(1728485212.245402) vcan0 244#0000000146
(1728485212.246122) vcan0 158#0000000000000028
(1728485212.246131) vcan0 161#000005500108002B
(1728485212.246133) vcan0 191#010090A1410012
(1728485212.246136) vcan0 133#00000000B6
(1728485212.247945) vcan0 136#0002000000000039
(1728485212.247956) vcan0 13A#0000000000000037
(1728485212.247958) vcan0 13F#000000050000003D
(1728485212.247960) vcan0 164#0000C01AA8000013
(1728485212.247963) vcan0 17C#0000000010000030
(1728485212.247970) vcan0 18E#00007A
(1728485212.247975) vcan0 294#040B0002CF5A003B
(1728485212.249932) vcan0 21E#03E8374522063E
(1728485212.249938) vcan0 183#0000000500001033
(1728485212.249940) vcan0 143#6B6B00FF
(1728485212.252906) vcan0 095#800007F400000026
(1728485212.254942) vcan0 166#D0320036
(1728485212.255967) vcan0 244#00000001E0
(1728485212.256032) vcan0 158#0000000000000037
(1728485212.256042) vcan0 161#000005500108003A
(1728485212.256044) vcan0 191#010010A1410029
(1728485212.257715) vcan0 133#0000000089
(1728485212.257723) vcan0 136#000200000000000C
(1728485212.257726) vcan0 13A#000000000000000A
(1728485212.257728) vcan0 13F#0000000500000000
(1728485212.257730) vcan0 164#0000C01AA8000022
(1728485212.257733) vcan0 17C#0000000010000003
(1728485212.257735) vcan0 18E#00004D
(1728485212.257737) vcan0 1CF#80050000002D
(1728485212.259726) vcan0 1DC#0200002A
(1728485212.259735) vcan0 320#000021
(1728485212.259737) vcan0 324#7465000000000E29
(1728485212.259739) vcan0 37C#FD00FD00097F0029
(1728485212.259741) vcan0 183#0000000B00001000
(1728485212.259743) vcan0 143#6B6B00C2
(1728485212.261657) vcan0 095#800007F400000035
(1728485212.263602) vcan0 1A4#0000000800000001
(1728485212.263618) vcan0 1AA#7FFF000000006801
(1728485212.263620) vcan0 1B0#000F0000000148
(1728485212.263623) vcan0 1D0#000000000000000A
(1728485212.263625) vcan0 039#002A
(1728485212.265524) vcan0 166#D0320009
(1728485212.265532) vcan0 158#000000000000000A
(1728485212.266666) vcan0 161#000005500108000D
(1728485212.266677) vcan0 191#010010A1410038
(1728485212.266680) vcan0 133#0000000098
(1728485212.266682) vcan0 136#000200000000001B
(1728485212.266684) vcan0 13A#0000000000000019
(1728485212.268482) vcan0 13F#000000050000001F
(1728485212.268492) vcan0 164#0000C01AA8000031
(1728485212.268495) vcan0 17C#0000000010000012
(1728485212.268497) vcan0 18E#00005C
(1728485212.268570) vcan0 244#000000011E
(1728485212.270323) vcan0 183#0000000800001012
(1728485212.270334) vcan0 143#6B6B00D1
(1728485212.273250) vcan0 095#800007F400000008
(1728485212.275352) vcan0 166#D0320018
(1728485212.277189) vcan0 158#0000000000000019
(1728485212.277196) vcan0 161#000005500108001C
(1728485212.277198) vcan0 191#010010A141000B
(1728485212.277201) vcan0 039#0039
(1728485212.277203) vcan0 133#00000000A7
(1728485212.277205) vcan0 136#000200000000002A
(1728485212.277207) vcan0 13A#0000000000000028
(1728485212.277209) vcan0 13F#000000050000002E
(1728485212.277213) vcan0 164#0000C01AA8000004
(1728485212.278407) vcan0 17C#0000000010000021
(1728485212.278412) vcan0 18E#00006B
(1728485212.278414) vcan0 1CF#80050000003C
(1728485212.278416) vcan0 1DC#02000039
(1728485212.279466) vcan0 183#0000000D0000102C
(1728485212.281096) vcan0 244#0000000129
(1728485212.281111) vcan0 143#6B6B00E0
(1728485212.283074) vcan0 095#800007F400000017
(1728485212.283085) vcan0 1A4#0000000800000010
(1728485212.283087) vcan0 1AA#7FFF000000006810
(1728485212.283090) vcan0 1B0#000F0000000157
(1728485212.283092) vcan0 1D0#000000000000000A
(1728485212.284961) vcan0 166#D0320027
(1728485212.286033) vcan0 158#0000000000000028
(1728485212.286041) vcan0 161#000005500108002B
(1728485212.286043) vcan0 191#010010A141001A
(1728485212.287062) vcan0 133#00000000B6
(1728485212.287070) vcan0 136#0002000000000039
(1728485212.287072) vcan0 13A#0000000000000037
(1728485212.287074) vcan0 13F#000000050000003D
(1728485212.288878) vcan0 164#0000C01AA8000013
(1728485212.288885) vcan0 17C#0000000010000030
(1728485212.288887) vcan0 18E#00007A
(1728485212.288889) vcan0 294#040B0002CF5A000E
(1728485212.288891) vcan0 21E#03E83745220601
(1728485212.288895) vcan0 309#00000000000000B1
(1728485212.290883) vcan0 183#0000001100001036
(1728485212.290892) vcan0 143#6B6B00FF
(1728485212.290894) vcan0 039#000C
(1728485212.292831) vcan0 244#000000012E
(1728485212.292846) vcan0 095#800007F400000026
(1728485212.294748) vcan0 166#D0320036
(1728485212.296622) vcan0 158#0000000000000037
(1728485212.296631) vcan0 161#000005500108003A
(1728485212.296633) vcan0 191#010010A1410029
(1728485212.296635) vcan0 164#0000C01AA8000022
(1728485212.296639) vcan0 133#0000000089
(1728485212.296641) vcan0 136#000200000000000C
(1728485212.297690) vcan0 13A#000000000000000A
(1728485212.297703) vcan0 13F#0000000500000000
(1728485212.297705) vcan0 17C#0000000010000003
(1728485212.297708) vcan0 18E#00004D
(1728485212.297710) vcan0 1CF#80050000000F
(1728485212.299578) vcan0 1DC#0200000C
(1728485212.299585) vcan0 183#0000000C0000100F
(1728485212.299587) vcan0 143#6B6B00C2
(1728485212.301568) vcan0 095#800007F400000035
(1728485212.303531) vcan0 1A4#000000080000002F
(1728485212.303541) vcan0 1AA#7FFF000000006720
(1728485212.303543) vcan0 1B0#000F0000000166
(1728485212.303545) vcan0 1D0#000000000000000A
(1728485212.303781) vcan0 244#00000001E0
(1728485212.304898) vcan0 166#D0320009
(1728485212.306420) vcan0 158#000000000000000A
(1728485212.306428) vcan0 161#000005500108000D
(1728485212.306430) vcan0 191#010010A1410038
(1728485212.306433) vcan0 039#001B
(1728485212.306435) vcan0 133#0000000098
(1728485212.307586) vcan0 136#000200000000001B
(1728485212.307615) vcan0 13A#0000000000000019
(1728485212.307619) vcan0 13F#000000050000001F
(1728485212.307621) vcan0 164#0000C01AA8000031
(1728485212.307624) vcan0 17C#0000000010000012
(1728485212.307627) vcan0 18E#00005C
(1728485212.310513) vcan0 183#0000001000001019
(1728485212.310523) vcan0 143#6B6B00D1
(1728485212.311570) vcan0 095#800007F400000008
(1728485212.315295) vcan0 244#000000012B
(1728485212.315313) vcan0 166#D0320018
(1728485212.317202) vcan0 158#0000000000000019
(1728485212.317212) vcan0 161#000005500108001C
(1728485212.317215) vcan0 191#010010A141000B
(1728485212.317217) vcan0 133#00000000A7
(1728485212.317219) vcan0 136#000200000000002A
(1728485212.317221) vcan0 13A#0000000000000028
(1728485212.317224) vcan0 13F#000000050000002E
(1728485212.317226) vcan0 164#0000C01AA8000004
(1728485212.319149) vcan0 17C#0000000010000021
(1728485212.319155) vcan0 18E#00006B
(1728485212.319157) vcan0 1CF#80050000001E
(1728485212.319159) vcan0 1DC#0200001B
(1728485212.319161) vcan0 183#0000000C0000102D
(1728485212.320177) vcan0 143#6B6B00E0
(1728485212.320187) vcan0 039#002A
(1728485212.321206) vcan0 305#8035
(1728485212.322237) vcan0 095#800007F400000017
(1728485212.323254) vcan0 1A4#000000080000003E
(1728485212.323261) vcan0 1AA#7FFF00000000673F
(1728485212.323263) vcan0 1B0#000F0000000175
(1728485212.323266) vcan0 1D0#000000000000000A
(1728485212.324279) vcan0 166#D0320027
(1728485212.326036) vcan0 244#0000000190
(1728485212.326339) vcan0 158#0000000000000028
(1728485212.326349) vcan0 161#000005500108002B
(1728485212.326351) vcan0 191#010010A141001A
(1728485212.326353) vcan0 133#00000000B6
(1728485212.327368) vcan0 136#0002000000000039
(1728485212.327377) vcan0 13A#0000000000000037
(1728485212.327379) vcan0 13F#000000050000003D
(1728485212.327383) vcan0 164#0000C01AA8000013
(1728485212.327387) vcan0 17C#0000000010000030
(1728485212.328473) vcan0 18E#00007A
(1728485212.328482) vcan0 294#040B0002CF5A001D
(1728485212.328485) vcan0 21E#03E83745220610
(1728485212.329863) vcan0 183#000000090000103F
(1728485212.329872) vcan0 143#6B6B00FF
(1728485212.331659) vcan0 095#800007F400000026
(1728485212.334694) vcan0 166#D0320036
(1728485212.336651) vcan0 039#0039
(1728485212.336711) vcan0 244#000000010E
(1728485212.336722) vcan0 158#0000000000000037
(1728485212.336725) vcan0 161#000005500108003A
(1728485212.336728) vcan0 191#010010A1410029
(1728485212.336730) vcan0 133#0000000089
(1728485212.336735) vcan0 136#000200000000000C
(1728485212.336737) vcan0 13A#000000000000000A
(1728485212.337935) vcan0 13F#0000000500000000
(1728485212.337944) vcan0 164#0000C01AA9000021
(1728485212.337946) vcan0 17C#0000000010000003
(1728485212.337949) vcan0 18E#00004D
(1728485212.337951) vcan0 1CF#80050000002D
(1728485212.337953) vcan0 1DC#0200002A
(1728485212.339244) vcan0 183#0000000E0000100D
(1728485212.340530) vcan0 143#6B6B00C2
(1728485212.340538) vcan0 333#0000000000003C
(1728485212.343901) vcan0 095#800007F400000035
(1728485212.343917) vcan0 1A4#0000000800000001
(1728485212.343919) vcan0 1AA#7FFF000000006801
(1728485212.343923) vcan0 1B0#000F0000000148
(1728485212.343925) vcan0 1D0#000000000000000A
(1728485212.345249) vcan0 166#D0320009
(1728485212.346850) vcan0 158#000000000000000A
(1728485212.346865) vcan0 161#000005500108000D
(1728485212.346868) vcan0 191#010010A1410038
(1728485212.346870) vcan0 133#0000000098
(1728485212.346874) vcan0 136#000200000000001B
(1728485212.346876) vcan0 13A#0000000000000019
(1728485212.347894) vcan0 244#0000000103
(1728485212.347898) vcan0 13F#000000050000001F
(1728485212.347905) vcan0 164#0000C01AA8000031
(1728485212.347907) vcan0 17C#0000000010000012
(1728485212.347910) vcan0 18E#00005C
(1728485212.349664) vcan0 039#000C
(1728485212.349679) vcan0 183#0000000A00001010
(1728485212.349681) vcan0 143#6B6B00D1
(1728485212.351748) vcan0 095#800007F400000008
(1728485212.354567) vcan0 166#D0320018
(1728485212.356479) vcan0 158#0000000000000019
(1728485212.356488) vcan0 161#000005500108001C
(1728485212.356491) vcan0 191#010010A141000B
(1728485212.356493) vcan0 133#00000000A7
(1728485212.356495) vcan0 136#000200000000002A
(1728485212.358467) vcan0 13A#0000000000000028
(1728485212.358480) vcan0 13F#000000050000002E
(1728485212.358484) vcan0 164#0000C01AA8000004
(1728485212.358487) vcan0 17C#0000000010000021
(1728485212.358490) vcan0 18E#00006B
(1728485212.358493) vcan0 1CF#80050000003C
(1728485212.358497) vcan0 1DC#02000039
(1728485212.358500) vcan0 320#000030
(1728485212.358504) vcan0 324#7465000000000E38
(1728485212.359588) vcan0 37C#FD00FD00097F0038
(1728485212.359595) vcan0 244#0000000127
(1728485212.359599) vcan0 40C#0000000004000013
(1728485212.359601) vcan0 183#0000000F0000102A
(1728485212.359604) vcan0 454#23EF18
(1728485212.361361) vcan0 143#6B6B00E0
(1728485212.363302) vcan0 095#800007F400000017
(1728485212.363312) vcan0 1A4#0000000800000010
(1728485212.363331) vcan0 1AA#7FFF000000006810
(1728485212.363334) vcan0 1B0#000F0000000157
(1728485212.363336) vcan0 1D0#000000000000000A
(1728485212.364355) vcan0 166#D0320027
(1728485212.366401) vcan0 158#0000000000000028
(1728485212.366413) vcan0 161#000005500108002B
(1728485212.366415) vcan0 191#010010A141001A
(1728485212.366418) vcan0 133#00000000B6
(1728485212.366420) vcan0 136#0002000000000039
(1728485212.367434) vcan0 13A#0000000000000037
(1728485212.367444) vcan0 13F#000000050000003D
(1728485212.367447) vcan0 164#0000C01AA9000012
(1728485212.367449) vcan0 17C#0000000010000030
(1728485212.369238) vcan0 18E#00007A
(1728485212.369250) vcan0 294#040B0002CF5A002C
(1728485212.369252) vcan0 039#001B
(1728485212.369255) vcan0 21E#03E8374522062F
(1728485212.369257) vcan0 183#0000001300001034
(1728485212.370274) vcan0 143#6B6B00FF
(1728485212.371147) vcan0 244#0000000122
(1728485212.372913) vcan0 095#800007F400000026
(1728485212.375011) vcan0 166#D0320036
(1728485212.376398) vcan0 158#0000000000000037
(1728485212.376409) vcan0 161#000005500108003A
(1728485212.376411) vcan0 191#010010A1410029
(1728485212.376414) vcan0 164#0000C01AA8000022
(1728485212.376417) vcan0 133#0000000089
(1728485212.378068) vcan0 136#000200000000000C
(1728485212.378076) vcan0 13A#000000000000000A
(1728485212.378078) vcan0 13F#0000000500000000
(1728485212.378080) vcan0 17C#0000000010000003
(1728485212.378083) vcan0 18E#00004D
(1728485212.378085) vcan0 1CF#80050000000F
(1728485212.378087) vcan0 1DC#0200000C
(1728485212.379190) vcan0 183#0000000E0000100D
(1728485212.380436) vcan0 143#6B6B00C2
(1728485212.381830) vcan0 244#0000000107
(1728485212.382797) vcan0 095#800007F400000035
(1728485212.382805) vcan0 1A4#000000080000002F
(1728485212.382808) vcan0 1AA#7FFF000000006720
(1728485212.382810) vcan0 1B0#000F0000000166
(1728485212.383822) vcan0 1D0#000000000000000A
(1728485212.384837) vcan0 166#D0320009
(1728485212.385856) vcan0 158#000000000000000A
(1728485212.385862) vcan0 161#000005500108000D
(1728485212.387138) vcan0 191#010010A1410038
(1728485212.387148) vcan0 133#0000000098
(1728485212.387150) vcan0 136#000200000000001B
(1728485212.387153) vcan0 13A#0000000000000019
(1728485212.387155) vcan0 13F#000000050000001F
(1728485212.387157) vcan0 164#0000C01AA8000031
(1728485212.388282) vcan0 17C#0000000010000012
(1728485212.388288) vcan0 18E#00005C
(1728485212.388291) vcan0 309#0000000000000084
(1728485212.388293) vcan0 428#01040000521C2F
(1728485212.389802) vcan0 405#0000040000000029
(1728485212.389812) vcan0 039#002A
(1728485212.389815) vcan0 183#0000001200001017
(1728485212.389817) vcan0 143#6B6B00D1
(1728485212.393477) vcan0 244#00000001AB
(1728485212.393707) vcan0 095#800007F400000008
(1728485212.395411) vcan0 166#D0320018
(1728485212.396431) vcan0 158#0000000000000019
(1728485212.396440) vcan0 161#000005500108001C
(1728485212.396442) vcan0 191#010010A141000B
(1728485212.396445) vcan0 164#0000C01AA8000004
(1728485212.396447) vcan0 133#00000000A7
(1728485212.398306) vcan0 136#000200000000002A
(1728485212.398315) vcan0 13A#0000000000000028
(1728485212.398317) vcan0 13F#000000050000002E
(1728485212.398319) vcan0 17C#0000000010000021
(1728485212.398322) vcan0 18E#00006B
(1728485212.398330) vcan0 1CF#80050000001E
(1728485212.398335) vcan0 1DC#0200001B
(1728485212.400176) vcan0 183#0000000D0000102C
(1728485212.400183) vcan0 143#6B6B00E0
(1728485212.402250) vcan0 095#800007F400000017
(1728485212.402260) vcan0 039#0039
(1728485212.403302) vcan0 1A4#000000080000003E
(1728485212.403309) vcan0 1AA#7FFF00000000683E
(1728485212.403311) vcan0 1B0#000F0000000175
(1728485212.403314) vcan0 1D0#000000000000000A
(1728485212.404582) vcan0 166#D0320027
(1728485212.407093) vcan0 158#0000000000000028
(1728485212.407103) vcan0 161#000005500108002B
(1728485212.407105) vcan0 191#010010A141001A
(1728485212.407108) vcan0 133#00000000B6
(1728485212.407110) vcan0 136#0002000000000039
(1728485212.407112) vcan0 13A#0000000000000037
(1728485212.407115) vcan0 13F#000000050000003D
(1728485212.407117) vcan0 164#0000C01AA8000013
(1728485212.408132) vcan0 17C#0000000010000030
(1728485212.408143) vcan0 18E#00007A
(1728485212.408147) vcan0 294#040B0002CF5A003B
(1728485212.408150) vcan0 21E#03E8374522063E
(1728485212.409995) vcan0 183#000000090000103F
(1728485212.410001) vcan0 143#6B6B00FF
(1728485212.410047) vcan0 244#00000001C7
(1728485212.413273) vcan0 095#800007F400000026
(1728485212.414671) vcan0 166#D0320036
(1728485212.416819) vcan0 158#0000000000000037
(1728485212.416830) vcan0 161#000005500108003A
(1728485212.416832) vcan0 191#010010A1410029
(1728485212.416835) vcan0 164#0000C01AA8000022
(1728485212.416837) vcan0 133#0000000089
(1728485212.416839) vcan0 136#000200000000000C
(1728485212.416842) vcan0 13A#000000000000000A
(1728485212.417850) vcan0 13F#0000000500000000
(1728485212.417858) vcan0 17C#0000000010000003
(1728485212.417860) vcan0 18E#00004D
(1728485212.417862) vcan0 039#000C
(1728485212.417864) vcan0 1CF#80050000002D
(1728485212.419744) vcan0 1DC#0200002A
(1728485212.419753) vcan0 183#0000000E0000100D
(1728485212.419755) vcan0 143#6B6B00C2
(1728485212.421814) vcan0 244#0000000100
(1728485212.421912) vcan0 095#800007F400000035
(1728485212.422929) vcan0 1A4#0000000800000001
(1728485212.422940) vcan0 1AA#7FFF000000006801
(1728485212.422943) vcan0 1B0#000F0000000148
(1728485212.422945) vcan0 1D0#000000000000000A
(1728485212.424589) vcan0 166#D0320009
(1728485212.425615) vcan0 305#8008
(1728485212.425622) vcan0 158#000000000000000A
(1728485212.427536) vcan0 161#000005500108000D
(1728485212.427548) vcan0 191#010010A1410038
(1728485212.427551) vcan0 133#0000000098
(1728485212.427553) vcan0 136#000200000000001B
(1728485212.427555) vcan0 13A#0000000000000019
(1728485212.427557) vcan0 13F#000000050000001F
(1728485212.427560) vcan0 164#0000C01AA8000031
(1728485212.427562) vcan0 17C#0000000010000012
(1728485212.427565) vcan0 18E#00005C
(1728485212.430452) vcan0 183#0000000A00001010
(1728485212.430467) vcan0 143#6B6B00D1
(1728485212.433437) vcan0 244#00000001C9
(1728485212.433453) vcan0 095#800007F400000008
(1728485212.433460) vcan0 039#001B
(1728485212.435320) vcan0 166#D0320018
