(1728485336.889944) vcan0 166#D0320018
(1728485336.889959) vcan0 158#0000000000000019
(1728485336.889961) vcan0 161#000005500108001C
(1728485336.889964) vcan0 191#010010A141000B
(1728485336.889966) vcan0 039#002A
(1728485336.891015) vcan0 133#00000000A7
(1728485336.891045) vcan0 136#000200000000002A
(1728485336.891047) vcan0 13A#0000000000000028
(1728485336.891050) vcan0 13F#000000050000002E
(1728485336.892745) vcan0 164#0000C01AA8000004
(1728485336.892754) vcan0 17C#0000000010000021
(1728485336.892756) vcan0 18E#00006B
(1728485336.892758) vcan0 1CF#80050000003C
(1728485336.892760) vcan0 1DC#02000039
(1728485336.892762) vcan0 183#0000000900001020
(1728485336.893791) vcan0 244#00000001E5
(1728485336.894033) vcan0 143#6B6B00E0
(1728485336.896633) vcan0 095#800007F400000017
(1728485336.896641) vcan0 1A4#0000000800000010
(1728485336.896643) vcan0 1AA#7FFF000000006711
(1728485336.896645) vcan0 1B0#000F0000000157
(1728485336.898586) vcan0 1D0#000000000000000A
(1728485336.898591) vcan0 166#D0320027
(1728485336.899652) vcan0 158#0000000000000028
(1728485336.899664) vcan0 161#000005500108002B
(1728485336.901282) vcan0 191#010010A141001A
(1728485336.901294) vcan0 133#00000000B6
(1728485336.901296) vcan0 136#0002000000000039
(1728485336.901299) vcan0 13A#0000000000000037
(1728485336.901301) vcan0 13F#000000050000003D
(1728485336.901303) vcan0 164#0000C01AA8000013
(1728485336.901306) vcan0 17C#0000000010000030
(1728485336.902418) vcan0 18E#00007A
(1728485336.902428) vcan0 294#040B0002CF5A002C
(1728485336.902430) vcan0 21E#03E8374522062F
(1728485336.903511) vcan0 183#0000000E0000103A
(1728485336.903521) vcan0 143#6B6B00FF
(1728485336.905417) vcan0 244#00000001D8
(1728485336.905708) vcan0 095#800007F400000026
(1728485336.906790) vcan0 5A1#960000000000623E
(1728485336.909289) vcan0 166#D0320036
(1728485336.911188) vcan0 158#0000000000000037
(1728485336.911196) vcan0 161#000005500108003A
(1728485336.911198) vcan0 191#010010A1410029
(1728485336.911202) vcan0 133#0000000089
(1728485336.911204) vcan0 039#0039
(1728485336.911206) vcan0 136#000200000000000C
(1728485336.911209) vcan0 13A#000000000000000A
(1728485336.911211) vcan0 13F#0000000500000000
(1728485336.911215) vcan0 164#0000C01AA8000022
(1728485336.913240) vcan0 17C#0000000010000003
(1728485336.913246) vcan0 18E#00004D
(1728485336.913249) vcan0 1CF#80050000000F
(1728485336.913251) vcan0 1DC#0200000C
(1728485336.913253) vcan0 183#0000000A00001001
(1728485336.915174) vcan0 143#6B6B00C2
(1728485336.917089) vcan0 244#000000011D
(1728485336.917245) vcan0 095#800007F400000035
(1728485336.917257) vcan0 1A4#000000080000002F
(1728485336.917259) vcan0 1AA#7FFF000000006720
(1728485336.917261) vcan0 1B0#000F0000000166
(1728485336.917264) vcan0 1D0#000000000000000A
(1728485336.919019) vcan0 166#D0320009
(1728485336.921042) vcan0 158#000000000000000A
(1728485336.921052) vcan0 161#000005500108000D
(1728485336.921055) vcan0 191#010010A1410038
(1728485336.921057) vcan0 133#0000000098
(1728485336.921059) vcan0 136#000200000000001B
(1728485336.921061) vcan0 13A#0000000000000019
(1728485336.921063) vcan0 13F#000000050000001F
(1728485336.921066) vcan0 164#0000C01AA8000031
(1728485336.922992) vcan0 17C#0000000010000012
(1728485336.923003) vcan0 18E#00005C
(1728485336.924971) vcan0 183#0000000700001013
(1728485336.924995) vcan0 143#6B6B00D1
(1728485336.924998) vcan0 039#000C
(1728485336.926141) vcan0 095#800007F400000008
(1728485336.928737) vcan0 244#0000000128
(1728485336.928846) vcan0 166#D0320018
(1728485336.930783) vcan0 158#0000000000000019
(1728485336.930794) vcan0 161#000005500108001C
(1728485336.930796) vcan0 191#010010A141000B
(1728485336.930798) vcan0 133#00000000A7
(1728485336.930800) vcan0 136#000200000000002A
(1728485336.930803) vcan0 13A#0000000000000028
(1728485336.930805) vcan0 13F#000000050000002E
(1728485336.933655) vcan0 164#0000C01AA8000004
(1728485336.933665) vcan0 17C#0000000010000021
(1728485336.933668) vcan0 18E#00006B
(1728485336.933670) vcan0 1CF#80050000001E
(1728485336.933672) vcan0 1DC#0200001B
(1728485336.933674) vcan0 183#0000000500001024
(1728485336.933676) vcan0 143#6B6B00E0
(1728485336.935511) vcan0 333#0000000000002D
(1728485336.937581) vcan0 095#800007F400000017
(1728485336.937593) vcan0 1A4#000000080000003E
(1728485336.937595) vcan0 1AA#7FFF00000000683E
(1728485336.937598) vcan0 1B0#000F0000000175
(1728485336.937601) vcan0 1D0#000000000000000A
(1728485336.939491) vcan0 039#001B
(1728485336.939503) vcan0 166#D0320027
(1728485336.939506) vcan0 158#0000000000000028
(1728485336.940523) vcan0 244#000000015B
(1728485336.940928) vcan0 161#000005500108002B
(1728485336.940934) vcan0 191#010010A141001A
(1728485336.940937) vcan0 133#00000000B6
(1728485336.940939) vcan0 136#0002000000000039
(1728485336.940941) vcan0 13A#0000000000000037
(1728485336.940943) vcan0 13F#000000050000003D
(1728485336.942071) vcan0 164#0000C01AA8000013
(1728485336.942092) vcan0 17C#0000000010000030
(1728485336.942095) vcan0 18E#00007A
(1728485336.942097) vcan0 294#040B0002CF5A003B
(1728485336.942100) vcan0 21E#03E8374522063E
(1728485336.943424) vcan0 183#0000000300001035
(1728485336.943438) vcan0 143#6B6B00FF
(1728485336.945274) vcan0 305#8026
(1728485336.947315) vcan0 095#800007F400000026
(1728485336.949186) vcan0 166#D0320036
(1728485336.951114) vcan0 158#0000000000000037
(1728485336.951128) vcan0 161#000005500108003A
(1728485336.951131) vcan0 191#010010A1410029
(1728485336.951133) vcan0 133#0000000089
(1728485336.951135) vcan0 136#000200000000000C
(1728485336.951137) vcan0 13A#000000000000000A
(1728485336.951139) vcan0 13F#0000000500000000
(1728485336.951142) vcan0 164#0000C01AA8000022
(1728485336.951144) vcan0 039#002A
(1728485336.952128) vcan0 244#000000013E
(1728485336.952811) vcan0 17C#0000000010000003
(1728485336.952816) vcan0 18E#00004D
(1728485336.952819) vcan0 1CF#80050000002D
(1728485336.952821) vcan0 1DC#0200002A
(1728485336.952823) vcan0 320#000021
(1728485336.952825) vcan0 324#7465000000000E29
(1728485336.952827) vcan0 37C#FD00FD00097F0029
(1728485336.952829) vcan0 183#0000000A00001001
(1728485336.954098) vcan0 143#6B6B00C2
(1728485336.956135) vcan0 095#800007F400000035
(1728485336.956148) vcan0 1A4#0000000800000001
(1728485336.957197) vcan0 1AA#7FFF000000006801
(1728485336.957209) vcan0 1B0#000F0000000148
(1728485336.957211) vcan0 1D0#000000000000000A
(1728485336.958916) vcan0 166#D0320009
(1728485336.960843) vcan0 158#000000000000000A
(1728485336.960850) vcan0 161#000005500108000D
(1728485336.960852) vcan0 191#010010A1410038
(1728485336.960854) vcan0 133#0000000098
(1728485336.960857) vcan0 136#000200000000001B
(1728485336.960859) vcan0 13A#0000000000000019
(1728485336.960861) vcan0 13F#000000050000001F
(1728485336.962856) vcan0 164#0000C01AA8000031
(1728485336.962866) vcan0 17C#0000000010000012
(1728485336.962869) vcan0 18E#00005C
(1728485336.964742) vcan0 183#0000000700001013
(1728485336.964751) vcan0 143#6B6B00D1
(1728485336.965810) vcan0 095#800007F400000008
(1728485336.968635) vcan0 244#000000017A
(1728485336.968644) vcan0 166#D0320018
(1728485336.970575) vcan0 158#0000000000000019
(1728485336.970586) vcan0 161#000005500108001C
(1728485336.970588) vcan0 191#010010A141000B
(1728485336.970590) vcan0 133#00000000A7
(1728485336.970592) vcan0 136#000200000000002A
(1728485336.970594) vcan0 13A#0000000000000028
(1728485336.972517) vcan0 13F#000000050000002E
(1728485336.972525) vcan0 164#0000C01AA8000004
(1728485336.972527) vcan0 039#0039
(1728485336.972529) vcan0 17C#0000000010000021
(1728485336.972531) vcan0 18E#00006B
(1728485336.972534) vcan0 1CF#80050000003C
(1728485336.972536) vcan0 1DC#02000039
(1728485336.974479) vcan0 183#0000000500001024
(1728485336.974487) vcan0 143#6B6B00E0
(1728485336.977359) vcan0 095#800007F400000017
(1728485336.977373) vcan0 1A4#0000000800000010
(1728485336.977375) vcan0 1AA#7FFF000000006711
(1728485336.977378) vcan0 1B0#000F0000000157
(1728485336.977380) vcan0 1D0#000000000000000A
(1728485336.979416) vcan0 166#D0320027
(1728485336.979427) vcan0 158#0000000000000028
(1728485336.979964) vcan0 244#00000001A8
(1728485336.980528) vcan0 161#000005500108002B
(1728485336.980534) vcan0 191#010010A141001A
(1728485336.980545) vcan0 133#00000000B6
(1728485336.980548) vcan0 136#0002000000000039
(1728485336.980550) vcan0 13A#0000000000000037
(1728485336.981850) vcan0 13F#000000050000003D
(1728485336.981858) vcan0 164#0000C01AA8000013
(1728485336.981860) vcan0 17C#0000000010000030
(1728485336.981862) vcan0 18E#00007A
(1728485336.981864) vcan0 294#040B0002CF5A000E
(1728485336.982874) vcan0 21E#03E83745220601
(1728485336.982880) vcan0 309#00000000000000B1
(1728485336.984772) vcan0 183#0000000B0000103D
(1728485336.984781) vcan0 143#6B6B00FF
(1728485336.987644) vcan0 039#000C
(1728485336.987655) vcan0 095#800007F400000026
(1728485336.988711) vcan0 166#D0320036
(1728485336.989846) vcan0 158#0000000000000037
(1728485336.989857) vcan0 161#000005500108003A
(1728485336.989859) vcan0 191#010010A1410029
(1728485336.990893) vcan0 244#00000001D1
(1728485336.990910) vcan0 133#0000000089
(1728485336.990916) vcan0 136#000200000000000C
(1728485336.990919) vcan0 13A#000000000000000A
(1728485336.990921) vcan0 13F#0000000500000000
(1728485336.992518) vcan0 164#0000C01AA8000022
(1728485336.992527) vcan0 17C#0000000010000003
(1728485336.992530) vcan0 18E#00004D
(1728485336.992532) vcan0 1CF#80050000000F
(1728485336.992534) vcan0 1DC#0200000C
(1728485336.994486) vcan0 183#0000000800001003
(1728485336.994499) vcan0 143#6B6B00C2
(1728485336.996555) vcan0 095#800007F400000035
(1728485336.996567) vcan0 1A4#000000080000002F
(1728485336.996570) vcan0 1AA#7FFF000000006720
(1728485336.996572) vcan0 1B0#000F0000000166
(1728485336.998388) vcan0 1D0#000000000000000A
(1728485336.998396) vcan0 166#D0320009
(1728485337.000419) vcan0 039#001B
(1728485337.000431) vcan0 158#000000000000000A
(1728485337.000433) vcan0 161#000005500108000D
(1728485337.000436) vcan0 191#010010A1410038
(1728485337.000438) vcan0 133#0000000098
(1728485337.000440) vcan0 136#000200000000001B
(1728485337.002275) vcan0 244#0000000153
(1728485337.002286) vcan0 13A#0000000000000019
(1728485337.002289) vcan0 13F#000000050000001F
(1728485337.002291) vcan0 164#0000C01AA8000031
(1728485337.002293) vcan0 17C#0000000010000012
(1728485337.002295) vcan0 18E#00005C
(1728485337.003372) vcan0 183#0000000600001014
(1728485337.003380) vcan0 143#6B6B00D1
(1728485337.007535) vcan0 095#800007F400000008
(1728485337.009063) vcan0 166#D0320018
(1728485337.010078) vcan0 158#0000000000000019
(1728485337.010084) vcan0 161#000005500108001C
(1728485337.010087) vcan0 191#010010A141000B
(1728485337.010089) vcan0 133#00000000A7
(1728485337.011249) vcan0 136#000200000000002A
(1728485337.011260) vcan0 13A#0000000000000028
(1728485337.011262) vcan0 13F#000000050000002E
(1728485337.011265) vcan0 164#0000C01AA8000004
(1728485337.011267) vcan0 17C#0000000010000021
(1728485337.012275) vcan0 18E#00006B
(1728485337.012282) vcan0 1CF#80050000001E
(1728485337.012285) vcan0 1DC#0200001B
(1728485337.013203) vcan0 244#000000019E
(1728485337.013306) vcan0 183#0000000C0000102D
(1728485337.015081) vcan0 143#6B6B00E0
(1728485337.015089) vcan0 039#002A
(1728485337.016958) vcan0 095#800007F400000017
(1728485337.016966) vcan0 1A4#000000080000003E
(1728485337.016969) vcan0 1AA#7FFF00000000683E
(1728485337.016971) vcan0 1B0#000F0000000175
(1728485337.016973) vcan0 1D0#000000000000000A
(1728485337.018871) vcan0 166#D0320027
(1728485337.019886) vcan0 158#0000000000000028
(1728485337.019893) vcan0 161#000005500108002B
(1728485337.019896) vcan0 191#010010A141001A
(1728485337.021805) vcan0 133#00000000B6
(1728485337.021814) vcan0 136#0002000000000039
(1728485337.021816) vcan0 13A#0000000000000037
(1728485337.021818) vcan0 13F#000000050000003D
(1728485337.021821) vcan0 164#0000C01AA8000013
(1728485337.021823) vcan0 17C#0000000010000030
(1728485337.021825) vcan0 18E#00007A
(1728485337.021827) vcan0 294#040B0002CF5A001D
(1728485337.022840) vcan0 21E#03E83745220610
(1728485337.023996) vcan0 183#000000090000103F
(1728485337.024022) vcan0 143#6B6B00FF
(1728485337.024114) vcan0 244#00000001FF
(1728485337.026795) vcan0 095#800007F400000026
(1728485337.028819) vcan0 166#D0320036
(1728485337.030558) vcan0 158#0000000000000037
(1728485337.030567) vcan0 161#000005500108003A
(1728485337.030569) vcan0 191#010010A1410029
(1728485337.030572) vcan0 133#0000000089
(1728485337.030574) vcan0 136#000200000000000C
(1728485337.030578) vcan0 13A#000000000000000A
(1728485337.031594) vcan0 13F#0000000500000000
(1728485337.031601) vcan0 164#0000C01AA8000022
(1728485337.031604) vcan0 17C#0000000010000003
(1728485337.031606) vcan0 18E#00004D
(1728485337.031608) vcan0 1CF#80050000002D
(1728485337.033513) vcan0 1DC#0200002A
(1728485337.033522) vcan0 183#0000000E0000100D
(1728485337.033524) vcan0 143#6B6B00C2
(1728485337.034534) vcan0 039#0039
(1728485337.034542) vcan0 333#0000000000003C
(1728485337.035447) vcan0 244#000000013F
(1728485337.036024) vcan0 095#800007F400000035
(1728485337.036033) vcan0 1A4#0000000800000001
(1728485337.037372) vcan0 1AA#7FFF000000006801
(1728485337.037381) vcan0 1B0#000F0000000148
(1728485337.037383) vcan0 1D0#000000000000000A
(1728485337.038397) vcan0 166#D0320009
(1728485337.040283) vcan0 158#000000000000000A
(1728485337.040291) vcan0 161#000005500108000D
(1728485337.040293) vcan0 191#010010A1410038
(1728485337.040295) vcan0 133#0000000098
(1728485337.040297) vcan0 136#000200000000001B
(1728485337.041318) vcan0 13A#0000000000000019
(1728485337.041330) vcan0 13F#000000050000001F
(1728485337.041332) vcan0 164#0000C01AA8000031
(1728485337.041335) vcan0 17C#0000000010000012
(1728485337.043214) vcan0 18E#00005C
(1728485337.044228) vcan0 183#0000000A00001010
(1728485337.044234) vcan0 143#6B6B00D1
(1728485337.046720) vcan0 095#800007F400000008
(1728485337.046733) vcan0 244#000000011B
(1728485337.047739) vcan0 305#8035
(1728485337.049036) vcan0 166#D0320018
(1728485337.050055) vcan0 158#0000000000000019
(1728485337.050062) vcan0 161#000005500108001C
(1728485337.050065) vcan0 191#010090A1410003
(1728485337.050067) vcan0 133#00000000A7
(1728485337.051078) vcan0 136#000200000000002A
(1728485337.051085) vcan0 13A#0000000000000028
(1728485337.051087) vcan0 13F#000000050000002E
(1728485337.051089) vcan0 164#0000C01AA8000004
(1728485337.051994) vcan0 188#00000000
(1728485337.052096) vcan0 17C#0000000010000021
(1728485337.052101) vcan0 18E#00006B
(1728485337.052103) vcan0 1CF#80050000003C
(1728485337.052106) vcan0 1DC#02000039
(1728485337.052108) vcan0 320#000030
(1728485337.053121) vcan0 324#7465000000000E38
(1728485337.053130) vcan0 37C#FD00FD00097F0038
(1728485337.053132) vcan0 183#0000000F0000102A
(1728485337.054867) vcan0 143#6B6B00E0
(1728485337.054874) vcan0 039#000C
(1728485337.055883) vcan0 095#800007F400000017
(1728485337.056908) vcan0 1A4#0000000800000010
(1728485337.056918) vcan0 1AA#7FFF000000006711
(1728485337.056920) vcan0 1B0#000F0000000157
(1728485337.056922) vcan0 1D0#000000000000000A
(1728485337.057154) vcan0 244#0000000115
(1728485337.059037) vcan0 166#D0320027
(1728485337.060060) vcan0 158#0000000000000028
(1728485337.060067) vcan0 161#000005500108002B
(1728485337.060070) vcan0 191#010090A1410012
(1728485337.060072) vcan0 133#00000000B6
(1728485337.061686) vcan0 136#0002000000000039
(1728485337.061693) vcan0 13A#0000000000000037
(1728485337.061695) vcan0 13F#000000050000003D
(1728485337.061698) vcan0 164#0000C01AA8000013
(1728485337.061700) vcan0 17C#0000000010000030
(1728485337.061702) vcan0 18E#00007A
(1728485337.061704) vcan0 294#040B0002CF5A002C
(1728485337.062716) vcan0 21E#03E8374522062F
(1728485337.063732) vcan0 183#0000001300001034
(1728485337.063739) vcan0 143#6B6B00FF
(1728485337.066597) vcan0 095#800007F400000026
(1728485337.068525) vcan0 244#0000000182
(1728485337.068625) vcan0 166#D0320036
(1728485337.069644) vcan0 039#001B
(1728485337.069654) vcan0 158#0000000000000037
(1728485337.069658) vcan0 161#000005500108003A
(1728485337.071439) vcan0 191#010090A1410021
(1728485337.071446) vcan0 133#0000000089
(1728485337.071448) vcan0 136#000200000000000C
(1728485337.071451) vcan0 13A#000000000000000A
(1728485337.071454) vcan0 13F#0000000500000000
(1728485337.071456) vcan0 164#0000C01AA8000022
(1728485337.071459) vcan0 17C#0000000010000003
(1728485337.071461) vcan0 18E#00004D
(1728485337.072470) vcan0 1CF#80050000000F
(1728485337.072477) vcan0 1DC#0200000C
(1728485337.074328) vcan0 183#0000000E0000100D
(1728485337.074335) vcan0 143#6B6B00C2
(1728485337.077254) vcan0 095#800007F400000035
(1728485337.077267) vcan0 1A4#000000080000002F
(1728485337.077269) vcan0 1AA#7FFF000000006720
(1728485337.077273) vcan0 1B0#000F0000000166
(1728485337.077275) vcan0 1D0#000000000000000A
(1728485337.078284) vcan0 166#D0320009
(1728485337.079906) vcan0 244#000000012C
(1728485337.080518) vcan0 158#000000000000000A
(1728485337.080527) vcan0 161#000005500108000D
(1728485337.080530) vcan0 191#010090A1410030
(1728485337.080533) vcan0 133#0000000098
(1728485337.080535) vcan0 136#000200000000001B
(1728485337.080537) vcan0 13A#0000000000000019
(1728485337.081863) vcan0 13F#000000050000001F
(1728485337.081871) vcan0 164#0000C01AA8000031
(1728485337.081873) vcan0 17C#0000000010000012
(1728485337.081875) vcan0 18E#00005C
(1728485337.081878) vcan0 309#0000000000000084
(1728485337.082891) vcan0 039#002A
(1728485337.083906) vcan0 183#0000000A00001010
(1728485337.083912) vcan0 143#6B6B00D1
(1728485337.085927) vcan0 095#800007F400000008
(1728485337.089630) vcan0 166#D0320018
(1728485337.089639) vcan0 158#0000000000000019
(1728485337.089641) vcan0 161#000005500108001C
(1728485337.089996) vcan0 244#0000000113
(1728485337.090690) vcan0 191#010090A1410003
(1728485337.090709) vcan0 133#00000000A7
(1728485337.090712) vcan0 136#000200000000002A
(1728485337.090715) vcan0 13A#0000000000000028
(1728485337.091728) vcan0 13F#000000050000002E
(1728485337.091737) vcan0 164#0000C01AA8000004
(1728485337.091740) vcan0 17C#0000000010000021
(1728485337.091742) vcan0 18E#00006B
(1728485337.091744) vcan0 1CF#80050000001E
(1728485337.092757) vcan0 1DC#0200001B
(1728485337.094476) vcan0 183#0000000700001022
(1728485337.094484) vcan0 143#6B6B00E0
(1728485337.097396) vcan0 095#800007F400000017
(1728485337.097405) vcan0 1A4#000000080000003E
(1728485337.097407) vcan0 1AA#7FFF00000000683E
(1728485337.097415) vcan0 039#0039
(1728485337.097418) vcan0 1B0#000F0000000175
(1728485337.097420) vcan0 1D0#000000000000000A
(1728485337.098432) vcan0 166#D0320027
(1728485337.099448) vcan0 158#0000000000000028
(1728485337.101283) vcan0 161#000005500108002B
(1728485337.101290) vcan0 191#010090A1410012
(1728485337.101293) vcan0 133#00000000B6
(1728485337.101295) vcan0 136#0002000000000039
(1728485337.101297) vcan0 13A#0000000000000037
(1728485337.101299) vcan0 13F#000000050000003D
(1728485337.101302) vcan0 164#0000C01AA8000013
(1728485337.101304) vcan0 17C#0000000010000030
(1728485337.102319) vcan0 18E#00007A
(1728485337.102327) vcan0 294#040B0002CF5A003B
(1728485337.102330) vcan0 21E#03E8374522063E
(1728485337.103339) vcan0 183#0000000D0000103B
(1728485337.104356) vcan0 143#6B6B00FF
(1728485337.106188) vcan0 244#0000000198
(1728485337.106350) vcan0 095#800007F400000026
(1728485337.108406) vcan0 166#D0320036
(1728485337.110016) vcan0 158#0000000000000037
(1728485337.110024) vcan0 161#000005500108003A
(1728485337.110027) vcan0 191#010090A1410021
(1728485337.110029) vcan0 133#0000000089
(1728485337.112004) vcan0 136#000200000000000C
(1728485337.112013) vcan0 13A#000000000000000A
(1728485337.112015) vcan0 13F#0000000500000000
(1728485337.112018) vcan0 039#000C
(1728485337.112020) vcan0 164#0000C01AA8000022
(1728485337.112023) vcan0 17C#0000000010000003
(1728485337.112025) vcan0 18E#00004D
(1728485337.112027) vcan0 1CF#80050000002D
(1728485337.112029) vcan0 1DC#0200002A
(1728485337.113087) vcan0 183#0000001100001009
(1728485337.114104) vcan0 143#6B6B00C2
(1728485337.116861) vcan0 095#800007F400000035
(1728485337.116867) vcan0 1A4#0000000800000001
(1728485337.116870) vcan0 1AA#7FFF000000006801
(1728485337.116872) vcan0 1B0#000F0000000148
(1728485337.116874) vcan0 1D0#000000000000000A
(1728485337.118829) vcan0 244#0000000101
(1728485337.119301) vcan0 166#D0320009
(1728485337.120745) vcan0 158#000000000000000A
(1728485337.120753) vcan0 161#000005500108000D
(1728485337.120755) vcan0 191#010090A1410030
(1728485337.120757) vcan0 133#0000000098
(1728485337.120760) vcan0 136#000200000000001B
(1728485337.120762) vcan0 13A#0000000000000019
(1728485337.120764) vcan0 13F#000000050000001F
(1728485337.121778) vcan0 164#0000C01AA8000031
(1728485337.121784) vcan0 17C#0000000010000012
(1728485337.121786) vcan0 18E#00005C
(1728485337.123724) vcan0 183#0000000C0000101E
(1728485337.123734) vcan0 143#6B6B00D1
(1728485337.124777) vcan0 039#001B
(1728485337.125791) vcan0 095#800007F400000008
(1728485337.129553) vcan0 166#D0320018
(1728485337.129555) vcan0 244#0000000146
(1728485337.129559) vcan0 158#0000000000000019
(1728485337.130585) vcan0 161#000005500108001C
(1728485337.130593) vcan0 191#010090A1410003
(1728485337.130596) vcan0 133#00000000A7
(1728485337.130599) vcan0 136#000200000000002A
(1728485337.130601) vcan0 13A#0000000000000028
(1728485337.131708) vcan0 13F#000000050000002E
(1728485337.131713) vcan0 164#0000C01AA8000004
(1728485337.131716) vcan0 17C#0000000010000021
(1728485337.131718) vcan0 18E#00006B
(1728485337.131720) vcan0 1CF#80050000003C
(1728485337.132732) vcan0 1DC#02000039
(1728485337.133757) vcan0 183#0000001000001028
(1728485337.133770) vcan0 143#6B6B00E0
(1728485337.135532) vcan0 333#0000000000000F
(1728485337.137451) vcan0 095#800007F400000017
(1728485337.137461) vcan0 1A4#0000000800000010
(1728485337.137464) vcan0 1AA#7FFF000000006711
(1728485337.137466) vcan0 1B0#000F0000000157
(1728485337.137468) vcan0 1D0#000000000000000A
(1728485337.139346) vcan0 039#002A
(1728485337.139355) vcan0 166#D0320027
(1728485337.140440) vcan0 244#00000001C8
(1728485337.140453) vcan0 158#0000000000000028
(1728485337.140457) vcan0 161#000005500108002B
(1728485337.140460) vcan0 191#010090A1410012
(1728485337.140464) vcan0 133#00000000B6
(1728485337.140467) vcan0 136#0002000000000039
(1728485337.142262) vcan0 13A#0000000000000037
(1728485337.142273) vcan0 13F#000000050000003D
(1728485337.142275) vcan0 164#0000C01AA8000013
(1728485337.142278) vcan0 17C#0000000010000030
(1728485337.142280) vcan0 18E#00007A
(1728485337.142282) vcan0 294#040B0002CF5A000E
(1728485337.142284) vcan0 21E#03E83745220601
(1728485337.144230) vcan0 183#0000000C0000103C
(1728485337.144237) vcan0 143#6B6B00FF
(1728485337.146194) vcan0 095#800007F400000026
(1728485337.149166) vcan0 166#D0320036
(1728485337.150294) vcan0 158#0000000000000037
(1728485337.150302) vcan0 161#000005500108003A
(1728485337.150304) vcan0 191#010090A1410021
(1728485337.150306) vcan0 133#0000000089
(1728485337.150309) vcan0 136#000200000000000C
(1728485337.152046) vcan0 244#0000000183
(1728485337.152103) vcan0 13A#000000000000000A
(1728485337.152113) vcan0 039#0039
(1728485337.152115) vcan0 13F#0000000500000000
(1728485337.152117) vcan0 164#0000C01AA8000022
(1728485337.152120) vcan0 17C#0000000010000003
(1728485337.152122) vcan0 18E#00004D
(1728485337.152124) vcan0 1CF#80050000000F
(1728485337.152128) vcan0 1DC#0200000C
(1728485337.152131) vcan0 305#8008
(1728485337.153973) vcan0 320#000003
(1728485337.153981) vcan0 324#7465000000000E0B
(1728485337.153983) vcan0 37C#FD00FD00097F000B
(1728485337.153985) vcan0 183#0000000900001002
(1728485337.153988) vcan0 40C#033133383439000D
(1728485337.153990) vcan0 454#23EF09
(1728485337.153992) vcan0 143#6B6B00C2
(1728485337.157064) vcan0 095#800007F400000035
(1728485337.157076) vcan0 1A4#000000080000002F
(1728485337.157079) vcan0 1AA#7FFF000000006720
(1728485337.157081) vcan0 1B0#000F0000000166
(1728485337.157084) vcan0 1D0#000000000000000A
(1728485337.158866) vcan0 166#D0320009
(1728485337.159902) vcan0 158#000000000000000A
(1728485337.159912) vcan0 161#000005500108000D
(1728485337.159914) vcan0 191#010090A1410030
(1728485337.161754) vcan0 133#0000000098
(1728485337.161761) vcan0 136#000200000000001B
(1728485337.161763) vcan0 13A#0000000000000019
(1728485337.161765) vcan0 13F#000000050000001F
(1728485337.161767) vcan0 164#0000C01AA8000031
(1728485337.161769) vcan0 17C#0000000010000012
(1728485337.161772) vcan0 18E#00005C
(1728485337.163700) vcan0 183#0000000E0000101C
(1728485337.163706) vcan0 143#6B6B00D1
(1728485337.164403) vcan0 244#0000000196
(1728485337.166056) vcan0 039#000C
(1728485337.166076) vcan0 095#800007F400000008
(1728485337.169536) vcan0 166#D0320018
(1728485337.169546) vcan0 158#0000000000000019
(1728485337.170591) vcan0 161#000005500108001C
(1728485337.170599) vcan0 191#010090A1410003
(1728485337.170602) vcan0 133#00000000A7
(1728485337.170604) vcan0 136#000200000000002A
(1728485337.170606) vcan0 13A#0000000000000028
(1728485337.172513) vcan0 13F#000000050000002E
(1728485337.172524) vcan0 164#0000C01AA8000004
(1728485337.172527) vcan0 17C#0000000010000021
(1728485337.172529) vcan0 18E#00006B
(1728485337.172531) vcan0 1CF#80050000001E
(1728485337.172534) vcan0 1DC#0200001B
(1728485337.174020) vcan0 183#0000000A0000102F
(1728485337.174091) vcan0 143#6B6B00E0
(1728485337.176361) vcan0 244#0000000142
(1728485337.176816) vcan0 095#800007F400000017
(1728485337.176825) vcan0 1A4#000000080000003E
(1728485337.176829) vcan0 1AA#7FFF00000000683E
(1728485337.176831) vcan0 1B0#000F0000000175
(1728485337.178275) vcan0 1D0#000000000000000A
(1728485337.178285) vcan0 166#D0320027
(1728485337.181193) vcan0 158#0000000000000028
(1728485337.181203) vcan0 161#000005500108002B
(1728485337.181205) vcan0 191#010090A1410012
(1728485337.181207) vcan0 133#00000000B6
(1728485337.181210) vcan0 136#0002000000000039
(1728485337.181212) vcan0 13A#0000000000000037
(1728485337.181214) vcan0 039#001B
(1728485337.181216) vcan0 13F#000000050000003D
(1728485337.181218) vcan0 164#0000C01AA8000013
(1728485337.183197) vcan0 17C#0000000010000030
(1728485337.183205) vcan0 18E#00007A
(1728485337.183208) vcan0 294#040B0002CF5A001D
(1728485337.183210) vcan0 21E#03E83745220610
(1728485337.183212) vcan0 309#0000000000000093
(1728485337.183214) vcan0 428#01040000521C10
(1728485337.183216) vcan0 405#000004000000001A
(1728485337.184233) vcan0 183#0000000700001031
(1728485337.184240) vcan0 143#6B6B00FF
(1728485337.186103) vcan0 095#800007F400000026
(1728485337.187112) vcan0 244#00000001F0
(1728485337.189078) vcan0 166#D0320036
(1728485337.190110) vcan0 158#0000000000000037
(1728485337.190120) vcan0 161#000005500108003A
(1728485337.190123) vcan0 191#010090A1410021
(1728485337.190127) vcan0 133#0000000089
(1728485337.191185) vcan0 136#000200000000000C
(1728485337.191197) vcan0 13A#000000000000000A
(1728485337.191199) vcan0 13F#0000000500000000
(1728485337.191201) vcan0 164#0000C01AA8000022
(1728485337.192974) vcan0 17C#0000000010000003
(1728485337.192986) vcan0 18E#00004D
(1728485337.192988) vcan0 1CF#80050000002D
(1728485337.192991) vcan0 1DC#0200002A
(1728485337.192993) vcan0 183#0000000D0000100E
(1728485337.194843) vcan0 143#6B6B00C2
(1728485337.195923) vcan0 039#002A
(1728485337.195929) vcan0 095#800007F400000035
(1728485337.197757) vcan0 1A4#0000000800000001
(1728485337.197763) vcan0 1AA#7FFF000000006801
(1728485337.197765) vcan0 1B0#000F0000000148
(1728485337.197767) vcan0 1D0#000000000000000A
(1728485337.198771) vcan0 244#0000000131
(1728485337.199017) vcan0 166#D0320009
(1728485337.200678) vcan0 158#000000000000000A
(1728485337.200687) vcan0 161#000005500108000D
(1728485337.200689) vcan0 191#010090A1410030
(1728485337.200691) vcan0 133#0000000098
(1728485337.200693) vcan0 136#000200000000001B
(1728485337.200696) vcan0 13A#0000000000000019
(1728485337.202635) vcan0 13F#000000050000001F
(1728485337.202641) vcan0 164#0000C01AA9000030
(1728485337.202644) vcan0 17C#0000000010000012
(1728485337.202646) vcan0 18E#00005C
(1728485337.203725) vcan0 183#0000000900001011
(1728485337.203736) vcan0 143#6B6B00D1
(1728485337.207591) vcan0 095#800007F400000008
(1728485337.209017) vcan0 166#D0320018
(1728485337.210513) vcan0 244#0000000185
(1728485337.210515) vcan0 158#0000000000000019
(1728485337.210533) vcan0 161#000005500108001C
(1728485337.210536) vcan0 191#010090A1410003
(1728485337.210538) vcan0 133#00000000A7
(1728485337.210540) vcan0 136#000200000000002A
(1728485337.210542) vcan0 13A#0000000000000028
(1728485337.212431) vcan0 13F#000000050000002E
(1728485337.212441) vcan0 164#0000C01AA8000004
(1728485337.212445) vcan0 17C#0000000010000021
(1728485337.212449) vcan0 18E#00006B
(1728485337.212451) vcan0 1CF#80050000003C
(1728485337.212454) vcan0 1DC#02000039
(1728485337.213485) vcan0 183#0000000E0000102B
(1728485337.213496) vcan0 143#6B6B00E0
(1728485337.214560) vcan0 039#0039
(1728485337.216334) vcan0 095#800007F400000017
(1728485337.216345) vcan0 1A4#0000000800000010
(1728485337.216347) vcan0 1AA#7FFF000000006711
(1728485337.217389) vcan0 1B0#000F0000000157
(1728485337.217399) vcan0 1D0#000000000000000A
(1728485337.218433) vcan0 166#D0320027
(1728485337.220212) vcan0 158#0000000000000028
(1728485337.220223) vcan0 161#000005500108002B
(1728485337.220225) vcan0 191#010090A1410012
(1728485337.220228) vcan0 133#00000000B6
(1728485337.222124) vcan0 136#0002000000000039
(1728485337.222135) vcan0 13A#0000000000000037
(1728485337.222137) vcan0 13F#000000050000003D
(1728485337.222137) vcan0 244#00000001A0
(1728485337.222140) vcan0 164#0000C01AA8000013
(1728485337.222142) vcan0 17C#0000000010000030
(1728485337.222144) vcan0 18E#00007A
(1728485337.222146) vcan0 294#040B0002CF5A002C
(1728485337.222149) vcan0 21E#03E8374522062F
(1728485337.224086) vcan0 183#0000000A0000103E
(1728485337.224100) vcan0 143#6B6B00FF
(1728485337.225983) vcan0 095#800007F400000026
(1728485337.227876) vcan0 039#000C
(1728485337.229016) vcan0 166#D0320036
(1728485337.230887) vcan0 158#0000000000000037
(1728485337.230897) vcan0 161#000005500108003A
(1728485337.230900) vcan0 191#010090A1410021
(1728485337.230902) vcan0 133#0000000089
(1728485337.230904) vcan0 136#000200000000000C
(1728485337.230907) vcan0 13A#000000000000000A
(1728485337.230909) vcan0 13F#0000000500000000
(1728485337.232850) vcan0 164#0000C01AA8000022
(1728485337.232860) vcan0 17C#0000000010000003
(1728485337.232863) vcan0 18E#00004D
(1728485337.232866) vcan0 1CF#80050000000F
(1728485337.232868) vcan0 1DC#0200000C
(1728485337.232870) vcan0 183#0000000700001004
(1728485337.233803) vcan0 244#0000000106
(1728485337.233898) vcan0 143#6B6B00C2
(1728485337.234925) vcan0 333#0000000000001E
(1728485337.236684) vcan0 095#800007F400000035
(1728485337.236691) vcan0 1A4#000000080000002F
(1728485337.236693) vcan0 1AA#7FFF000000006720
(1728485337.236695) vcan0 1B0#000F0000000166
(1728485337.238670) vcan0 1D0#000000000000000A
(1728485337.238681) vcan0 166#D0320009
(1728485337.240613) vcan0 158#000000000000000A
(1728485337.240629) vcan0 161#000005500108000D
(1728485337.240632) vcan0 191#010090A1410030
(1728485337.240636) vcan0 133#0000000098
(1728485337.240638) vcan0 136#000200000000001B
(1728485337.240640) vcan0 13A#0000000000000019
(1728485337.242486) vcan0 13F#000000050000001F
(1728485337.242495) vcan0 164#0000C01AA8000031
(1728485337.242497) vcan0 039#001B
(1728485337.242500) vcan0 17C#0000000010000012
(1728485337.242502) vcan0 18E#00005C
(1728485337.243536) vcan0 183#0000000D0000101D
(1728485337.243546) vcan0 143#6B6B00D1
(1728485337.244470) vcan0 244#0000000127
(1728485337.246395) vcan0 095#800007F400000008
(1728485337.249282) vcan0 166#D0320018
(1728485337.252262) vcan0 158#0000000000000019
(1728485337.252269) vcan0 161#000005500108001C
(1728485337.252272) vcan0 191#010090A1410003
(1728485337.252274) vcan0 133#00000000A7
(1728485337.252276) vcan0 136#000200000000002A
(1728485337.252279) vcan0 13A#0000000000000028
(1728485337.252282) vcan0 13F#000000050000002E
(1728485337.252284) vcan0 164#0000C01AA8000004
(1728485337.252286) vcan0 17C#0000000010000021
(1728485337.252288) vcan0 18E#00006B
(1728485337.252291) vcan0 1CF#80050000001E
(1728485337.252294) vcan0 1DC#0200001B
(1728485337.252296) vcan0 320#000012
(1728485337.252298) vcan0 324#7465000000000E1A
(1728485337.254184) vcan0 37C#FD00FD00097F001A
(1728485337.254190) vcan0 183#0000000900001020
(1728485337.254193) vcan0 143#6B6B00E0
(1728485337.254195) vcan0 039#002A
(1728485337.255211) vcan0 305#8017
(1728485337.256092) vcan0 244#00000001A1
(1728485337.256726) vcan0 095#800007F400000017
(1728485337.256738) vcan0 1A4#000000080000003E
(1728485337.256740) vcan0 1AA#7FFF00000000683E
(1728485337.256742) vcan0 1B0#000F0000000175
(1728485337.258147) vcan0 1D0#000000000000000A
(1728485337.258160) vcan0 166#D0320027
(1728485337.260034) vcan0 158#0000000000000028
(1728485337.260042) vcan0 161#000005500108002B
(1728485337.260044) vcan0 191#010090A1410012
(1728485337.260046) vcan0 133#00000000B6
(1728485337.262068) vcan0 136#0002000000000039
(1728485337.262079) vcan0 13A#0000000000000037
(1728485337.262088) vcan0 13F#000000050000003D
(1728485337.262094) vcan0 164#0000C01AA8000013
(1728485337.262097) vcan0 17C#0000000010000030
(1728485337.262099) vcan0 18E#00007A
(1728485337.262101) vcan0 294#040B0002CF5A003B
(1728485337.262103) vcan0 21E#03E8374522063E
(1728485337.263989) vcan0 183#0000000E0000103A
(1728485337.264001) vcan0 143#6B6B00FF
(1728485337.265871) vcan0 095#800007F400000026
(1728485337.267826) vcan0 244#00000001FA
(1728485337.268222) vcan0 166#D0320036
(1728485337.269761) vcan0 158#0000000000000037
(1728485337.269770) vcan0 161#000005500108003A
(1728485337.270858) vcan0 191#010090A1410021
(1728485337.270866) vcan0 039#0039
(1728485337.270868) vcan0 133#0000000089
(1728485337.270871) vcan0 136#000200000000000C
(1728485337.270873) vcan0 13A#000000000000000A
(1728485337.272755) vcan0 13F#0000000500000000
(1728485337.272764) vcan0 164#0000C01AA8000022
(1728485337.272766) vcan0 17C#0000000010000003
(1728485337.272768) vcan0 18E#00004D
(1728485337.272771) vcan0 1CF#80050000002D
(1728485337.272773) vcan0 1DC#0200002A
(1728485337.273930) vcan0 183#0000000A00001001
(1728485337.273957) vcan0 143#6B6B00C2
(1728485337.277627) vcan0 095#800007F400000035
(1728485337.277644) vcan0 1A4#0000000800000001
(1728485337.277648) vcan0 1AA#7FFF000000006801
(1728485337.277651) vcan0 1B0#000F0000000148
(1728485337.277653) vcan0 1D0#000000000000000A
(1728485337.278547) vcan0 244#00000001E2
(1728485337.278977) vcan0 166#D0320009
(1728485337.280554) vcan0 158#000000000000000A
(1728485337.280564) vcan0 161#000005500108000D
(1728485337.280567) vcan0 191#010090A1410030
(1728485337.280569) vcan0 133#0000000098
(1728485337.280571) vcan0 136#000200000000001B
(1728485337.280573) vcan0 13A#0000000000000019
(1728485337.281613) vcan0 13F#000000050000001F
(1728485337.281624) vcan0 164#0000C01AA8000031
(1728485337.281626) vcan0 17C#0000000010000012
(1728485337.281628) vcan0 18E#00005C
(1728485337.283520) vcan0 309#00000000000000A2
(1728485337.283529) vcan0 183#0000000700001013
(1728485337.283541) vcan0 143#6B6B00D1
(1728485337.285435) vcan0 039#000C
(1728485337.287295) vcan0 095#800007F400000008
(1728485337.289181) vcan0 244#0000000166
(1728485337.289193) vcan0 166#D0320018
(1728485337.290301) vcan0 158#0000000000000019
(1728485337.290319) vcan0 161#000005500108001C
(1728485337.290322) vcan0 191#010090A1410003
(1728485337.290324) vcan0 133#00000000A7
(1728485337.290326) vcan0 136#000200000000002A
(1728485337.292208) vcan0 13A#0000000000000028
(1728485337.292219) vcan0 13F#000000050000002E
(1728485337.292222) vcan0 164#0000C01AA8000004
(1728485337.292224) vcan0 17C#0000000010000021
(1728485337.292226) vcan0 18E#00006B
(1728485337.292228) vcan0 1CF#80050000003C
(1728485337.292230) vcan0 1DC#02000039
(1728485337.294153) vcan0 183#0000000500001024
(1728485337.294177) vcan0 143#6B6B00E0
(1728485337.295982) vcan0 095#800007F400000017
(1728485337.297739) vcan0 1A4#0000000800000010
(1728485337.297753) vcan0 1AA#7FFF000000006711
(1728485337.297755) vcan0 1B0#000F0000000157
(1728485337.297757) vcan0 1D0#000000000000000A
(1728485337.297759) vcan0 039#001B
(1728485337.299017) vcan0 166#D0320027
(1728485337.299992) vcan0 244#00000001F2
(1728485337.300126) vcan0 158#0000000000000028
(1728485337.300136) vcan0 161#000005500108002B
(1728485337.300150) vcan0 191#010090A1410012
(1728485337.300156) vcan0 133#00000000B6
(1728485337.301935) vcan0 136#0002000000000039
(1728485337.301947) vcan0 13A#0000000000000037
(1728485337.301950) vcan0 13F#000000050000003D
(1728485337.301952) vcan0 164#0000C01AA8000013
(1728485337.301954) vcan0 17C#0000000010000030
(1728485337.301957) vcan0 18E#00007A
(1728485337.301959) vcan0 294#040B0002CF5A000E
(1728485337.301963) vcan0 21E#03E83745220601
(1728485337.303866) vcan0 183#0000000300001035
(1728485337.303877) vcan0 143#6B6B00FF
(1728485337.305850) vcan0 095#800007F400000026
(1728485337.308672) vcan0 166#D0320036
(1728485337.309744) vcan0 158#0000000000000037
(1728485337.309756) vcan0 161#000005500108003A
(1728485337.310813) vcan0 191#010090A1410021
(1728485337.310835) vcan0 133#0000000089
(1728485337.310875) vcan0 136#000200000000000C
(1728485337.310880) vcan0 13A#000000000000000A
(1728485337.310884) vcan0 13F#0000000500000000
(1728485337.310933) vcan0 244#000000013C
(1728485337.312577) vcan0 164#0000C01AA8000022
(1728485337.312586) vcan0 17C#0000000010000003
(1728485337.312589) vcan0 18E#00004D
(1728485337.312591) vcan0 1CF#80050000000F
(1728485337.312593) vcan0 1DC#0200000C
(1728485337.314601) vcan0 183#0000000A00001001
(1728485337.314612) vcan0 039#002A
(1728485337.314614) vcan0 143#6B6B00C2
(1728485337.316539) vcan0 095#800007F400000035
(1728485337.316547) vcan0 1A4#000000080000002F
(1728485337.316550) vcan0 1AA#7FFF000000006720
(1728485337.316552) vcan0 1B0#000F0000000166
(1728485337.318407) vcan0 1D0#000000000000000A
(1728485337.318415) vcan0 166#D0320009
(1728485337.320444) vcan0 158#000000000000000A
(1728485337.320455) vcan0 161#000005500108000D
(1728485337.320457) vcan0 191#010090A1410030
(1728485337.320460) vcan0 133#0000000098
(1728485337.320462) vcan0 136#000200000000001B
(1728485337.322455) vcan0 13A#0000000000000019
(1728485337.322463) vcan0 13F#000000050000001F
(1728485337.322465) vcan0 164#0000C01AA8000031
(1728485337.322467) vcan0 17C#0000000010000012
(1728485337.322469) vcan0 18E#00005C
(1728485337.322532) vcan0 244#00000001FC
(1728485337.324301) vcan0 183#0000000700001013
(1728485337.324309) vcan0 143#6B6B00D1
(1728485337.325804) vcan0 095#800007F400000008
(1728485337.327244) vcan0 039#0039
(1728485337.329180) vcan0 166#D0320018
(1728485337.331092) vcan0 158#0000000000000019
(1728485337.331101) vcan0 161#000005500108001C
(1728485337.331103) vcan0 191#010090A1410003
(1728485337.331105) vcan0 133#00000000A7
(1728485337.331108) vcan0 136#000200000000002A
(1728485337.331110) vcan0 13A#0000000000000028
(1728485337.331112) vcan0 13F#000000050000002E
(1728485337.331114) vcan0 164#0000C01AA8000004
(1728485337.333313) vcan0 17C#0000000010000021
(1728485337.333323) vcan0 18E#00006B
(1728485337.333325) vcan0 1CF#80050000001E
(1728485337.333327) vcan0 1DC#0200001B
(1728485337.333330) vcan0 183#0000000500001024
(1728485337.333330) vcan0 244#0000000136
(1728485337.333332) vcan0 143#6B6B00E0
(1728485337.335114) vcan0 333#0000000000002D
(1728485337.336139) vcan0 095#800007F400000017
(1728485337.336147) vcan0 1A4#000000080000003E
(1728485337.337953) vcan0 1AA#7FFF00000000683E
(1728485337.337964) vcan0 1B0#000F0000000175
(1728485337.337967) vcan0 1D0#000000000000000A
(1728485337.339073) vcan0 166#D0320027
(1728485337.340328) vcan0 158#0000000000000028
(1728485337.340339) vcan0 161#000005500108002B
(1728485337.340343) vcan0 191#010090A1410012
(1728485337.340346) vcan0 133#00000000B6
(1728485337.340348) vcan0 136#0002000000000039
(1728485337.341841) vcan0 13A#0000000000000037
(1728485337.341852) vcan0 13F#000000050000003D
(1728485337.341854) vcan0 164#0000C01AA8000013
(1728485337.341856) vcan0 17C#0000000010000030
(1728485337.341858) vcan0 18E#00007A
(1728485337.341860) vcan0 294#040B0002CF5A001D
(1728485337.343011) vcan0 21E#03E83745220610
(1728485337.344769) vcan0 244#0000000129
(1728485337.344800) vcan0 183#0000000B0000103D
(1728485337.344810) vcan0 143#6B6B00FF
(1728485337.346745) vcan0 095#800007F400000026
(1728485337.348708) vcan0 039#000C
(1728485337.348715) vcan0 166#D0320036
(1728485337.349762) vcan0 158#0000000000000037
(1728485337.349782) vcan0 161#000005500108003A
(1728485337.350841) vcan0 191#010010A1410029
(1728485337.350852) vcan0 133#0000000089
(1728485337.350855) vcan0 136#000200000000000C
(1728485337.350857) vcan0 13A#000000000000000A
(1728485337.350859) vcan0 13F#0000000500000000
(1728485337.352594) vcan0 164#0000C01AA8000022
(1728485337.352605) vcan0 17C#0000000010000003
(1728485337.352607) vcan0 18E#00004D
(1728485337.352609) vcan0 1CF#80050000002D
(1728485337.352611) vcan0 1DC#0200002A
(1728485337.352613) vcan0 320#000021
(1728485337.352615) vcan0 324#7465000000000E29
(1728485337.352617) vcan0 37C#FD00FD00097F0029
(1728485337.354530) vcan0 183#0000000800001003
(1728485337.354537) vcan0 143#6B6B00C2
(1728485337.355690) vcan0 095#800007F400000035
(1728485337.355959) vcan0 244#00000001EC
(1728485337.356740) vcan0 1A4#0000000800000001
(1728485337.356751) vcan0 1AA#7FFF000000006801
(1728485337.356753) vcan0 1B0#000F0000000148
(1728485337.358435) vcan0 1D0#000000000000000A
(1728485337.358447) vcan0 166#D0320009
(1728485337.359525) vcan0 158#000000000000000A
(1728485337.361375) vcan0 161#000005500108000D
(1728485337.361384) vcan0 039#001B
(1728485337.361387) vcan0 191#010010A1410038
(1728485337.361389) vcan0 133#0000000098
(1728485337.361391) vcan0 136#000200000000001B
(1728485337.361393) vcan0 13A#0000000000000019
(1728485337.361395) vcan0 13F#000000050000001F
(1728485337.361397) vcan0 164#0000C01AA8000031
(1728485337.361400) vcan0 17C#0000000010000012
(1728485337.363314) vcan0 18E#00005C
(1728485337.363322) vcan0 305#8026
(1728485337.363324) vcan0 183#0000000600001014
(1728485337.365281) vcan0 143#6B6B00D1
(1728485337.366318) vcan0 095#800007F400000008
(1728485337.367197) vcan0 244#0000000171
(1728485337.368574) vcan0 166#D0320018
(1728485337.370243) vcan0 158#0000000000000019
(1728485337.370250) vcan0 161#000005500108001C
(1728485337.370252) vcan0 191#010010A141000B
(1728485337.370254) vcan0 133#00000000A7
(1728485337.372082) vcan0 136#000200000000002A
(1728485337.372090) vcan0 13A#0000000000000028
(1728485337.372092) vcan0 13F#000000050000002E
(1728485337.372095) vcan0 164#0000C01AA8000004
(1728485337.372097) vcan0 17C#0000000010000021
(1728485337.372100) vcan0 18E#00006B
(1728485337.372102) vcan0 1CF#80050000003C
(1728485337.372106) vcan0 1DC#02000039
(1728485337.373307) vcan0 183#0000000C0000102D
(1728485337.374433) vcan0 143#6B6B00E0
(1728485337.374448) vcan0 039#002A
(1728485337.375944) vcan0 095#800007F400000017
(1728485337.377875) vcan0 1A4#0000000800000010
(1728485337.377884) vcan0 1AA#7FFF000000006711
(1728485337.377886) vcan0 1B0#000F0000000157
(1728485337.377888) vcan0 1D0#000000000000000A
(1728485337.378934) vcan0 244#00000001C5
(1728485337.378944) vcan0 166#D0320027
(1728485337.380923) vcan0 158#0000000000000028
(1728485337.380935) vcan0 161#000005500108002B
(1728485337.380937) vcan0 191#010010A141001A
(1728485337.380939) vcan0 133#00000000B6
(1728485337.380942) vcan0 136#0002000000000039
(1728485337.380946) vcan0 13A#0000000000000037
(1728485337.380949) vcan0 13F#000000050000003D
(1728485337.381975) vcan0 164#0000C01AA8000013
(1728485337.381984) vcan0 17C#0000000010000030
(1728485337.381986) vcan0 18E#00007A
(1728485337.381989) vcan0 294#040B0002CF5A002C
(1728485337.381991) vcan0 21E#03E8374522062F
(1728485337.383697) vcan0 309#00000000000000B1
(1728485337.383714) vcan0 183#000000090000103F
(1728485337.383722) vcan0 143#6B6B00FF
(1728485337.385690) vcan0 095#800007F400000026
(1728485337.388816) vcan0 166#D0320036
(1728485337.390539) vcan0 244#00000001C9
(1728485337.390596) vcan0 158#0000000000000037
(1728485337.390605) vcan0 161#000005500108003A
(1728485337.390607) vcan0 191#010010A1410029
(1728485337.390609) vcan0 039#0039
(1728485337.390611) vcan0 133#0000000089
(1728485337.390614) vcan0 136#000200000000000C
(1728485337.392492) vcan0 13A#000000000000000A
(1728485337.392504) vcan0 13F#0000000500000000
(1728485337.392507) vcan0 164#0000C01AA8000022
(1728485337.392509) vcan0 17C#0000000010000003
(1728485337.392511) vcan0 18E#00004D
(1728485337.392515) vcan0 1CF#80050000000F
(1728485337.392517) vcan0 1DC#0200000C
(1728485337.394475) vcan0 183#0000000E0000100D
(1728485337.394488) vcan0 143#6B6B00C2
(1728485337.396448) vcan0 095#800007F400000035
(1728485337.396460) vcan0 1A4#000000080000002F
(1728485337.396469) vcan0 1AA#7FFF000000006720
(1728485337.397540) vcan0 1B0#000F0000000166
(1728485337.397550) vcan0 1D0#000000000000000A
(1728485337.399369) vcan0 166#D0320009
(1728485337.399377) vcan0 158#000000000000000A
(1728485337.400412) vcan0 161#000005500108000D
(1728485337.400422) vcan0 191#010010A1410038
(1728485337.400424) vcan0 133#0000000098
(1728485337.400428) vcan0 136#000200000000001B
(1728485337.401485) vcan0 244#00000001A8
(1728485337.401510) vcan0 13A#0000000000000019
(1728485337.401514) vcan0 13F#000000050000001F
(1728485337.401516) vcan0 164#0000C01AA8000031
(1728485337.401518) vcan0 17C#0000000010000012
(1728485337.401523) vcan0 18E#00005C
(1728485337.403261) vcan0 039#000C
(1728485337.405121) vcan0 183#0000000A00001010
(1728485337.405129) vcan0 143#6B6B00D1
(1728485337.407134) vcan0 095#800007F800000004
(1728485337.408984) vcan0 166#D0320018
(1728485337.410009) vcan0 158#0000000000000019
(1728485337.410017) vcan0 161#000005500108001C
(1728485337.410020) vcan0 191#010010A141000B
(1728485337.410022) vcan0 133#00000000A7
(1728485337.411910) vcan0 136#000200000000002A
(1728485337.411918) vcan0 13A#0000000000000028
(1728485337.411921) vcan0 13F#000000050000002E
(1728485337.411923) vcan0 164#0000C01AA8000004
(1728485337.411925) vcan0 17C#0000000010000021
(1728485337.411927) vcan0 18E#00006B
(1728485337.411930) vcan0 1CF#80050000001E
(1728485337.411932) vcan0 1DC#0200001B
(1728485337.412944) vcan0 183#0000000700001022
(1728485337.412990) vcan0 244#00000001F6
(1728485337.413977) vcan0 143#6B6B00E0
(1728485337.416858) vcan0 095#800007F800000013
(1728485337.416868) vcan0 1A4#000000080000003E
(1728485337.416871) vcan0 1AA#7FFF00000000683E
(1728485337.416873) vcan0 1B0#000F0000000175
(1728485337.416876) vcan0 1D0#000000000000000A
(1728485337.418895) vcan0 166#D0320027
(1728485337.420629) vcan0 039#001B
(1728485337.420635) vcan0 158#0000000000000028
(1728485337.420638) vcan0 161#000005500108002B
(1728485337.420640) vcan0 191#010010A141001A
(1728485337.420644) vcan0 133#00000000B6
(1728485337.420646) vcan0 136#0002000000000039
(1728485337.420649) vcan0 13A#0000000000000037
(1728485337.421670) vcan0 13F#000000050000003D
(1728485337.421681) vcan0 164#0000C01AA8000013
(1728485337.421684) vcan0 17C#0000000010000030
(1728485337.421686) vcan0 18E#00007A
(1728485337.421688) vcan0 294#040B0002CF5A003B
(1728485337.422705) vcan0 21E#03E8374522063E
(1728485337.424558) vcan0 183#0000000D0000103B
(1728485337.424566) vcan0 143#6B6B00FF
(1728485337.426587) vcan0 095#800007F800000022
(1728485337.428420) vcan0 166#D0320036
(1728485337.429441) vcan0 158#0000000000000037
(1728485337.429477) vcan0 244#0000000167
(1728485337.430460) vcan0 161#000005500108003A
(1728485337.430469) vcan0 191#010010A1410029
(1728485337.430471) vcan0 133#0000000089
(1728485337.430473) vcan0 136#000200000000000C
(1728485337.432419) vcan0 13A#000000000000000A
(1728485337.432431) vcan0 13F#0000000500000000
(1728485337.432433) vcan0 164#0000C01AA8000022
(1728485337.432435) vcan0 17C#0000000010000003
(1728485337.432438) vcan0 18E#00004D
(1728485337.432440) vcan0 1CF#80050000002D
(1728485337.432442) vcan0 1DC#0200002A
(1728485337.432448) vcan0 039#002A
(1728485337.433507) vcan0 183#0000000900001002
(1728485337.433516) vcan0 143#6B6B00C2
(1728485337.434530) vcan0 333#0000000000003C
(1728485337.436256) vcan0 095#800007F800000031
(1728485337.436264) vcan0 1A4#0000000800000001
(1728485337.438187) vcan0 1AA#7FFF000000006801
(1728485337.438194) vcan0 1B0#000F0000000148
(1728485337.438197) vcan0 1D0#000000000000000A
(1728485337.438199) vcan0 166#D0320009
(1728485337.440217) vcan0 244#0000000172
(1728485337.440219) vcan0 158#000000000000000A
(1728485337.440233) vcan0 161#000005500108000D
(1728485337.440236) vcan0 191#010010A1410038
(1728485337.440238) vcan0 133#0000000098
(1728485337.441260) vcan0 136#000200000000001B
(1728485337.441274) vcan0 13A#0000000000000019
(1728485337.441276) vcan0 13F#000000050000001F
(1728485337.441278) vcan0 164#0000C01AA8000031
(1728485337.441281) vcan0 17C#0000000010000012
(1728485337.442300) vcan0 18E#00005C
(1728485337.444985) vcan0 183#0000000E0000101C
(1728485337.444991) vcan0 143#6B6B00D1
(1728485337.446935) vcan0 095#800007F800000004
(1728485337.448846) vcan0 166#D0320018
(1728485337.449880) vcan0 158#0000000000000019
(1728485337.449886) vcan0 161#000005500108001C
(1728485337.449888) vcan0 191#010010A141000B
(1728485337.450904) vcan0 133#00000000A7
(1728485337.450910) vcan0 136#000200000000002A
(1728485337.450912) vcan0 13A#0000000000000028
(1728485337.450914) vcan0 13F#000000050000002E
(1728485337.451841) vcan0 244#00000001A7
(1728485337.452425) vcan0 164#0000C01AA8000004
(1728485337.452430) vcan0 17C#0000000010000021
(1728485337.452432) vcan0 18E#00006B
(1728485337.452434) vcan0 1CF#80050000003C
(1728485337.452437) vcan0 039#0039
(1728485337.452439) vcan0 1DC#02000039
(1728485337.452441) vcan0 320#000030
(1728485337.452443) vcan0 324#7465000000000E38
(1728485337.453745) vcan0 37C#FD00FD00097F0038
(1728485337.453751) vcan0 40C#0000000004000013
(1728485337.453753) vcan0 183#0000000A0000102F
(1728485337.453755) vcan0 454#23EF18
(1728485337.453758) vcan0 143#6B6B00E0
(1728485337.455788) vcan0 095#800007F800000013
(1728485337.456813) vcan0 1A4#0000000800000010
(1728485337.456837) vcan0 1AA#7FFF000000006711
(1728485337.456840) vcan0 1B0#000F0000000157
(1728485337.456842) vcan0 1D0#000000000000000A
(1728485337.459595) vcan0 166#D0320027
(1728485337.459605) vcan0 158#0000000000000028
(1728485337.459608) vcan0 161#000005500108002B
(1728485337.460622) vcan0 191#010010A141001A
(1728485337.460628) vcan0 133#00000000B6
(1728485337.460630) vcan0 136#0002000000000039
(1728485337.460633) vcan0 13A#0000000000000037
(1728485337.462563) vcan0 13F#000000050000003D
(1728485337.462587) vcan0 164#0000C01AA8000013
(1728485337.462590) vcan0 17C#0000000010000030
(1728485337.462592) vcan0 18E#00007A
(1728485337.462595) vcan0 294#040B0002CF5A000E
(1728485337.462597) vcan0 21E#03E83745220601
(1728485337.463635) vcan0 183#0000000700001031
(1728485337.463656) vcan0 143#6B6B00FF
(1728485337.465421) vcan0 039#000C
(1728485337.466448) vcan0 305#8035
(1728485337.466459) vcan0 095#800007F800000022
(1728485337.468303) vcan0 166#D0320036
(1728485337.468413) vcan0 244#000000011A
(1728485337.470340) vcan0 158#0000000000000037
(1728485337.470368) vcan0 161#000005500108003A
(1728485337.470375) vcan0 191#010010A1410029
(1728485337.470380) vcan0 133#0000000089
(1728485337.470385) vcan0 136#000200000000000C
(1728485337.471399) vcan0 13A#000000000000000A
(1728485337.471410) vcan0 13F#0000000500000000
(1728485337.471415) vcan0 164#0000C01AA8000022
(1728485337.471420) vcan0 17C#0000000010000003
(1728485337.471425) vcan0 18E#00004D
(1728485337.472437) vcan0 1CF#80050000000F
(1728485337.472444) vcan0 1DC#0200000C
(1728485337.474191) vcan0 183#0000000D0000100E
(1728485337.474200) vcan0 143#6B6B00C2
(1728485337.476237) vcan0 095#800007F800000031
(1728485337.476298) vcan0 1A4#000000080000002F
(1728485337.476304) vcan0 1AA#7FFF000000006720
(1728485337.477327) vcan0 1B0#000F0000000166
(1728485337.477350) vcan0 1D0#000000000000000A
(1728485337.478374) vcan0 166#D0320009
(1728485337.480011) vcan0 158#000000000000000A
(1728485337.480020) vcan0 161#000005500108000D
(1728485337.480025) vcan0 039#001B
(1728485337.480030) vcan0 191#010010A1410038
(1728485337.480107) vcan0 244#000000018F
(1728485337.481046) vcan0 133#0000000098
(1728485337.481057) vcan0 136#000200000000001B
(1728485337.481063) vcan0 13A#0000000000000019
(1728485337.481068) vcan0 13F#000000050000001F
(1728485337.482084) vcan0 164#0000C01AA8000031
(1728485337.482092) vcan0 17C#0000000010000012
(1728485337.482097) vcan0 18E#00005C
(1728485337.482102) vcan0 309#0000000000000084
(1728485337.482108) vcan0 428#01040000521C2F
(1728485337.483237) vcan0 405#0000040000000029
(1728485337.483268) vcan0 183#0000000900001011
(1728485337.484290) vcan0 143#6B6B00D1
(1728485337.485854) vcan0 095#800007F800000004
(1728485337.488756) vcan0 166#D0320018
(1728485337.489778) vcan0 158#0000000000000019
(1728485337.489791) vcan0 161#000005500108001C
(1728485337.490899) vcan0 191#010010A141000B
(1728485337.490919) vcan0 133#00000000A7
(1728485337.490925) vcan0 136#000200000000002A
(1728485337.490931) vcan0 13A#0000000000000028
(1728485337.490936) vcan0 13F#000000050000002E
(1728485337.491054) vcan0 244#000000018A
(1728485337.491959) vcan0 164#0000C01AA8000004
(1728485337.491976) vcan0 17C#0000000010000021
(1728485337.491981) vcan0 18E#00006B
(1728485337.491988) vcan0 1CF#80050000001E
(1728485337.491993) vcan0 1DC#0200001B
(1728485337.493009) vcan0 183#0000000600001023
(1728485337.494599) vcan0 143#6B6B00E0
(1728485337.494608) vcan0 039#002A
(1728485337.496603) vcan0 095#800007F800000013
(1728485337.496629) vcan0 1A4#000000080000003E
(1728485337.498812) vcan0 166#D0320009
(1728485337.500518) vcan0 158#000000000000000A
(1728485337.500530) vcan0 161#000005500108000D
(1728485337.500533) vcan0 191#010090A1410030
(1728485337.500535) vcan0 18E#00005C
(1728485337.500537) vcan0 133#0000000098
(1728485337.500539) vcan0 136#000200000000001B
(1728485337.500542) vcan0 13A#0000000000000019
(1728485337.502462) vcan0 13F#000000050000001F
(1728485337.502475) vcan0 164#0000C01AA8000031
(1728485337.502478) vcan0 17C#0000000010000012
(1728485337.502480) vcan0 183#0000000E0000101C
(1728485337.502795) vcan0 244#0000000180
(1728485337.503575) vcan0 039#000C
(1728485337.503584) vcan0 143#6B6B00D1
(1728485337.506317) vcan0 095#800007F400000008
(1728485337.508238) vcan0 166#D0320018
(1728485337.510263) vcan0 158#0000000000000019
(1728485337.510276) vcan0 161#000005500108001C
(1728485337.510279) vcan0 191#010090A1410003
(1728485337.510282) vcan0 164#0000C01AA8000004
(1728485337.510285) vcan0 133#00000000A7
(1728485337.510287) vcan0 136#000200000000002A
(1728485337.511609) vcan0 13A#0000000000000028
(1728485337.511635) vcan0 13F#000000050000002E
(1728485337.511669) vcan0 17C#0000000010000021
(1728485337.511809) vcan0 18E#00006B
(1728485337.511820) vcan0 1CF#80050000003C
(1728485337.511825) vcan0 1DC#02000039
(1728485337.511831) vcan0 320#000030
(1728485337.511836) vcan0 324#7465000000000E38
(1728485337.513132) vcan0 183#0000000A0000102F
(1728485337.513146) vcan0 37C#FD00FD00097F0038
(1728485337.514120) vcan0 244#000000012D
(1728485337.514692) vcan0 143#6B6B00E0
(1728485337.516972) vcan0 095#800007F400000017
(1728485337.516983) vcan0 1A4#0000000800000010
(1728485337.516988) vcan0 1AA#7FFF000000006810
(1728485337.516993) vcan0 1B0#000F0000000157
(1728485337.516999) vcan0 1D0#000000000000000A
(1728485337.518096) vcan0 039#001B
(1728485337.518165) vcan0 166#D0320027
(1728485337.519200) vcan0 158#0000000000000028
(1728485337.520860) vcan0 161#000005500108002B
(1728485337.520868) vcan0 191#010090A1410012
(1728485337.520870) vcan0 164#0000C01AA8000013
(1728485337.520872) vcan0 133#00000000B6
(1728485337.520874) vcan0 136#0002000000000039
(1728485337.520876) vcan0 13A#0000000000000037
(1728485337.520879) vcan0 13F#000000050000003D
(1728485337.521896) vcan0 17C#0000000010000030
(1728485337.521905) vcan0 18E#00007A
(1728485337.521907) vcan0 294#040B0002CF5A000E
(1728485337.521910) vcan0 21E#03E83745220601
(1728485337.522922) vcan0 183#0000000F00001039
(1728485337.524290) vcan0 143#6B6B00FF
(1728485337.525314) vcan0 095#800007F400000026
(1728485337.528665) vcan0 166#D0320036
(1728485337.529708) vcan0 158#0000000000000037
(1728485337.529715) vcan0 161#000005500108003A
(1728485337.529717) vcan0 164#0000C01AA8000022
(1728485337.529720) vcan0 191#010090A1410021
(1728485337.529739) vcan0 244#000000013B
(1728485337.530737) vcan0 133#0000000089
(1728485337.530744) vcan0 136#000200000000000C
(1728485337.530746) vcan0 13A#000000000000000A
(1728485337.530748) vcan0 13F#0000000500000000
(1728485337.531905) vcan0 17C#0000000010000003
(1728485337.531920) vcan0 18E#00004D
(1728485337.531934) vcan0 1CF#80050000000F
(1728485337.531957) vcan0 1DC#0200000C
(1728485337.531959) vcan0 183#0000000B00001000
(1728485337.533515) vcan0 143#6B6B00C2
(1728485337.535544) vcan0 095#800007F400000035
(1728485337.536561) vcan0 1A4#000000080000002F
(1728485337.536569) vcan0 1AA#7FFF00000000682F
(1728485337.536571) vcan0 1B0#000F0000000166
(1728485337.536573) vcan0 1D0#000000000000000A
(1728485337.538695) vcan0 166#D0320009
(1728485337.540352) vcan0 158#000000000000000A
(1728485337.540361) vcan0 161#000005500108000D
(1728485337.540363) vcan0 191#010090A1410030
(1728485337.540366) vcan0 164#0000C01AA8000031
(1728485337.540368) vcan0 133#0000000098
(1728485337.540370) vcan0 136#000200000000001B
(1728485337.540372) vcan0 039#002A
(1728485337.540386) vcan0 244#000000015E
(1728485337.541401) vcan0 13A#0000000000000019
(1728485337.541413) vcan0 13F#000000050000001F
(1728485337.541415) vcan0 17C#0000000010000012
(1728485337.541417) vcan0 18E#00005C
(1728485337.542437) vcan0 309#0000000000000084
(1728485337.542446) vcan0 183#0000000800001012
(1728485337.544180) vcan0 143#6B6B00D1
(1728485337.545199) vcan0 095#800007F400000008
(1728485337.548247) vcan0 166#D0320018
(1728485337.550055) vcan0 158#0000000000000019
(1728485337.550065) vcan0 161#000005500108001C
(1728485337.550071) vcan0 191#010090A1410003
(1728485337.550074) vcan0 164#0000C01AA8000004
(1728485337.550076) vcan0 133#00000000A7
(1728485337.551031) vcan0 244#00000001BA
(1728485337.551105) vcan0 136#000200000000002A
(1728485337.551111) vcan0 13A#0000000000000028
(1728485337.551113) vcan0 13F#000000050000002E
(1728485337.551115) vcan0 17C#0000000010000021
(1728485337.551117) vcan0 18E#00006B
(1728485337.552141) vcan0 1CF#80050000001E
(1728485337.552153) vcan0 1DC#0200001B
(1728485337.552155) vcan0 183#0000000600001023
(1728485337.554924) vcan0 143#6B6B00E0
(1728485337.554937) vcan0 039#0039
(1728485337.554939) vcan0 095#800007F400000017
(1728485337.555957) vcan0 1A4#000000080000003E
(1728485337.556905) vcan0 188#00000000
(1728485337.557286) vcan0 1AA#7FFF00000000673F
(1728485337.557292) vcan0 1B0#000F0000000175
(1728485337.557295) vcan0 1D0#000000000000000A
(1728485337.558891) vcan0 166#D0320027
(1728485337.559923) vcan0 158#0000000000000028
(1728485337.559939) vcan0 161#000005500108002B
(1728485337.559942) vcan0 191#010090A1410012
(1728485337.559944) vcan0 164#0000C01AA8000013
(1728485337.560958) vcan0 133#00000000B6
(1728485337.560966) vcan0 136#0002000000000039
(1728485337.560968) vcan0 13A#0000000000000037
(1728485337.560970) vcan0 13F#000000050000003D
(1728485337.561953) vcan0 244#000000010A
(1728485337.562004) vcan0 17C#0000000010000030
(1728485337.562012) vcan0 18E#00007A
(1728485337.562015) vcan0 294#040B0002CF5A001D
(1728485337.562017) vcan0 21E#03E83745220610
(1728485337.563031) vcan0 183#0000000400001034
(1728485337.564611) vcan0 143#6B6B00FF
(1728485337.565696) vcan0 095#800007F400000026
(1728485337.567735) vcan0 166#D0320036
(1728485337.569517) vcan0 039#000C
(1728485337.569523) vcan0 158#0000000000000037
(1728485337.569526) vcan0 161#000005500108003A
(1728485337.569528) vcan0 164#0000C01AA8000022
(1728485337.570567) vcan0 191#010090A1410021
(1728485337.570573) vcan0 133#0000000089
(1728485337.570576) vcan0 136#000200000000000C
(1728485337.570578) vcan0 13A#000000000000000A
(1728485337.572506) vcan0 13F#0000000500000000
(1728485337.572519) vcan0 17C#0000000010000003
(1728485337.572521) vcan0 18E#00004D
(1728485337.572534) vcan0 1CF#80050000002D
(1728485337.572536) vcan0 1DC#0200002A
(1728485337.572538) vcan0 183#0000000A00001001
(1728485337.573570) vcan0 244#0000000180
(1728485337.573607) vcan0 143#6B6B00C2
(1728485337.576461) vcan0 095#800007F400000035
(1728485337.576471) vcan0 1A4#0000000800000001
(1728485337.576473) vcan0 1AA#7FFF000000006702
(1728485337.576475) vcan0 1B0#000F0000000148
(1728485337.577486) vcan0 1D0#000000000000000A
(1728485337.579300) vcan0 166#D0320009
(1728485337.579310) vcan0 158#000000000000000A
(1728485337.579314) vcan0 161#000005500108000D
(1728485337.580378) vcan0 191#010090A1410030
(1728485337.580390) vcan0 164#0000C01AA8000031
(1728485337.580392) vcan0 133#0000000098
(1728485337.580395) vcan0 136#000200000000001B
(1728485337.581409) vcan0 13A#0000000000000019
(1728485337.581419) vcan0 13F#000000050000001F
(1728485337.581422) vcan0 17C#0000000010000012
(1728485337.581424) vcan0 18E#00005C
(1728485337.582435) vcan0 039#001B
(1728485337.582443) vcan0 183#0000000700001013
(1728485337.584100) vcan0 143#6B6B00D1
(1728485337.585124) vcan0 244#0000000177
(1728485337.585434) vcan0 095#800007F400000008
(1728485337.588991) vcan0 166#D0320018
(1728485337.589006) vcan0 158#0000000000000019
(1728485337.590900) vcan0 161#000005500108001C
(1728485337.590907) vcan0 191#010090A1410003
(1728485337.590909) vcan0 164#0000C01AA8000004
(1728485337.590911) vcan0 133#00000000A7
(1728485337.590913) vcan0 136#000200000000002A
(1728485337.590916) vcan0 13A#0000000000000028
(1728485337.590918) vcan0 13F#000000050000002E
(1728485337.590922) vcan0 17C#0000000010000021
(1728485337.591937) vcan0 18E#00006B
(1728485337.591946) vcan0 1CF#80050000003C
(1728485337.591948) vcan0 1DC#02000039
(1728485337.591951) vcan0 183#0000000500001024
(1728485337.594238) vcan0 143#6B6B00E0
(1728485337.594252) vcan0 333#0000000000000F
(1728485337.595821) vcan0 095#800007F400000017
(1728485337.595830) vcan0 039#002A
(1728485337.595833) vcan0 1A4#0000000800000010
(1728485337.596804) vcan0 244#00000001AD
(1728485337.597393) vcan0 305#8017
(1728485337.597402) vcan0 1AA#7FFF000000006810
(1728485337.597404) vcan0 1B0#000F0000000157
(1728485337.597406) vcan0 1D0#000000000000000A
(1728485337.599718) vcan0 166#D0320027
(1728485337.599731) vcan0 158#0000000000000028
(1728485337.599738) vcan0 161#000005500108002B
(1728485337.599742) vcan0 191#010090A1410012
(1728485337.600805) vcan0 18E#00007A
(1728485337.600816) vcan0 133#00000000B6
(1728485337.600818) vcan0 136#0002000000000039
(1728485337.600820) vcan0 13A#0000000000000037
(1728485337.600822) vcan0 13F#000000050000003D
(1728485337.601838) vcan0 164#0000C01AA8000013
(1728485337.601847) vcan0 17C#0000000010000030
(1728485337.601849) vcan0 294#040B0002CF5A002C
(1728485337.601851) vcan0 21E#03E8374522062F
(1728485337.603556) vcan0 183#0000000B0000103D
(1728485337.603562) vcan0 143#6B6B00FF
(1728485337.606506) vcan0 095#800007F400000026
(1728485337.607536) vcan0 039#0039
(1728485337.608665) vcan0 166#D0320036
(1728485337.610391) vcan0 158#0000000000000037
(1728485337.610399) vcan0 161#000005500108003A
(1728485337.610401) vcan0 191#010010A1410029
(1728485337.610404) vcan0 164#0000C01AA8000022
(1728485337.610406) vcan0 133#0000000089
(1728485337.610408) vcan0 136#000200000000000C
(1728485337.611459) vcan0 13A#000000000000000A
(1728485337.611468) vcan0 13F#0000000500000000
(1728485337.611470) vcan0 17C#0000000010000003
(1728485337.611473) vcan0 18E#00004D
(1728485337.611475) vcan0 1CF#80050000000F
(1728485337.611477) vcan0 1DC#0200000C
(1728485337.613331) vcan0 244#0000000144
(1728485337.613352) vcan0 320#000003
(1728485337.613356) vcan0 183#0000000800001003
(1728485337.613359) vcan0 324#7465000000000E0B
(1728485337.613361) vcan0 37C#FD00FD00097F000B
(1728485337.614423) vcan0 143#6B6B00C2
(1728485337.616235) vcan0 095#800007F400000035
(1728485337.616243) vcan0 1A4#000000080000002F
(1728485337.616245) vcan0 1AA#7FFF00000000682F
(1728485337.616248) vcan0 1B0#000F0000000166
(1728485337.618883) vcan0 1D0#000000000000000A
(1728485337.618892) vcan0 166#D0320009
(1728485337.620628) vcan0 158#000000000000000A
(1728485337.620636) vcan0 161#000005500108000D
(1728485337.620639) vcan0 191#010010A1410038
(1728485337.620641) vcan0 18E#00005C
(1728485337.620645) vcan0 133#0000000098
(1728485337.620647) vcan0 136#000200000000001B
(1728485337.620649) vcan0 13A#0000000000000019
(1728485337.622098) vcan0 13F#000000050000001F
(1728485337.622109) vcan0 164#0000C01AA8000031
(1728485337.622111) vcan0 17C#0000000010000012
(1728485337.623192) vcan0 183#0000000600001014
(1728485337.623200) vcan0 039#000C
(1728485337.624945) vcan0 143#6B6B00D1
(1728485337.624955) vcan0 095#800007F400000008
(1728485337.627016) vcan0 244#00000001B4
(1728485337.628248) vcan0 166#D0320018
(1728485337.629910) vcan0 158#0000000000000019
(1728485337.629920) vcan0 161#000005500108001C
(1728485337.629923) vcan0 191#010010A141000B
(1728485337.629925) vcan0 164#0000C01AA8000004
(1728485337.629927) vcan0 133#00000000A7
(1728485337.631903) vcan0 136#000200000000002A
(1728485337.631912) vcan0 13A#0000000000000028
(1728485337.631914) vcan0 13F#000000050000002E
(1728485337.631917) vcan0 17C#0000000010000021
(1728485337.631919) vcan0 18E#00006B
(1728485337.631922) vcan0 1CF#80050000001E
(1728485337.631924) vcan0 1DC#0200001B
(1728485337.631926) vcan0 183#0000000400001025
(1728485337.633809) vcan0 143#6B6B00E0
(1728485337.634907) vcan0 095#800007F400000017
(1728485337.636635) vcan0 1A4#000000080000003E
(1728485337.636644) vcan0 039#001B
(1728485337.636646) vcan0 1AA#7FFF00000000673F
(1728485337.636648) vcan0 1B0#000F0000000175
(1728485337.638618) vcan0 1D0#000000000000000A
(1728485337.638626) vcan0 166#D0320027
(1728485337.638842) vcan0 244#0000000144
(1728485337.639638) vcan0 158#0000000000000028
(1728485337.639647) vcan0 161#000005500108002B
(1728485337.639649) vcan0 191#010010A141001A
(1728485337.640688) vcan0 164#0000C01AA8000013
(1728485337.640699) vcan0 133#00000000B6
(1728485337.640701) vcan0 136#0002000000000039
(1728485337.640703) vcan0 13A#0000000000000037
(1728485337.641795) vcan0 13F#000000050000003D
(1728485337.641804) vcan0 17C#0000000010000030
(1728485337.641807) vcan0 18E#00007A
(1728485337.641809) vcan0 294#040B0002CF5A003B
(1728485337.641811) vcan0 21E#03E8374522063E
(1728485337.643454) vcan0 309#0000000000000093
(1728485337.643464) vcan0 183#0000000300001035
(1728485337.643467) vcan0 143#6B6B00FF
(1728485337.646383) vcan0 095#800007F400000026
(1728485337.648062) vcan0 166#D0320036
(1728485337.649259) vcan0 158#0000000000000037
(1728485337.649295) vcan0 161#000005500108003A
(1728485337.650360) vcan0 244#0000000142
(1728485337.650392) vcan0 039#002A
(1728485337.650404) vcan0 191#010010A1410029
(1728485337.650407) vcan0 164#0000C01AA8000022
(1728485337.650411) vcan0 133#0000000089
(1728485337.650415) vcan0 136#000200000000000C
(1728485337.652230) vcan0 13A#000000000000000A
(1728485337.652238) vcan0 13F#0000000500000000
(1728485337.652240) vcan0 17C#0000000010000003
(1728485337.652242) vcan0 18E#00004D
(1728485337.652244) vcan0 1CF#80050000002D
(1728485337.652246) vcan0 1DC#0200002A
(1728485337.652249) vcan0 183#0000000A00001001
(1728485337.654116) vcan0 143#6B6B00C2
(1728485337.655497) vcan0 095#800007F400000035
(1728485337.656599) vcan0 1A4#0000000800000001
(1728485337.656632) vcan0 1AA#7FFF000000006702
(1728485337.656634) vcan0 1B0#000F0000000148
(1728485337.656637) vcan0 1D0#000000000000000A
(1728485337.658073) vcan0 166#D0320009
(1728485337.659134) vcan0 158#000000000000000A
(1728485337.660927) vcan0 161#000005500108000D
(1728485337.660935) vcan0 191#010010A1410038
(1728485337.660938) vcan0 18E#00005C
(1728485337.660940) vcan0 133#0000000098
(1728485337.660942) vcan0 136#000200000000001B
(1728485337.660944) vcan0 13A#0000000000000019
(1728485337.660946) vcan0 13F#000000050000001F
(1728485337.661892) vcan0 244#0000000136
(1728485337.662001) vcan0 164#0000C01AA8000031
(1728485337.662008) vcan0 17C#0000000010000012
(1728485337.663089) vcan0 183#0000000700001013
(1728485337.664119) vcan0 143#6B6B00D1
(1728485337.665831) vcan0 095#800007F400000008
(1728485337.665836) vcan0 039#0039
(1728485337.668800) vcan0 166#D0320018
(1728485337.669818) vcan0 158#0000000000000019
(1728485337.669826) vcan0 161#000005500108001C
(1728485337.669828) vcan0 191#010010A141000B
(1728485337.669831) vcan0 164#0000C01AA8000004
(1728485337.670842) vcan0 133#00000000A7
(1728485337.670850) vcan0 136#000200000000002A
(1728485337.670852) vcan0 13A#0000000000000028
(1728485337.670854) vcan0 13F#000000050000002E
(1728485337.672642) vcan0 17C#0000000010000021
(1728485337.672650) vcan0 18E#00006B
(1728485337.672652) vcan0 1CF#80050000003C
(1728485337.672654) vcan0 1DC#02000039
(1728485337.672657) vcan0 183#0000000500001024
(1728485337.672735) vcan0 244#0000000152
(1728485337.673784) vcan0 143#6B6B00E0
(1728485337.675700) vcan0 095#800007F400000017
(1728485337.677638) vcan0 1A4#0000000800000010
(1728485337.677651) vcan0 1AA#7FFF000000006810
(1728485337.677654) vcan0 1B0#000F0000000157
(1728485337.677656) vcan0 1D0#000000000000000A
(1728485337.679519) vcan0 166#D0320027
(1728485337.679529) vcan0 039#000C
(1728485337.679531) vcan0 158#0000000000000028
(1728485337.679533) vcan0 161#000005500108002B
(1728485337.679536) vcan0 191#010010A141001A
(1728485337.680589) vcan0 164#0000C01AA8000013
(1728485337.680599) vcan0 133#00000000B6
(1728485337.680601) vcan0 136#0002000000000039
(1728485337.680604) vcan0 13A#0000000000000037
(1728485337.682349) vcan0 13F#000000050000003D
(1728485337.682360) vcan0 17C#0000000010000030
(1728485337.682363) vcan0 18E#00007A
(1728485337.682365) vcan0 294#040B0002CF5A000E
(1728485337.682367) vcan0 21E#03E83745220601
(1728485337.682370) vcan0 183#0000000300001035
(1728485337.684329) vcan0 143#6B6B00FF
(1728485337.684421) vcan0 244#000000011B
(1728485337.685400) vcan0 095#800007F400000026
(1728485337.689274) vcan0 166#D0320036
(1728485337.689283) vcan0 158#0000000000000037
(1728485337.689285) vcan0 161#000005500108003A
(1728485337.690375) vcan0 191#010010A1410029
(1728485337.690390) vcan0 18E#00004D
(1728485337.690393) vcan0 133#0000000089
(1728485337.690396) vcan0 136#000200000000000C
(1728485337.692121) vcan0 13A#000000000000000A
(1728485337.692136) vcan0 13F#0000000500000000
(1728485337.692139) vcan0 164#0000C01AA8000022
(1728485337.692141) vcan0 17C#0000000010000003
(1728485337.692143) vcan0 1CF#80050000000F
(1728485337.692145) vcan0 1DC#0200000C
(1728485337.692148) vcan0 183#0000000200001009
(1728485337.694053) vcan0 143#6B6B00C2
(1728485337.694059) vcan0 333#0000000000001E
(1728485337.696052) vcan0 244#00000001CF
(1728485337.696063) vcan0 095#800007F400000035
(1728485337.696066) vcan0 1A4#000000080000002F
(1728485337.696068) vcan0 1AA#7FFF00000000682F
(1728485337.697234) vcan0 1B0#000F0000000166
(1728485337.697249) vcan0 039#001B
(1728485337.697252) vcan0 1D0#000000000000000A
(1728485337.697254) vcan0 305#8026
(1728485337.698883) vcan0 166#D0320009
(1728485337.700000) vcan0 158#000000000000000A
(1728485337.700011) vcan0 161#000005500108000D
(1728485337.700019) vcan0 191#010010A1410038
(1728485337.700021) vcan0 18E#00005C
(1728485337.700025) vcan0 133#0000000098
(1728485337.701942) vcan0 136#000200000000001B
(1728485337.701954) vcan0 13A#0000000000000019
(1728485337.701960) vcan0 13F#000000050000001F
(1728485337.701965) vcan0 164#0000C01AA8000031
(1728485337.701972) vcan0 17C#0000000010000012
(1728485337.702988) vcan0 183#0000000900001011
(1728485337.704009) vcan0 143#6B6B00D1
(1728485337.705719) vcan0 095#800007F400000008
(1728485337.707708) vcan0 244#0000000126
(1728485337.708148) vcan0 166#D0320018
(1728485337.709173) vcan0 158#0000000000000019
(1728485337.710207) vcan0 161#000005500108001C
(1728485337.710227) vcan0 191#010010A141000B
(1728485337.710235) vcan0 164#0000C01AA8000004
(1728485337.710242) vcan0 133#00000000A7
(1728485337.710248) vcan0 136#000200000000002A
(1728485337.711274) vcan0 13A#0000000000000028
(1728485337.711290) vcan0 13F#000000050000002E
(1728485337.711296) vcan0 17C#0000000010000021
(1728485337.711302) vcan0 18E#00006B
(1728485337.711310) vcan0 1CF#80050000001E
(1728485337.712495) vcan0 039#002A
(1728485337.712512) vcan0 1DC#0200001B
(1728485337.712515) vcan0 320#000012
(1728485337.712517) vcan0 183#0000000600001023
(1728485337.712520) vcan0 324#7465000000000E1A
(1728485337.712522) vcan0 37C#FD00FD00097F001A
(1728485337.714459) vcan0 40C#0236323239533039
(1728485337.714465) vcan0 454#23EF36
(1728485337.714467) vcan0 143#6B6B00E0
(1728485337.716454) vcan0 095#800007F400000017
(1728485337.716461) vcan0 1A4#000000080000003E
(1728485337.716463) vcan0 1AA#7FFF00000000673F
(1728485337.716466) vcan0 1B0#000F0000000175
(1728485337.717522) vcan0 1D0#000000000000000A
(1728485337.719320) vcan0 166#D0320027
(1728485337.719333) vcan0 158#0000000000000028
(1728485337.719339) vcan0 161#000005500108002B
(1728485337.719428) vcan0 244#00000001E2
(1728485337.720355) vcan0 191#010010A141001A
(1728485337.720367) vcan0 133#00000000B6
(1728485337.720372) vcan0 136#0002000000000039
(1728485337.720377) vcan0 13A#0000000000000037
(1728485337.722286) vcan0 13F#000000050000003D
(1728485337.722301) vcan0 164#0000C01AA8000013
(1728485337.722306) vcan0 17C#0000000010000030
(1728485337.722311) vcan0 18E#00007A
(1728485337.722316) vcan0 294#040B0002CF5A001D
(1728485337.722321) vcan0 21E#03E83745220610
(1728485337.723339) vcan0 183#0000000400001034
(1728485337.723350) vcan0 143#6B6B00FF
(1728485337.725444) vcan0 095#800007F400000026
(1728485337.725474) vcan0 039#0039
(1728485337.729052) vcan0 166#D0320036
(1728485337.729070) vcan0 158#0000000000000037
(1728485337.730083) vcan0 161#000005500108003A
(1728485337.730093) vcan0 191#010010A1410029
(1728485337.730098) vcan0 164#0000C01AA8000022
(1728485337.730104) vcan0 133#0000000089
(1728485337.730169) vcan0 244#00000001D7
(1728485337.731365) vcan0 136#000200000000000C
(1728485337.731392) vcan0 13A#000000000000000A
(1728485337.731398) vcan0 13F#0000000500000000
(1728485337.731404) vcan0 17C#0000000010000003
(1728485337.731409) vcan0 18E#00004D
(1728485337.731414) vcan0 1CF#80050000002D
(1728485337.731420) vcan0 1DC#0200002A
(1728485337.732947) vcan0 183#0000000A00001001
(1728485337.733974) vcan0 143#6B6B00C2
(1728485337.735893) vcan0 095#800007F400000035
(1728485337.735902) vcan0 1A4#0000000800000001
(1728485337.737537) vcan0 1AA#7FFF000000006702
(1728485337.737556) vcan0 1B0#000F0000000148
(1728485337.737562) vcan0 1D0#000000000000000A
(1728485337.738582) vcan0 166#D0320009
(1728485337.739869) vcan0 158#000000000000000A
(1728485337.739889) vcan0 161#000005500108000D
(1728485337.739895) vcan0 039#000C
(1728485337.739900) vcan0 191#010010A1410038
(1728485337.739905) vcan0 164#0000C01AA8000031
(1728485337.740947) vcan0 133#0000000098
(1728485337.740967) vcan0 136#000200000000001B
(1728485337.740973) vcan0 13A#0000000000000019
(1728485337.740979) vcan0 13F#000000050000001F
(1728485337.741215) vcan0 244#00000001B3
(1728485337.742002) vcan0 17C#0000000010000012
(1728485337.742014) vcan0 18E#00005C
(1728485337.742020) vcan0 309#00000000000000A2
(1728485337.742025) vcan0 428#01040000521C01
(1728485337.742030) vcan0 405#000004000000000B
(1728485337.743657) vcan0 183#0000000700001013
(1728485337.743666) vcan0 143#6B6B00D1
(1728485337.745161) vcan0 095#800007F400000008
(1728485337.748534) vcan0 166#D0320018
(1728485337.750518) vcan0 158#0000000000000019
(1728485337.750535) vcan0 161#000005500108001C
(1728485337.750537) vcan0 191#010010A141000B
(1728485337.750540) vcan0 164#0000C01AA8000004
(1728485337.750543) vcan0 133#00000000A7
(1728485337.750545) vcan0 136#000200000000002A
(1728485337.750547) vcan0 13A#0000000000000028
(1728485337.751805) vcan0 13F#000000050000002E
(1728485337.751828) vcan0 17C#0000000010000021
(1728485337.751859) vcan0 18E#00006B
(1728485337.751866) vcan0 1CF#80050000003C
(1728485337.751872) vcan0 1DC#02000039
(1728485337.751878) vcan0 183#0000000500001024
(1728485337.752473) vcan0 244#00000001C3
(1728485337.752895) vcan0 039#001B
(1728485337.754323) vcan0 143#6B6B00E0
(1728485337.756733) vcan0 095#800007F400000017
(1728485337.756744) vcan0 1A4#0000000800000010
(1728485337.756748) vcan0 1AA#7FFF000000006810
(1728485337.756750) vcan0 1B0#000F0000000157
(1728485337.756753) vcan0 1D0#000000000000000A
(1728485337.758187) vcan0 166#D0320027
(1728485337.760226) vcan0 158#0000000000000028
(1728485337.760240) vcan0 161#000005500108002B
(1728485337.760242) vcan0 191#010010A141001A
(1728485337.760245) vcan0 164#0000C01AA8000013
(1728485337.760247) vcan0 133#00000000B6
(1728485337.762130) vcan0 136#0002000000000039
(1728485337.762139) vcan0 13A#0000000000000037
(1728485337.762142) vcan0 13F#000000050000003D
(1728485337.762144) vcan0 17C#0000000010000030
(1728485337.762146) vcan0 18E#00007A
(1728485337.762148) vcan0 294#040B0002CF5A002C
(1728485337.762150) vcan0 21E#03E8374522062F
(1728485337.764076) vcan0 183#0000000B0000103D
(1728485337.764083) vcan0 143#6B6B00FF
(1728485337.765160) vcan0 095#800007F400000026
(1728485337.765225) vcan0 244#00000001BC
(1728485337.767024) vcan0 039#002A
(1728485337.768969) vcan0 166#D0320036
(1728485337.770891) vcan0 158#0000000000000037
(1728485337.770900) vcan0 161#000005500108003A
(1728485337.770902) vcan0 191#010010A1410029
(1728485337.770904) vcan0 164#0000C01AA8000022
(1728485337.770907) vcan0 133#0000000089
(1728485337.770911) vcan0 136#000200000000000C
(1728485337.770913) vcan0 13A#000000000000000A
(1728485337.770915) vcan0 13F#0000000500000000
(1728485337.770918) vcan0 17C#0000000010000003
(1728485337.771986) vcan0 18E#00004D
(1728485337.771997) vcan0 1CF#80050000000F
(1728485337.772000) vcan0 1DC#0200000C
(1728485337.772002) vcan0 183#0000000800001003
(1728485337.774814) vcan0 143#6B6B00C2
(1728485337.776756) vcan0 095#800007F400000035
(1728485337.776770) vcan0 1A4#000000080000002F
(1728485337.776772) vcan0 1AA#7FFF00000000682F
(1728485337.776774) vcan0 1B0#000F0000000166
(1728485337.776777) vcan0 1D0#000000000000000A
(1728485337.776826) vcan0 244#0000000178
(1728485337.778748) vcan0 166#D0320009
(1728485337.779772) vcan0 158#000000000000000A
(1728485337.779781) vcan0 161#000005500108000D
(1728485337.779783) vcan0 191#010010A1410038
(1728485337.779785) vcan0 164#0000C01AA8000031
(1728485337.781362) vcan0 133#0000000098
(1728485337.781370) vcan0 136#000200000000001B
(1728485337.781372) vcan0 039#0039
(1728485337.781375) vcan0 13A#0000000000000019
(1728485337.781377) vcan0 13F#000000050000001F
(1728485337.781379) vcan0 17C#0000000010000012
(1728485337.781382) vcan0 18E#00005C
(1728485337.783320) vcan0 183#0000000D0000101D
(1728485337.783329) vcan0 143#6B6B00D1
(1728485337.785258) vcan0 095#800007F400000008
(1728485337.788317) vcan0 166#D0320018
(1728485337.788322) vcan0 244#0000000156
(1728485337.789425) vcan0 158#0000000000000019
(1728485337.789433) vcan0 161#000005500108001C
(1728485337.791109) vcan0 191#010010A141000B
(1728485337.791133) vcan0 164#0000C01AA8000004
(1728485337.791138) vcan0 133#00000000A7
(1728485337.791145) vcan0 136#000200000000002A
(1728485337.791150) vcan0 13A#0000000000000028
(1728485337.791155) vcan0 13F#000000050000002E
(1728485337.791160) vcan0 17C#0000000010000021
(1728485337.791165) vcan0 18E#00006B
(1728485337.793068) vcan0 1CF#80050000001E
(1728485337.793087) vcan0 1DC#0200001B
(1728485337.793094) vcan0 183#0000000900001020
(1728485337.794994) vcan0 143#6B6B00E0
(1728485337.795012) vcan0 333#0000000000002D
(1728485337.795017) vcan0 039#000C
(1728485337.795025) vcan0 095#800007F400000017
(1728485337.796925) vcan0 1A4#000000080000003E
(1728485337.796934) vcan0 1AA#7FFF00000000673F
(1728485337.796939) vcan0 1B0#000F0000000175
(1728485337.796945) vcan0 1D0#000000000000000A
(1728485337.798541) vcan0 166#D0320027
(1728485337.799930) vcan0 158#0000000000000028
(1728485337.799954) vcan0 161#000005500108002B
(1728485337.799967) vcan0 191#010010A141001A
(1728485337.799972) vcan0 18E#00007A
(1728485337.799977) vcan0 133#00000000B6
(1728485337.800825) vcan0 244#00000001C0
(1728485337.801495) vcan0 136#0002000000000039
(1728485337.801508) vcan0 13A#0000000000000037
(1728485337.801541) vcan0 13F#000000050000003D
(1728485337.801550) vcan0 164#0000C01AA8000013
(1728485337.801555) vcan0 17C#0000000010000030
(1728485337.801560) vcan0 294#040B0002CF5A003B
(1728485337.801568) vcan0 305#8035
(1728485337.802854) vcan0 21E#03E8374522063E
(1728485337.802872) vcan0 183#0000000600001032
(1728485337.804779) vcan0 143#6B6B00FF
(1728485337.805932) vcan0 095#800007F400000026
(1728485337.809629) vcan0 166#D0320036
(1728485337.809643) vcan0 039#001B
(1728485337.809645) vcan0 158#0000000000000037
(1728485337.809648) vcan0 161#000005500108003A
(1728485337.809650) vcan0 191#010010A1410029
(1728485337.810672) vcan0 164#0000C01AA8000022
(1728485337.810681) vcan0 133#0000000089
(1728485337.810684) vcan0 136#000200000000000C
(1728485337.810686) vcan0 13A#000000000000000A
(1728485337.812528) vcan0 13F#0000000500000000
(1728485337.812536) vcan0 17C#0000000010000003
(1728485337.812538) vcan0 18E#00004D
(1728485337.812541) vcan0 1CF#80050000002D
(1728485337.812543) vcan0 1DC#0200002A
(1728485337.812547) vcan0 320#000021
(1728485337.812549) vcan0 183#0000000C0000100F
(1728485337.812552) vcan0 324#7465000000000E29
(1728485337.812556) vcan0 37C#FD00FD00097F0029
(1728485337.812630) vcan0 244#0000000105
(1728485337.813985) vcan0 143#6B6B00C2
(1728485337.815485) vcan0 095#800007F400000035
(1728485337.816745) vcan0 1A4#0000000800000001
(1728485337.816758) vcan0 1AA#7FFF000000006702
(1728485337.816764) vcan0 1B0#000F0000000148
(1728485337.816770) vcan0 1D0#000000000000000A
(1728485337.818430) vcan0 166#D0320009
(1728485337.819992) vcan0 158#000000000000000A
(1728485337.820015) vcan0 161#000005500108000D
(1728485337.820022) vcan0 191#010010A1410038
(1728485337.820027) vcan0 18E#00005C
(1728485337.820033) vcan0 133#0000000098
(1728485337.821262) vcan0 136#000200000000001B
(1728485337.821277) vcan0 13A#0000000000000019
(1728485337.821282) vcan0 13F#000000050000001F
(1728485337.821289) vcan0 164#0000C01AA8000031
(1728485337.821294) vcan0 17C#0000000010000012
(1728485337.823764) vcan0 183#0000000900001011
(1728485337.823778) vcan0 143#6B6B00D1
(1728485337.823857) vcan0 244#0000000119
(1728485337.825341) vcan0 095#800007F400000008
(1728485337.828104) vcan0 166#D0320018
(1728485337.830212) vcan0 158#0000000000000019
(1728485337.830228) vcan0 161#000005500108001C
(1728485337.830261) vcan0 039#002A
(1728485337.830267) vcan0 164#0000C01AA8000004
(1728485337.830272) vcan0 191#010010A141000B
(1728485337.830277) vcan0 133#00000000A7
(1728485337.830283) vcan0 136#000200000000002A
(1728485337.832037) vcan0 13A#0000000000000028
(1728485337.832051) vcan0 13F#000000050000002E
(1728485337.832056) vcan0 17C#0000000010000021
(1728485337.832061) vcan0 18E#00006B
(1728485337.832066) vcan0 1CF#80050000003C
(1728485337.832071) vcan0 1DC#02000039
(1728485337.832076) vcan0 183#0000000E0000102B
(1728485337.833841) vcan0 143#6B6B00E0
(1728485337.835979) vcan0 244#0000000177
(1728485337.836571) vcan0 095#800007F400000017
(1728485337.836585) vcan0 1A4#0000000800000010
(1728485337.836591) vcan0 1AA#7FFF000000006810
(1728485337.836597) vcan0 1B0#000F0000000157
(1728485337.836602) vcan0 1D0#000000000000000A
(1728485337.837894) vcan0 166#D0320027
(1728485337.839808) vcan0 158#0000000000000028
(1728485337.839821) vcan0 161#000005500108002B
(1728485337.839827) vcan0 191#010010A141001A
(1728485337.839832) vcan0 164#0000C01AA8000013
(1728485337.840891) vcan0 133#00000000B6
(1728485337.840913) vcan0 136#0002000000000039
(1728485337.840919) vcan0 13A#0000000000000037
(1728485337.840924) vcan0 13F#000000050000003D
(1728485337.842762) vcan0 17C#0000000010000030
(1728485337.842774) vcan0 18E#00007A
(1728485337.842780) vcan0 294#040B0002CF5A000E
(1728485337.842787) vcan0 21E#03E83745220601
(1728485337.842792) vcan0 309#00000000000000B1
(1728485337.842798) vcan0 183#0000000A0000103E
(1728485337.842804) vcan0 039#0039
(1728485337.844702) vcan0 143#6B6B00FF
(1728485337.845747) vcan0 095#800007F400000026
(1728485337.846601) vcan0 244#0000000130
(1728485337.848588) vcan0 166#D0320036
(1728485337.849610) vcan0 158#0000000000000037
(1728485337.849617) vcan0 161#000005500108003A
(1728485337.849624) vcan0 191#010010A1410029
(1728485337.851454) vcan0 164#0000C01AA8000022
(1728485337.851463) vcan0 133#0000000089
(1728485337.851466) vcan0 136#000200000000000C
(1728485337.851468) vcan0 13A#000000000000000A
(1728485337.851470) vcan0 13F#0000000500000000
(1728485337.851472) vcan0 17C#0000000010000003
(1728485337.851474) vcan0 18E#00004D
(1728485337.851480) vcan0 1CF#80050000000F
(1728485337.851482) vcan0 1DC#0200000C
(1728485337.852722) vcan0 183#0000000700001004
(1728485337.854374) vcan0 143#6B6B00C2
(1728485337.855402) vcan0 095#800007F400000035
(1728485337.856421) vcan0 1A4#000000080000002F
(1728485337.856431) vcan0 1AA#7FFF00000000682F
(1728485337.856433) vcan0 1B0#000F0000000166
(1728485337.856436) vcan0 039#000C
(1728485337.857462) vcan0 1D0#000000000000000A
(1728485337.859358) vcan0 166#D0320009
(1728485337.859368) vcan0 158#000000000000000A
(1728485337.859370) vcan0 161#000005500108000D
(1728485337.860398) vcan0 191#010010A1410038
(1728485337.860406) vcan0 18E#00005C
(1728485337.860408) vcan0 133#0000000098
(1728485337.860410) vcan0 136#000200000000001B
(1728485337.861438) vcan0 13A#0000000000000019
(1728485337.861443) vcan0 13F#000000050000001F
(1728485337.861446) vcan0 164#0000C01AA8000031
(1728485337.861449) vcan0 17C#0000000010000012
(1728485337.863180) vcan0 183#0000000D0000101D
(1728485337.863325) vcan0 244#000000013F
(1728485337.864199) vcan0 143#6B6B00D1
(1728485337.865332) vcan0 095#800007F400000008
(1728485337.868069) vcan0 166#D0320018
(1728485337.869097) vcan0 158#0000000000000019
(1728485337.870123) vcan0 161#000005500108001C
(1728485337.870131) vcan0 191#010010A141000B
(1728485337.870133) vcan0 164#0000C01AA8000004
(1728485337.870136) vcan0 133#00000000A7
(1728485337.870138) vcan0 136#000200000000002A
(1728485337.871153) vcan0 13A#0000000000000028
(1728485337.871158) vcan0 13F#000000050000002E
(1728485337.871161) vcan0 17C#0000000010000021
(1728485337.871163) vcan0 18E#00006B
(1728485337.872175) vcan0 1CF#80050000001E
(1728485337.872181) vcan0 1DC#0200001B
(1728485337.872184) vcan0 183#0000000900001020
(1728485337.873199) vcan0 039#001B
(1728485337.873949) vcan0 244#0000000193
(1728485337.874264) vcan0 143#6B6B00E0
(1728485337.875421) vcan0 095#800007F400000017
(1728485337.876551) vcan0 1A4#000000080000003E
(1728485337.876584) vcan0 1AA#7FFF00000000673F
(1728485337.876589) vcan0 1B0#000F0000000175
(1728485337.876595) vcan0 1D0#000000000000000A
(1728485337.878826) vcan0 166#D0320027
(1728485337.879933) vcan0 158#0000000000000028
(1728485337.879949) vcan0 161#000005500108002B
(1728485337.879955) vcan0 191#010010A141001A
(1728485337.879960) vcan0 164#0000C01AA8000013
(1728485337.881059) vcan0 133#00000000B6
(1728485337.881075) vcan0 136#0002000000000039
(1728485337.881082) vcan0 13A#0000000000000037
(1728485337.881087) vcan0 13F#000000050000003D
(1728485337.881092) vcan0 17C#0000000010000030
(1728485337.882196) vcan0 18E#00007A
(1728485337.882208) vcan0 294#040B0002CF5A001D
(1728485337.882213) vcan0 21E#03E83745220610
(1728485337.883659) vcan0 183#0000000600001032
(1728485337.883677) vcan0 143#6B6B00FF
(1728485337.885798) vcan0 095#800007F400000026
(1728485337.888023) vcan0 166#D0320036
(1728485337.889156) vcan0 158#0000000000000037
(1728485337.889702) vcan0 244#00000001FA
(1728485337.890260) vcan0 161#000005500108003A
(1728485337.890271) vcan0 191#010010A1410029
(1728485337.890274) vcan0 164#0000C01AA8000022
(1728485337.890276) vcan0 133#0000000089
(1728485337.890278) vcan0 136#000200000000000C
(1728485337.891391) vcan0 13A#000000000000000A
(1728485337.891405) vcan0 13F#0000000500000000
(1728485337.891407) vcan0 17C#0000000010000003
(1728485337.891411) vcan0 18E#00004D
(1728485337.891413) vcan0 1CF#80050000002D
(1728485337.891416) vcan0 1DC#0200002A
(1728485337.893428) vcan0 183#0000000C0000100F
(1728485337.893440) vcan0 039#002A
(1728485337.893442) vcan0 143#6B6B00C2
(1728485337.894477) vcan0 333#0000000000003C
(1728485337.896266) vcan0 095#800007F400000035
(1728485337.896274) vcan0 1A4#0000000800000001
(1728485337.896277) vcan0 1AA#7FFF000000006702
(1728485337.896279) vcan0 1B0#000F0000000148
(1728485337.897342) vcan0 1D0#000000000000000A
(1728485337.898401) vcan0 166#D0320009
(1728485337.900195) vcan0 158#000000000000000A
(1728485337.900214) vcan0 161#000005500108000D
(1728485337.900222) vcan0 191#010010A1410038
(1728485337.900224) vcan0 18E#00005C
(1728485337.900229) vcan0 133#0000000098
(1728485337.900231) vcan0 136#000200000000001B
(1728485337.902156) vcan0 13A#0000000000000019
(1728485337.902164) vcan0 13F#000000050000001F
(1728485337.902167) vcan0 164#0000C01AA8000031
(1728485337.902169) vcan0 17C#0000000010000012
(1728485337.903239) vcan0 183#0000000900001011
(1728485337.903250) vcan0 143#6B6B00D1
(1728485337.906018) vcan0 305#8008
(1728485337.906028) vcan0 095#800007F400000008
(1728485337.906139) vcan0 244#0000000197
(1728485337.908175) vcan0 166#D0320018
(1728485337.909958) vcan0 158#0000000000000019
(1728485337.909982) vcan0 161#000005500108001C
(1728485337.909991) vcan0 191#010090A1410003
(1728485337.909999) vcan0 164#0000C01AA8000004
(1728485337.910005) vcan0 133#00000000A7
(1728485337.911904) vcan0 136#000200000000002A
(1728485337.911922) vcan0 13A#0000000000000028
(1728485337.911931) vcan0 13F#000000050000002E
(1728485337.911936) vcan0 17C#0000000010000021
(1728485337.911942) vcan0 18E#00006B
(1728485337.911949) vcan0 1CF#80050000003C
(1728485337.911954) vcan0 1DC#02000039
(1728485337.911959) vcan0 320#000030
(1728485337.911964) vcan0 324#7465000000000E38
(1728485337.913764) vcan0 183#0000000E0000102B
(1728485337.913783) vcan0 37C#FD00FD00097F0038
(1728485337.913789) vcan0 039#0039
(1728485337.913795) vcan0 143#6B6B00E0
(1728485337.916716) vcan0 095#800007F400000017
(1728485337.916733) vcan0 1A4#0000000800000010
(1728485337.916739) vcan0 1AA#7FFF000000006810
(1728485337.916745) vcan0 1B0#000F0000000157
(1728485337.916751) vcan0 1D0#000000000000000A
(1728485337.916991) vcan0 244#000000018E
(1728485337.917775) vcan0 166#D0320027
(1728485337.919666) vcan0 158#0000000000000028
(1728485337.919684) vcan0 161#000005500108002B
(1728485337.919691) vcan0 191#010090A1410012
(1728485337.921555) vcan0 133#00000000B6
(1728485337.921570) vcan0 136#0002000000000039
(1728485337.921575) vcan0 13A#0000000000000037
(1728485337.921582) vcan0 13F#000000050000003D
(1728485337.921587) vcan0 164#0000C01AA8000013
(1728485337.921618) vcan0 17C#0000000010000030
(1728485337.921626) vcan0 18E#00007A
(1728485337.921631) vcan0 294#040B0002CF5A002C
(1728485337.923599) vcan0 21E#03E8374522062F
(1728485337.923620) vcan0 183#0000000A0000103E
(1728485337.923626) vcan0 143#6B6B00FF
(1728485337.926432) vcan0 095#800007F400000026
(1728485337.926458) vcan0 039#000C
(1728485337.928369) vcan0 244#00000001D0
(1728485337.928385) vcan0 166#D0320036
(1728485337.930299) vcan0 158#0000000000000037
(1728485337.930310) vcan0 161#000005500108003A
(1728485337.930313) vcan0 191#010090A1410021
(1728485337.930315) vcan0 164#0000C01AA8000022
(1728485337.930318) vcan0 133#0000000089
(1728485337.930320) vcan0 136#000200000000000C
(1728485337.932262) vcan0 13A#000000000000000A
(1728485337.932273) vcan0 13F#0000000500000000
(1728485337.932276) vcan0 17C#0000000010000003
(1728485337.932278) vcan0 18E#00004D
(1728485337.932281) vcan0 1CF#80050000000F
(1728485337.932283) vcan0 1DC#0200000C
(1728485337.932285) vcan0 183#0000000F0000100C
(1728485337.934295) vcan0 143#6B6B00C2
(1728485337.936089) vcan0 095#800007F400000035
(1728485337.936099) vcan0 1A4#000000080000002F
(1728485337.936102) vcan0 1AA#7FFF00000000682F
(1728485337.937112) vcan0 1B0#000F0000000166
(1728485337.937122) vcan0 1D0#000000000000000A
(1728485337.939064) vcan0 166#D0320009
(1728485337.939073) vcan0 158#000000000000000A
(1728485337.940101) vcan0 244#000000013D
(1728485337.940111) vcan0 161#000005500108000D
(1728485337.940114) vcan0 191#010090A1410030
(1728485337.940118) vcan0 18E#00005C
(1728485337.940120) vcan0 133#0000000098
(1728485337.941305) vcan0 136#000200000000001B
(1728485337.941324) vcan0 13A#0000000000000019
(1728485337.941327) vcan0 13F#000000050000001F
(1728485337.941329) vcan0 164#0000C01AA8000031
(1728485337.941331) vcan0 17C#0000000010000012
(1728485337.941334) vcan0 039#001B
(1728485337.943022) vcan0 309#0000000000000084
(1728485337.943030) vcan0 183#0000000B0000101F
(1728485337.944233) vcan0 143#6B6B00D1
(1728485337.945977) vcan0 095#800007F400000008
(1728485337.947960) vcan0 166#D0320018
(1728485337.949836) vcan0 158#0000000000000019
(1728485337.949847) vcan0 161#000005500108001C
(1728485337.949849) vcan0 191#010090A1410003
(1728485337.949852) vcan0 164#0000C01AA8000004
(1728485337.951830) vcan0 133#00000000A7
(1728485337.951843) vcan0 136#000200000000002A
(1728485337.951846) vcan0 13A#0000000000000028
(1728485337.951848) vcan0 13F#000000050000002E
(1728485337.951850) vcan0 17C#0000000010000021
(1728485337.951853) vcan0 18E#00006B
(1728485337.951855) vcan0 1CF#80050000001E
(1728485337.951857) vcan0 1DC#0200001B
(1728485337.952115) vcan0 244#000000012A
(1728485337.953775) vcan0 183#0000000800001021
(1728485337.953784) vcan0 143#6B6B00E0
(1728485337.955761) vcan0 095#800007F400000017
(1728485337.955771) vcan0 039#002A
(1728485337.956796) vcan0 1A4#000000080000003E
(1728485337.956808) vcan0 1AA#7FFF00000000673F
(1728485337.956810) vcan0 1B0#000F0000000175
(1728485337.956812) vcan0 1D0#000000000000000A
(1728485337.958608) vcan0 166#D0320027
(1728485337.959641) vcan0 158#0000000000000028
(1728485337.959648) vcan0 161#000005500108002B
(1728485337.959650) vcan0 191#010090A1410012
(1728485337.960664) vcan0 133#00000000B6
(1728485337.960670) vcan0 136#0002000000000039
(1728485337.960673) vcan0 13A#0000000000000037
(1728485337.960675) vcan0 13F#000000050000003D
(1728485337.961691) vcan0 164#0000C01AA8000013
(1728485337.961699) vcan0 17C#0000000010000030
(1728485337.961717) vcan0 18E#00007A
(1728485337.961719) vcan0 294#040B0002CF5A003B
(1728485337.961722) vcan0 21E#03E8374522063E
(1728485337.963453) vcan0 183#0000000600001032
(1728485337.963460) vcan0 143#6B6B00FF
(1728485337.963602) vcan0 244#00000001E3
(1728485337.966395) vcan0 095#800007F400000026
(1728485337.968338) vcan0 166#D0320036
(1728485337.970254) vcan0 158#0000000000000037
(1728485337.970264) vcan0 161#000005500108003A
(1728485337.970266) vcan0 039#0039
(1728485337.970268) vcan0 191#010090A1410021
(1728485337.970271) vcan0 164#0000C01AA8000022
(1728485337.970273) vcan0 133#0000000089
(1728485337.970275) vcan0 136#000200000000000C
(1728485337.971291) vcan0 13A#000000000000000A
(1728485337.971299) vcan0 13F#0000000500000000
(1728485337.971301) vcan0 17C#0000000010000003
(1728485337.971303) vcan0 18E#00004D
(1728485337.972321) vcan0 1CF#80050000002D
(1728485337.972330) vcan0 1DC#0200002A
(1728485337.972332) vcan0 183#0000000400001007
(1728485337.973348) vcan0 143#6B6B00C2
(1728485337.975370) vcan0 095#800007F400000035
(1728485337.977161) vcan0 1A4#0000000800000001
(1728485337.977173) vcan0 1AA#7FFF000000006702
(1728485337.977175) vcan0 1B0#000F0000000148
(1728485337.977178) vcan0 1D0#000000000000000A
(1728485337.978235) vcan0 166#D0320009
(1728485337.979249) vcan0 158#000000000000000A
(1728485337.979256) vcan0 161#000005500108000D
(1728485337.980092) vcan0 244#0000000107
(1728485337.980277) vcan0 191#010090A1410030
(1728485337.980282) vcan0 164#0000C01AA8000031
(1728485337.980285) vcan0 133#0000000098
(1728485337.980287) vcan0 136#000200000000001B
(1728485337.981869) vcan0 13A#0000000000000019
(1728485337.981876) vcan0 13F#000000050000001F
(1728485337.981878) vcan0 17C#0000000010000012
(1728485337.981881) vcan0 18E#00005C
(1728485337.982917) vcan0 183#0000000300001017
(1728485337.983949) vcan0 143#6B6B00D1
(1728485337.985760) vcan0 039#000C
(1728485337.985773) vcan0 095#800007F400000008
(1728485337.988722) vcan0 166#D0320018
(1728485337.989752) vcan0 158#0000000000000019
(1728485337.989764) vcan0 161#000005500108001C
(1728485337.989782) vcan0 191#010090A1410003
(1728485337.990806) vcan0 164#0000C01AA8000004
(1728485337.990822) vcan0 133#00000000A7
(1728485337.990825) vcan0 136#000200000000002A
(1728485337.990827) vcan0 13A#0000000000000028
(1728485337.990829) vcan0 13F#000000050000002E
(1728485337.990987) vcan0 244#000000010B
(1728485337.991847) vcan0 17C#0000000010000021
(1728485337.991855) vcan0 18E#00006B
(1728485337.991867) vcan0 1CF#80050000003C
(1728485337.991869) vcan0 1DC#02000039
(1728485337.993549) vcan0 183#0000000A0000102F
(1728485337.993558) vcan0 143#6B6B00E0
(1728485337.994574) vcan0 333#0000000000000F
(1728485337.996480) vcan0 095#800007F400000017
(1728485337.996487) vcan0 1A4#0000000800000010
(1728485337.996489) vcan0 1AA#7FFF000000006810
(1728485337.996491) vcan0 1B0#000F0000000157
(1728485337.996494) vcan0 1D0#000000000000000A
(1728485337.999426) vcan0 166#D0320027
(1728485337.999435) vcan0 158#0000000000000028
(1728485337.999437) vcan0 161#000005500108002B
(1728485338.000453) vcan0 191#010090A1410012
(1728485338.000459) vcan0 133#00000000B6
(1728485338.000462) vcan0 136#0002000000000039
(1728485338.000464) vcan0 13A#0000000000000037
(1728485338.001487) vcan0 13F#000000050000003D
(1728485338.001493) vcan0 164#0000C01AA8000013
(1728485338.001495) vcan0 17C#0000000010000030
(1728485338.001497) vcan0 18E#00007A
(1728485338.001499) vcan0 294#040B0002CF5A000E
(1728485338.002338) vcan0 244#00000001B4
(1728485338.002701) vcan0 21E#03E83745220601
(1728485338.002706) vcan0 039#001B
(1728485338.002708) vcan0 183#0000000700001031
(1728485338.004249) vcan0 143#6B6B00FF
(1728485338.005282) vcan0 095#800007F400000026
(1728485338.008334) vcan0 166#D0320036
(1728485338.008347) vcan0 305#8017
(1728485338.009361) vcan0 158#0000000000000037
(1728485338.009369) vcan0 161#000005500108003A
(1728485338.010382) vcan0 191#010090A1410021
(1728485338.010390) vcan0 164#0000C01AA8000022
(1728485338.010393) vcan0 133#0000000089
(1728485338.010395) vcan0 136#000200000000000C
(1728485338.011406) vcan0 13A#000000000000000A
(1728485338.011415) vcan0 13F#0000000500000000
(1728485338.011417) vcan0 17C#0000000010000003
(1728485338.011419) vcan0 18E#00004D
(1728485338.011421) vcan0 1CF#80050000000F
(1728485338.013005) vcan0 1DC#0200000C
(1728485338.013014) vcan0 320#000003
(1728485338.013016) vcan0 324#7465000000000E0B
(1728485338.013019) vcan0 183#0000000D0000100E
(1728485338.013021) vcan0 37C#FD00FD00097F000B
(1728485338.013025) vcan0 40C#033133383439000D
(1728485338.013027) vcan0 454#23EF09
(1728485338.013138) vcan0 244#0000000168
(1728485338.014040) vcan0 143#6B6B00C2
(1728485338.015957) vcan0 095#800007F400000035
(1728485338.015965) vcan0 1A4#000000080000002F
(1728485338.016979) vcan0 1AA#7FFF00000000682F
(1728485338.016985) vcan0 1B0#000F0000000166
(1728485338.016987) vcan0 039#002A
(1728485338.016989) vcan0 1D0#000000000000000A
(1728485338.018013) vcan0 166#D0320009
(1728485338.019896) vcan0 158#000000000000000A
(1728485338.019903) vcan0 161#000005500108000D
(1728485338.019906) vcan0 191#010090A1410030
(1728485338.019908) vcan0 18E#00005C
(1728485338.019910) vcan0 133#0000000098
(1728485338.020922) vcan0 136#000200000000001B
(1728485338.020927) vcan0 13A#0000000000000019
(1728485338.020929) vcan0 13F#000000050000001F
(1728485338.020931) vcan0 164#0000C01AA8000031
(1728485338.022789) vcan0 17C#0000000010000012
(1728485338.022798) vcan0 183#0000000900001011
(1728485338.024660) vcan0 244#000000016A
(1728485338.025073) vcan0 143#6B6B00D1
(1728485338.025079) vcan0 095#800007F400000008
(1728485338.028579) vcan0 166#D0320018
(1728485338.029603) vcan0 158#0000000000000019
(1728485338.029610) vcan0 161#000005500108001C
(1728485338.029612) vcan0 191#010090A1410003
(1728485338.031623) vcan0 164#0000C01AA8000004
(1728485338.031631) vcan0 133#00000000A7
(1728485338.031633) vcan0 039#0039
(1728485338.031635) vcan0 136#000200000000002A
(1728485338.031637) vcan0 13A#0000000000000028
(1728485338.031640) vcan0 13F#000000050000002E
(1728485338.031642) vcan0 17C#0000000010000021
(1728485338.031644) vcan0 18E#00006B
(1728485338.031647) vcan0 1CF#80050000001E
(1728485338.031651) vcan0 1DC#0200001B
(1728485338.032665) vcan0 183#0000000600001023
(1728485338.033680) vcan0 143#6B6B00E0
(1728485338.036367) vcan0 095#800007F400000017
(1728485338.036378) vcan0 1A4#000000080000003E
(1728485338.036382) vcan0 1AA#7FFF00000000673F
