(1728485916.526849) vcan0 164#0000C01AA8000022
(1728485916.526860) vcan0 133#0000000089
(1728485916.526862) vcan0 136#000200000000000C
(1728485916.526865) vcan0 13A#000000000000000A
(1728485916.526867) vcan0 13F#0000000500000000
(1728485916.526869) vcan0 17C#0000000010000003
(1728485916.526871) vcan0 18E#00004D
(1728485916.526874) vcan0 1CF#80050000000F
(1728485916.527973) vcan0 1DC#0200000C
(1728485916.527983) vcan0 183#0000000C0000100F
(1728485916.529719) vcan0 143#6B6B00C2
(1728485916.531629) vcan0 095#800007F400000035
(1728485916.531639) vcan0 1A4#000000080000002F
(1728485916.533608) vcan0 1AA#7FFF000000006720
(1728485916.533616) vcan0 1B0#000F0000000166
(1728485916.533618) vcan0 1D0#000000000000000A
(1728485916.533620) vcan0 166#D0320009
(1728485916.535581) vcan0 244#000000017A
(1728485916.535598) vcan0 158#000000000000000A
(1728485916.535604) vcan0 161#000005500108000D
(1728485916.535606) vcan0 191#010010A1410038
(1728485916.535608) vcan0 039#001B
(1728485916.535610) vcan0 133#0000000098
(1728485916.536874) vcan0 136#000200000000001B
(1728485916.536885) vcan0 13A#0000000000000019
(1728485916.536887) vcan0 13F#000000050000001F
(1728485916.536889) vcan0 164#0000C01AA8000031
(1728485916.536892) vcan0 17C#0000000010000012
(1728485916.536897) vcan0 18E#00005C
(1728485916.539434) vcan0 183#0000001000001019
(1728485916.539444) vcan0 143#6B6B00D1
(1728485916.542345) vcan0 095#800007F400000008
(1728485916.544370) vcan0 166#D0320018
(1728485916.545383) vcan0 158#0000000000000019
(1728485916.545389) vcan0 161#000005500108001C
(1728485916.545391) vcan0 191#010010A141000B
(1728485916.545394) vcan0 133#00000000A7
(1728485916.546403) vcan0 136#000200000000002A
(1728485916.546411) vcan0 13A#0000000000000028
(1728485916.546413) vcan0 13F#000000050000002E
(1728485916.546415) vcan0 164#0000C01AA8000004
(1728485916.547423) vcan0 17C#0000000010000021
(1728485916.547429) vcan0 18E#00006B
(1728485916.547432) vcan0 1CF#80050000001E
(1728485916.547434) vcan0 1DC#0200001B
(1728485916.548444) vcan0 183#0000000C0000102D
(1728485916.550363) vcan0 143#6B6B00E0
(1728485916.550374) vcan0 039#002A
(1728485916.550378) vcan0 305#8035
(1728485916.551076) vcan0 244#000000019B
(1728485916.552163) vcan0 095#800007F400000017
(1728485916.552192) vcan0 1A4#000000080000003E
(1728485916.552197) vcan0 1AA#7FFF00000000673F
(1728485916.552200) vcan0 1B0#000F0000000175
(1728485916.552202) vcan0 1D0#000000000000000A
(1728485916.554603) vcan0 166#D0320027
(1728485916.555648) vcan0 158#0000000000000028
(1728485916.555660) vcan0 161#000005500108002B
(1728485916.555662) vcan0 191#010010A141001A
(1728485916.555664) vcan0 133#00000000B6
(1728485916.555667) vcan0 136#0002000000000039
(1728485916.557517) vcan0 13A#0000000000000037
(1728485916.557523) vcan0 13F#000000050000003D
(1728485916.557525) vcan0 164#0000C01AA8000013
(1728485916.557527) vcan0 17C#0000000010000030
(1728485916.557529) vcan0 18E#00007A
(1728485916.557531) vcan0 294#040B0002CF5A001D
(1728485916.557534) vcan0 21E#03E83745220610
(1728485916.559421) vcan0 183#000000090000103F
(1728485916.559430) vcan0 143#6B6B00FF
(1728485916.563439) vcan0 244#0000000168
(1728485916.563510) vcan0 095#800007F400000026
(1728485916.563516) vcan0 166#D0320036
(1728485916.565371) vcan0 039#0039
(1728485916.565382) vcan0 158#0000000000000037
(1728485916.565384) vcan0 161#000005500108003A
(1728485916.565386) vcan0 191#010010A1410029
(1728485916.565388) vcan0 133#0000000089
(1728485916.566459) vcan0 136#000200000000000C
(1728485916.566471) vcan0 13A#000000000000000A
(1728485916.566473) vcan0 13F#0000000500000000
(1728485916.566476) vcan0 164#0000C01AA9000021
(1728485916.568084) vcan0 17C#0000000010000003
(1728485916.568108) vcan0 18E#00004D
(1728485916.568112) vcan0 1CF#80050000002D
(1728485916.568114) vcan0 1DC#0200002A
(1728485916.568117) vcan0 183#0000000E0000100D
(1728485916.569217) vcan0 143#6B6B00C2
(1728485916.570339) vcan0 333#0000000000003C
(1728485916.572106) vcan0 095#800007F400000035
(1728485916.572114) vcan0 1A4#0000000800000001
(1728485916.572116) vcan0 1AA#7FFF000000006801
(1728485916.572118) vcan0 1B0#000F0000000148
(1728485916.573165) vcan0 1D0#000000000000000A
(1728485916.575163) vcan0 166#D0320009
(1728485916.575175) vcan0 158#000000000000000A
(1728485916.575177) vcan0 161#000005500108000D
(1728485916.575179) vcan0 191#010010A1410038
(1728485916.577047) vcan0 133#0000000098
(1728485916.577057) vcan0 136#000200000000001B
(1728485916.577060) vcan0 13A#0000000000000019
(1728485916.577062) vcan0 13F#000000050000001F
(1728485916.577064) vcan0 164#0000C01AA8000031
(1728485916.577067) vcan0 17C#0000000010000012
(1728485916.577072) vcan0 18E#00005C
(1728485916.578922) vcan0 039#000C
(1728485916.578934) vcan0 183#0000000A00001010
(1728485916.578936) vcan0 143#6B6B00D1
(1728485916.579860) vcan0 244#0000000143
(1728485916.581852) vcan0 095#800007F400000008
(1728485916.583849) vcan0 166#D0320018
(1728485916.585782) vcan0 158#0000000000000019
(1728485916.585792) vcan0 161#000005500108001C
(1728485916.585795) vcan0 191#010010A141000B
(1728485916.585797) vcan0 133#00000000A7
(1728485916.585799) vcan0 136#000200000000002A
(1728485916.586871) vcan0 13A#0000000000000028
(1728485916.586888) vcan0 13F#000000050000002E
(1728485916.586892) vcan0 164#0000C01AA8000004
(1728485916.586896) vcan0 17C#0000000010000021
(1728485916.586902) vcan0 18E#00006B
(1728485916.587961) vcan0 1CF#80050000003C
(1728485916.587980) vcan0 1DC#02000039
(1728485916.587982) vcan0 320#000030
(1728485916.587985) vcan0 324#7465000000000E38
(1728485916.587987) vcan0 37C#FD00FD00097F0038
(1728485916.587990) vcan0 40C#0000000004000013
(1728485916.589627) vcan0 183#0000000F0000102A
(1728485916.589634) vcan0 454#23EF18
(1728485916.589637) vcan0 143#6B6B00E0
(1728485916.591658) vcan0 244#00000001FF
(1728485916.591672) vcan0 095#800007F400000017
(1728485916.591676) vcan0 1A4#0000000800000010
(1728485916.591678) vcan0 1AA#7FFF000000006810
(1728485916.593519) vcan0 1B0#000F0000000157
(1728485916.593526) vcan0 1D0#000000000000000A
(1728485916.593529) vcan0 166#D0320027
(1728485916.595476) vcan0 158#0000000000000028
(1728485916.595489) vcan0 161#000005500108002B
(1728485916.595492) vcan0 191#010010A141001A
(1728485916.595494) vcan0 133#00000000B6
(1728485916.597623) vcan0 136#0002000000000039
(1728485916.597630) vcan0 13A#0000000000000037
(1728485916.597632) vcan0 13F#000000050000003D
(1728485916.597634) vcan0 164#0000C01AA9000012
(1728485916.597636) vcan0 17C#0000000010000030
(1728485916.597638) vcan0 18E#00007A
(1728485916.597641) vcan0 294#040B0002CF5A002C
(1728485916.597643) vcan0 039#001B
(1728485916.597648) vcan0 21E#03E8374522062F
(1728485916.600348) vcan0 183#0000001300001034
(1728485916.600353) vcan0 143#6B6B00FF
(1728485916.601474) vcan0 095#800007F400000026
(1728485916.603264) vcan0 244#00000001F8
(1728485916.605271) vcan0 166#D0320036
(1728485916.605285) vcan0 158#0000000000000037
(1728485916.605288) vcan0 161#000005500108003A
(1728485916.605292) vcan0 191#010010A1410029
(1728485916.607219) vcan0 164#0000C01AA8000022
(1728485916.607229) vcan0 133#0000000089
(1728485916.607232) vcan0 136#000200000000000C
(1728485916.607234) vcan0 13A#000000000000000A
(1728485916.607236) vcan0 13F#0000000500000000
(1728485916.607240) vcan0 17C#0000000010000003
(1728485916.607244) vcan0 18E#00004D
(1728485916.607247) vcan0 1CF#80050000000F
(1728485916.607249) vcan0 1DC#0200000C
(1728485916.608319) vcan0 183#0000000E0000100D
(1728485916.610131) vcan0 143#6B6B00C2
(1728485916.611308) vcan0 095#800007F400000035
(1728485916.612330) vcan0 1A4#000000080000002F
(1728485916.612338) vcan0 1AA#7FFF000000006720
(1728485916.612340) vcan0 1B0#000F0000000166
(1728485916.612343) vcan0 1D0#000000000000000A
(1728485916.613934) vcan0 166#D0320009
(1728485916.614955) vcan0 158#000000000000000A
(1728485916.614963) vcan0 161#000005500108000D
(1728485916.615978) vcan0 191#010010A1410038
(1728485916.615985) vcan0 133#0000000098
(1728485916.615988) vcan0 136#000200000000001B
(1728485916.615990) vcan0 13A#0000000000000019
(1728485916.618060) vcan0 13F#000000050000001F
(1728485916.618073) vcan0 164#0000C01AA8000031
(1728485916.618075) vcan0 17C#0000000010000012
(1728485916.618077) vcan0 18E#00005C
(1728485916.618079) vcan0 309#0000000000000084
(1728485916.618081) vcan0 428#01040000521C2F
(1728485916.618083) vcan0 405#0000040000000029
(1728485916.618085) vcan0 039#002A
(1728485916.619398) vcan0 244#000000010F
(1728485916.619416) vcan0 183#0000001200001017
(1728485916.619422) vcan0 143#6B6B00D1
(1728485916.622701) vcan0 095#800007F400000008
(1728485916.624660) vcan0 166#D0320018
(1728485916.624670) vcan0 158#0000000000000019
(1728485916.626649) vcan0 161#000005500108001C
(1728485916.626660) vcan0 191#010010A141000B
(1728485916.626662) vcan0 164#0000C01AA8000004
(1728485916.626664) vcan0 133#00000000A7
(1728485916.626667) vcan0 136#000200000000002A
(1728485916.626669) vcan0 13A#0000000000000028
(1728485916.626671) vcan0 13F#000000050000002E
(1728485916.626676) vcan0 17C#0000000010000021
(1728485916.626678) vcan0 18E#00006B
(1728485916.628656) vcan0 1CF#80050000001E
(1728485916.628666) vcan0 1DC#0200001B
(1728485916.628669) vcan0 183#0000000D0000102C
(1728485916.629734) vcan0 143#6B6B00E0
(1728485916.631516) vcan0 095#800007F400000017
(1728485916.631526) vcan0 039#0039
(1728485916.631528) vcan0 1A4#000000080000003E
(1728485916.633416) vcan0 1AA#7FFF00000000683E
(1728485916.633424) vcan0 1B0#000F0000000175
(1728485916.633426) vcan0 1D0#000000000000000A
(1728485916.633429) vcan0 166#D0320027
(1728485916.635072) vcan0 244#00000001B8
(1728485916.635539) vcan0 158#0000000000000028
(1728485916.635546) vcan0 161#000005500108002B
(1728485916.635549) vcan0 191#010010A141001A
(1728485916.635551) vcan0 133#00000000B6
(1728485916.637304) vcan0 136#0002000000000039
(1728485916.637315) vcan0 13A#0000000000000037
(1728485916.637317) vcan0 13F#000000050000003D
(1728485916.637319) vcan0 164#0000C01AA8000013
(1728485916.637321) vcan0 17C#0000000010000030
(1728485916.637323) vcan0 18E#00007A
(1728485916.637325) vcan0 294#040B0002CF5A003B
(1728485916.637327) vcan0 21E#03E8374522063E
(1728485916.640301) vcan0 183#000000090000103F
(1728485916.640312) vcan0 143#6B6B00FF
(1728485916.642271) vcan0 095#800007F400000026
(1728485916.644151) vcan0 166#D0320036
(1728485916.646067) vcan0 158#0000000000000037
(1728485916.646077) vcan0 161#000005500108003A
(1728485916.646079) vcan0 191#010010A1410029
(1728485916.646082) vcan0 164#0000C01AA8000022
(1728485916.646084) vcan0 133#0000000089
(1728485916.646086) vcan0 136#000200000000000C
(1728485916.646088) vcan0 13A#000000000000000A
(1728485916.647140) vcan0 244#00000001E9
(1728485916.647170) vcan0 13F#0000000500000000
(1728485916.647175) vcan0 17C#0000000010000003
(1728485916.647177) vcan0 18E#00004D
(1728485916.647179) vcan0 039#000C
(1728485916.647181) vcan0 1CF#80050000002D
(1728485916.647184) vcan0 1DC#0200002A
(1728485916.649067) vcan0 183#0000000E0000100D
(1728485916.649078) vcan0 143#6B6B00C2
(1728485916.652911) vcan0 095#800007F400000035
(1728485916.652925) vcan0 1A4#0000000800000001
(1728485916.652927) vcan0 1AA#7FFF000000006801
(1728485916.652929) vcan0 1B0#000F0000000148
(1728485916.652932) vcan0 1D0#000000000000000A
(1728485916.653978) vcan0 166#D0320009
(1728485916.655009) vcan0 305#8008
(1728485916.655042) vcan0 158#000000000000000A
(1728485916.655047) vcan0 161#000005500108000D
(1728485916.656501) vcan0 191#010010A1410038
(1728485916.656509) vcan0 133#0000000098
(1728485916.656511) vcan0 136#000200000000001B
(1728485916.656514) vcan0 13A#0000000000000019
(1728485916.656516) vcan0 13F#000000050000001F
(1728485916.656518) vcan0 164#0000C01AA8000031
(1728485916.658532) vcan0 17C#0000000010000012
(1728485916.658544) vcan0 18E#00005C
(1728485916.658547) vcan0 183#0000000A00001010
(1728485916.659435) vcan0 244#0000000177
(1728485916.659712) vcan0 143#6B6B00D1
(1728485916.661350) vcan0 095#800007F400000008
(1728485916.661358) vcan0 039#001B
(1728485916.665303) vcan0 166#D0320018
(1728485916.665312) vcan0 158#0000000000000019
(1728485916.665314) vcan0 161#000005500108001C
(1728485916.665317) vcan0 191#010010A141000B
(1728485916.665319) vcan0 133#00000000A7
(1728485916.666455) vcan0 136#000200000000002A
(1728485916.666467) vcan0 13A#0000000000000028
(1728485916.666469) vcan0 13F#000000050000002E
(1728485916.666472) vcan0 164#0000C01AA8000004
(1728485916.668201) vcan0 17C#0000000010000021
(1728485916.668211) vcan0 18E#00006B
(1728485916.668214) vcan0 1CF#80050000003C
(1728485916.668216) vcan0 1DC#02000039
(1728485916.668218) vcan0 183#0000000F0000102A
(1728485916.670134) vcan0 143#6B6B00E0
(1728485916.670145) vcan0 333#0000000000000F
(1728485916.671259) vcan0 095#800007F400000017
(1728485916.671296) vcan0 244#0000000180
(1728485916.673033) vcan0 1A4#0000000800000010
(1728485916.673040) vcan0 1AA#7FFF000000006810
(1728485916.673042) vcan0 1B0#000F0000000157
(1728485916.673044) vcan0 1D0#000000000000000A
(1728485916.675048) vcan0 166#D0320027
(1728485916.675058) vcan0 158#0000000000000028
(1728485916.675061) vcan0 161#000005500108002B
(1728485916.677009) vcan0 191#010010A141001A
(1728485916.677018) vcan0 133#00000000B6
(1728485916.677021) vcan0 136#0002000000000039
(1728485916.677023) vcan0 13A#0000000000000037
(1728485916.677025) vcan0 13F#000000050000003D
(1728485916.677028) vcan0 164#0000C01AA8000013
(1728485916.677030) vcan0 17C#0000000010000030
(1728485916.677032) vcan0 18E#00007A
(1728485916.677041) vcan0 294#040B0002CF5A000E
(1728485916.678921) vcan0 21E#03E83745220601
(1728485916.678931) vcan0 183#0000000B0000103D
(1728485916.678933) vcan0 143#6B6B00FF
(1728485916.681889) vcan0 095#800007F400000026
(1728485916.681895) vcan0 039#002A
(1728485916.683850) vcan0 244#0000000162
(1728485916.683917) vcan0 166#D0320036
(1728485916.684997) vcan0 158#0000000000000037
(1728485916.685008) vcan0 161#000005500108003A
(1728485916.686692) vcan0 191#010010A1410029
(1728485916.686704) vcan0 133#0000000089
(1728485916.686706) vcan0 136#000200000000000C
(1728485916.686708) vcan0 13A#000000000000000A
(1728485916.686710) vcan0 13F#0000000500000000
(1728485916.686713) vcan0 164#0000C01AA8000022
(1728485916.686715) vcan0 17C#0000000010000003
(1728485916.686719) vcan0 18E#00004D
(1728485916.688696) vcan0 1CF#80050000000F
(1728485916.688704) vcan0 1DC#0200000C
(1728485916.688706) vcan0 320#000003
(1728485916.688708) vcan0 324#7465000000000E0B
(1728485916.688710) vcan0 37C#FD00FD00097F000B
(1728485916.688713) vcan0 183#0000000800001003
(1728485916.690531) vcan0 143#6B6B00C2
(1728485916.692506) vcan0 095#800007F400000035
(1728485916.692516) vcan0 1A4#000000080000002F
(1728485916.692518) vcan0 1AA#7FFF000000006720
(1728485916.692521) vcan0 1B0#000F0000000166
(1728485916.692523) vcan0 1D0#000000000000000A
(1728485916.694416) vcan0 166#D0320009
(1728485916.694423) vcan0 039#0039
(1728485916.695506) vcan0 244#000000012A
(1728485916.695701) vcan0 158#000000000000000A
(1728485916.695708) vcan0 161#000005500108000D
(1728485916.695711) vcan0 191#010010A1410038
(1728485916.695713) vcan0 133#0000000098
(1728485916.695715) vcan0 136#000200000000001B
(1728485916.697431) vcan0 13A#0000000000000019
(1728485916.697442) vcan0 13F#000000050000001F
(1728485916.697444) vcan0 164#0000C01AA8000031
(1728485916.697446) vcan0 17C#0000000010000012
(1728485916.697448) vcan0 18E#00005C
(1728485916.699338) vcan0 183#0000000D0000101D
(1728485916.699348) vcan0 143#6B6B00D1
(1728485916.701247) vcan0 095#800007F400000008
(1728485916.705232) vcan0 166#D0320018
(1728485916.705246) vcan0 158#0000000000000019
(1728485916.705248) vcan0 161#000005500108001C
(1728485916.705250) vcan0 191#010010A141000B
(1728485916.707081) vcan0 164#0000C01AA9000003
(1728485916.707089) vcan0 133#00000000A7
(1728485916.707092) vcan0 136#000200000000002A
(1728485916.707094) vcan0 13A#0000000000000028
(1728485916.707096) vcan0 13F#000000050000002E
(1728485916.707099) vcan0 17C#0000000010000021
(1728485916.707101) vcan0 18E#00006B
(1728485916.707103) vcan0 1CF#80050000001E
(1728485916.707106) vcan0 1DC#0200001B
(1728485916.708129) vcan0 244#00000001C2
(1728485916.708605) vcan0 039#000C
(1728485916.708611) vcan0 183#0000000900001020
(1728485916.710002) vcan0 143#6B6B00E0
(1728485916.711078) vcan0 095#800007F400000017
(1728485916.712304) vcan0 1A4#000000080000003E
(1728485916.712314) vcan0 1AA#7FFF00000000683E
(1728485916.712317) vcan0 1B0#000F0000000175
(1728485916.712319) vcan0 1D0#000000000000000A
(1728485916.713906) vcan0 166#D0320027
(1728485916.714991) vcan0 158#0000000000000028
(1728485916.715010) vcan0 161#000005500108002B
(1728485916.716027) vcan0 191#010010A141001A
(1728485916.716038) vcan0 133#00000000B6
(1728485916.716041) vcan0 136#0002000000000039
(1728485916.716043) vcan0 13A#0000000000000037
(1728485916.717282) vcan0 13F#000000050000003D
(1728485916.717293) vcan0 164#0000C01AA8000013
(1728485916.717295) vcan0 17C#0000000010000030
(1728485916.717297) vcan0 18E#00007A
(1728485916.717299) vcan0 294#040B0002CF5A001D
(1728485916.717302) vcan0 21E#03E83745220610
(1728485916.718707) vcan0 309#0000000000000093
(1728485916.718719) vcan0 183#0000000E0000103A
(1728485916.718721) vcan0 143#6B6B00FF
(1728485916.721665) vcan0 095#800007F400000026
(1728485916.723608) vcan0 039#001B
(1728485916.723614) vcan0 166#D0320036
(1728485916.724679) vcan0 244#00000001D7
(1728485916.724788) vcan0 158#0000000000000037
(1728485916.726568) vcan0 161#000005500108003A
(1728485916.726582) vcan0 191#010010A1410029
(1728485916.726585) vcan0 133#0000000089
(1728485916.726588) vcan0 136#000200000000000C
(1728485916.726591) vcan0 13A#000000000000000A
(1728485916.726593) vcan0 13F#0000000500000000
(1728485916.726595) vcan0 164#0000C01AA8000022
(1728485916.726598) vcan0 17C#0000000010000003
(1728485916.727691) vcan0 18E#00004D
(1728485916.727698) vcan0 1CF#80050000002D
(1728485916.727705) vcan0 1DC#0200002A
(1728485916.729915) vcan0 183#0000000A00001001
(1728485916.729924) vcan0 143#6B6B00C2
(1728485916.730549) vcan0 188#00000000
(1728485916.732065) vcan0 095#800007F400000035
(1728485916.732077) vcan0 1A4#0000000800000001
(1728485916.732080) vcan0 1AA#7FFF000000006801
(1728485916.732082) vcan0 1B0#000F0000000148
(1728485916.733150) vcan0 1D0#000000000000000A
(1728485916.734265) vcan0 166#D0320009
(1728485916.735384) vcan0 158#000000000000000A
(1728485916.735396) vcan0 161#000005500108000D
(1728485916.735399) vcan0 191#010010A1410038
(1728485916.735401) vcan0 133#0000000098
(1728485916.736358) vcan0 244#0000000131
(1728485916.736726) vcan0 136#000200000000001B
(1728485916.736733) vcan0 13A#0000000000000019
(1728485916.736746) vcan0 13F#000000050000001F
(1728485916.736753) vcan0 164#0000C01AA8000031
(1728485916.736758) vcan0 17C#0000000010000012
(1728485916.736760) vcan0 18E#00005C
(1728485916.738273) vcan0 039#002A
(1728485916.738282) vcan0 183#0000000700001013
(1728485916.739323) vcan0 143#6B6B00D1
(1728485916.741133) vcan0 095#800007F400000008
(1728485916.744050) vcan0 166#D0320018
(1728485916.745086) vcan0 158#0000000000000019
(1728485916.745094) vcan0 161#000005500108001C
(1728485916.745096) vcan0 191#010010A141000B
(1728485916.746118) vcan0 164#0000C01AA8000004
(1728485916.746126) vcan0 133#00000000A7
(1728485916.746128) vcan0 136#000200000000002A
(1728485916.746130) vcan0 13A#0000000000000028
(1728485916.747143) vcan0 244#0000000150
(1728485916.747231) vcan0 13F#000000050000002E
(1728485916.747239) vcan0 17C#0000000010000021
(1728485916.747242) vcan0 18E#00006B
(1728485916.747244) vcan0 1CF#80050000003C
(1728485916.747246) vcan0 1DC#02000039
(1728485916.748988) vcan0 183#0000000D0000102C
(1728485916.748995) vcan0 143#6B6B00E0
(1728485916.751926) vcan0 095#800007F400000017
(1728485916.751939) vcan0 039#0039
(1728485916.751941) vcan0 1A4#0000000800000010
(1728485916.751944) vcan0 1AA#7FFF000000006810
(1728485916.751946) vcan0 1B0#000F0000000157
(1728485916.753842) vcan0 1D0#000000000000000A
(1728485916.753853) vcan0 166#D0320027
(1728485916.754871) vcan0 158#0000000000000028
(1728485916.754882) vcan0 161#000005500108002B
(1728485916.756697) vcan0 191#010010A141001A
(1728485916.756705) vcan0 133#00000000B6
(1728485916.756707) vcan0 136#0002000000000039
(1728485916.756709) vcan0 13A#0000000000000037
(1728485916.756711) vcan0 13F#000000050000003D
(1728485916.756714) vcan0 164#0000C01AA8000013
(1728485916.756716) vcan0 17C#0000000010000030
(1728485916.756718) vcan0 18E#00007A
(1728485916.758680) vcan0 294#040B0002CF5A002C
(1728485916.758686) vcan0 21E#03E8374522062F
(1728485916.758689) vcan0 305#8017
(1728485916.758691) vcan0 183#000000090000103F
(1728485916.758831) vcan0 244#00000001DC
(1728485916.760647) vcan0 143#6B6B00FF
(1728485916.761683) vcan0 095#800007F400000026
(1728485916.763706) vcan0 166#D0320036
(1728485916.765450) vcan0 158#0000000000000037
(1728485916.765456) vcan0 161#000005500108003A
(1728485916.765458) vcan0 191#010010A1410029
(1728485916.765461) vcan0 039#000C
(1728485916.765463) vcan0 133#0000000089
(1728485916.766503) vcan0 136#000200000000000C
(1728485916.766509) vcan0 13A#000000000000000A
(1728485916.766512) vcan0 13F#0000000500000000
(1728485916.766514) vcan0 164#0000C01AA8000022
(1728485916.767680) vcan0 17C#0000000010000003
(1728485916.767693) vcan0 18E#00004D
(1728485916.767695) vcan0 1CF#80050000000F
(1728485916.767697) vcan0 1DC#0200000C
(1728485916.769386) vcan0 183#0000000600001005
(1728485916.769397) vcan0 143#6B6B00C2
(1728485916.770326) vcan0 244#0000000121
(1728485916.770838) vcan0 333#0000000000001E
(1728485916.772245) vcan0 095#800007F400000035
(1728485916.772251) vcan0 1A4#000000080000002F
(1728485916.772253) vcan0 1AA#7FFF000000006720
(1728485916.772255) vcan0 1B0#000F0000000166
(1728485916.772258) vcan0 1D0#000000000000000A
(1728485916.774309) vcan0 166#D0320009
(1728485916.776148) vcan0 158#000000000000000A
(1728485916.776156) vcan0 161#000005500108000D
(1728485916.776159) vcan0 191#010010A1410038
(1728485916.776161) vcan0 133#0000000098
(1728485916.776163) vcan0 136#000200000000001B
(1728485916.776165) vcan0 13A#0000000000000019
(1728485916.776168) vcan0 13F#000000050000001F
(1728485916.777290) vcan0 164#0000C01AA8000031
(1728485916.777295) vcan0 17C#0000000010000012
(1728485916.777297) vcan0 18E#00005C
(1728485916.780037) vcan0 183#0000000C0000101E
(1728485916.780044) vcan0 143#6B6B00D1
(1728485916.781214) vcan0 095#800007F400000008
(1728485916.781297) vcan0 244#000000014D
(1728485916.785007) vcan0 166#D0320018
(1728485916.785018) vcan0 158#0000000000000019
(1728485916.785021) vcan0 161#000005500108001C
(1728485916.786126) vcan0 191#010090A1410003
(1728485916.786138) vcan0 039#001B
(1728485916.786140) vcan0 133#00000000A7
(1728485916.786142) vcan0 136#000200000000002A
(1728485916.786144) vcan0 13A#0000000000000028
(1728485916.786146) vcan0 13F#000000050000002E
(1728485916.787829) vcan0 164#0000C01AA8000004
(1728485916.787836) vcan0 17C#0000000010000021
(1728485916.787838) vcan0 18E#00006B
(1728485916.787840) vcan0 1CF#80050000001E
(1728485916.787842) vcan0 1DC#0200001B
(1728485916.787844) vcan0 320#000012
(1728485916.787847) vcan0 324#7465000000000E1A
(1728485916.787849) vcan0 37C#FD00FD00097F001A
(1728485916.789773) vcan0 183#0000000900001020
(1728485916.789781) vcan0 143#6B6B00E0
(1728485916.792681) vcan0 095#800007F400000017
(1728485916.792687) vcan0 1A4#000000080000003E
(1728485916.792689) vcan0 1AA#7FFF00000000683E
(1728485916.792691) vcan0 1B0#000F0000000175
(1728485916.792693) vcan0 1D0#000000000000000A
(1728485916.793666) vcan0 244#00000001F6
(1728485916.793784) vcan0 166#D0320027
(1728485916.794801) vcan0 158#0000000000000028
(1728485916.796584) vcan0 161#000005500108002B
(1728485916.796593) vcan0 191#010090A1410012
(1728485916.796596) vcan0 133#00000000B6
(1728485916.796598) vcan0 136#0002000000000039
(1728485916.796600) vcan0 13A#0000000000000037
(1728485916.796602) vcan0 13F#000000050000003D
(1728485916.796606) vcan0 164#0000C01AA8000013
(1728485916.796610) vcan0 17C#0000000010000030
(1728485916.797622) vcan0 18E#00007A
(1728485916.797627) vcan0 294#040B0002CF5A003B
(1728485916.797630) vcan0 21E#03E8374522063E
(1728485916.798719) vcan0 039#002A
(1728485916.798730) vcan0 183#0000000E0000103A
(1728485916.798733) vcan0 143#6B6B00FF
(1728485916.801611) vcan0 095#800007F400000026
(1728485916.803411) vcan0 166#D0320036
(1728485916.804392) vcan0 244#0000000183
(1728485916.804686) vcan0 158#0000000000000037
(1728485916.806369) vcan0 161#000005500108003A
(1728485916.806379) vcan0 191#010090A1410021
(1728485916.806381) vcan0 133#0000000089
(1728485916.806383) vcan0 136#000200000000000C
(1728485916.806385) vcan0 13A#000000000000000A
(1728485916.806388) vcan0 13F#0000000500000000
(1728485916.806390) vcan0 164#0000C01AA8000022
(1728485916.807404) vcan0 17C#0000000010000003
(1728485916.807411) vcan0 18E#00004D
(1728485916.807413) vcan0 1CF#80050000002D
(1728485916.807416) vcan0 1DC#0200002A
(1728485916.809170) vcan0 183#0000000A00001001
(1728485916.809176) vcan0 143#6B6B00C2
(1728485916.811224) vcan0 095#800007F400000035
(1728485916.812328) vcan0 1A4#0000000800000001
(1728485916.812338) vcan0 1AA#7FFF000000006801
(1728485916.812340) vcan0 1B0#000F0000000148
(1728485916.812342) vcan0 1D0#000000000000000A
(1728485916.813360) vcan0 039#0039
(1728485916.814373) vcan0 166#D0320009
(1728485916.815324) vcan0 244#00000001C7
(1728485916.815408) vcan0 158#000000000000000A
(1728485916.815416) vcan0 161#000005500108000D
(1728485916.815419) vcan0 191#010090A1410030
(1728485916.815430) vcan0 133#0000000098
(1728485916.817074) vcan0 136#000200000000001B
(1728485916.817085) vcan0 13A#0000000000000019
(1728485916.817087) vcan0 13F#000000050000001F
(1728485916.817089) vcan0 164#0000C01AA8000031
(1728485916.817091) vcan0 17C#0000000010000012
(1728485916.817094) vcan0 18E#00005C
(1728485916.817096) vcan0 309#00000000000000A2
(1728485916.820049) vcan0 183#0000000F0000101B
(1728485916.820063) vcan0 143#6B6B00D1
(1728485916.821920) vcan0 095#800007F400000008
(1728485916.823849) vcan0 166#D0320018
(1728485916.825708) vcan0 158#0000000000000019
(1728485916.825714) vcan0 161#000005500108001C
(1728485916.825716) vcan0 191#010090A1410003
(1728485916.825719) vcan0 164#0000C01AA8000004
(1728485916.825721) vcan0 133#00000000A7
(1728485916.827715) vcan0 136#000200000000002A
(1728485916.827725) vcan0 13A#0000000000000028
(1728485916.827727) vcan0 13F#000000050000002E
(1728485916.827729) vcan0 17C#0000000010000021
(1728485916.827731) vcan0 18E#00006B
(1728485916.827733) vcan0 039#000C
(1728485916.827736) vcan0 1CF#80050000003C
(1728485916.827738) vcan0 1DC#02000039
(1728485916.828699) vcan0 244#00000001A4
(1728485916.828950) vcan0 183#0000000B0000102E
(1728485916.828961) vcan0 143#6B6B00E0
(1728485916.831774) vcan0 095#800007F400000017
(1728485916.831787) vcan0 1A4#0000000800000010
(1728485916.831789) vcan0 1AA#7FFF000000006810
(1728485916.833546) vcan0 1B0#000F0000000157
(1728485916.833555) vcan0 1D0#000000000000000A
(1728485916.833557) vcan0 166#D0320027
(1728485916.834966) vcan0 158#0000000000000028
(1728485916.834985) vcan0 161#000005500108002B
(1728485916.836475) vcan0 191#010090A1410012
(1728485916.836484) vcan0 133#00000000B6
(1728485916.836487) vcan0 136#0002000000000039
(1728485916.836489) vcan0 13A#0000000000000037
(1728485916.836491) vcan0 13F#000000050000003D
(1728485916.836493) vcan0 164#0000C01AA8000013
(1728485916.838412) vcan0 17C#0000000010000030
(1728485916.838421) vcan0 18E#00007A
(1728485916.838424) vcan0 294#040B0002CF5A000E
(1728485916.838426) vcan0 21E#03E83745220601
(1728485916.838428) vcan0 183#0000000800001030
(1728485916.840373) vcan0 244#00000001C1
(1728485916.840412) vcan0 143#6B6B00FF
(1728485916.840421) vcan0 039#001B
(1728485916.842383) vcan0 095#800007F400000026
(1728485916.844320) vcan0 166#D0320036
(1728485916.846254) vcan0 158#0000000000000037
(1728485916.846263) vcan0 161#000005500108003A
(1728485916.846266) vcan0 191#010090A1410021
(1728485916.846268) vcan0 133#0000000089
(1728485916.846270) vcan0 136#000200000000000C
(1728485916.846273) vcan0 13A#000000000000000A
(1728485916.846275) vcan0 13F#0000000500000000
(1728485916.846277) vcan0 164#0000C01AA8000022
(1728485916.848173) vcan0 17C#0000000010000003
(1728485916.848182) vcan0 18E#00004D
(1728485916.848185) vcan0 1CF#80050000000F
(1728485916.848187) vcan0 1DC#0200000C
(1728485916.848189) vcan0 183#0000000600001005
(1728485916.850076) vcan0 143#6B6B00C2
(1728485916.851381) vcan0 095#800007F400000035
(1728485916.851389) vcan0 1A4#000000080000002F
(1728485916.851546) vcan0 244#000000014A
(1728485916.852610) vcan0 1AA#7FFF000000006720
(1728485916.852624) vcan0 1B0#000F0000000166
(1728485916.852626) vcan0 1D0#000000000000000A
(1728485916.854112) vcan0 166#D0320009
(1728485916.855149) vcan0 158#000000000000000A
(1728485916.855157) vcan0 161#000005500108000D
(1728485916.855159) vcan0 191#010090A1410030
(1728485916.856783) vcan0 133#0000000098
(1728485916.856791) vcan0 136#000200000000001B
(1728485916.856793) vcan0 039#002A
(1728485916.856796) vcan0 13A#0000000000000019
(1728485916.856798) vcan0 13F#000000050000001F
(1728485916.856800) vcan0 164#0000C01AA8000031
(1728485916.856802) vcan0 17C#0000000010000012
(1728485916.858770) vcan0 18E#00005C
(1728485916.858785) vcan0 183#0000000400001016
(1728485916.858787) vcan0 143#6B6B00D1
(1728485916.861668) vcan0 095#800007F400000008
(1728485916.862685) vcan0 305#8026
(1728485916.862854) vcan0 244#00000001DD
(1728485916.864657) vcan0 166#D0320018
(1728485916.864672) vcan0 158#0000000000000019
(1728485916.865687) vcan0 161#000005500108001C
(1728485916.865696) vcan0 191#010090A1410003
(1728485916.865698) vcan0 133#00000000A7
(1728485916.865701) vcan0 136#000200000000002A
(1728485916.867613) vcan0 13A#0000000000000028
(1728485916.867625) vcan0 13F#000000050000002E
(1728485916.867627) vcan0 164#0000C01AA8000004
(1728485916.867630) vcan0 17C#0000000010000021
(1728485916.867632) vcan0 18E#00006B
(1728485916.867634) vcan0 1CF#80050000001E
(1728485916.867638) vcan0 1DC#0200001B
(1728485916.868686) vcan0 183#0000000300001026
(1728485916.868699) vcan0 143#6B6B00E0
(1728485916.870419) vcan0 039#0039
(1728485916.870428) vcan0 333#0000000000002D
(1728485916.872374) vcan0 095#800007F400000017
(1728485916.872383) vcan0 1A4#000000080000003E
(1728485916.872385) vcan0 1AA#7FFF00000000683E
(1728485916.872388) vcan0 1B0#000F0000000175
(1728485916.872390) vcan0 1D0#000000000000000A
(1728485916.873465) vcan0 166#D0320027
(1728485916.873490) vcan0 244#0000000127
(1728485916.875354) vcan0 158#0000000000000028
(1728485916.875366) vcan0 161#000005500108002B
(1728485916.875369) vcan0 191#010090A1410012
(1728485916.875371) vcan0 133#00000000B6
(1728485916.877238) vcan0 136#0002000000000039
(1728485916.877247) vcan0 13A#0000000000000037
(1728485916.877249) vcan0 13F#000000050000003D
(1728485916.877251) vcan0 164#0000C01AA8000013
(1728485916.877254) vcan0 17C#0000000010000030
(1728485916.877256) vcan0 18E#00007A
(1728485916.877259) vcan0 294#040B0002CF5A001D
(1728485916.877263) vcan0 21E#03E83745220610
(1728485916.879172) vcan0 183#0000000A0000103E
(1728485916.879188) vcan0 143#6B6B00FF
(1728485916.881184) vcan0 095#800007F400000026
(1728485916.884186) vcan0 166#D0320036
(1728485916.884257) vcan0 244#000000011F
(1728485916.885271) vcan0 158#0000000000000037
(1728485916.885287) vcan0 161#000005500108003A
(1728485916.885289) vcan0 191#010090A1410021
(1728485916.885291) vcan0 133#0000000089
(1728485916.887022) vcan0 136#000200000000000C
(1728485916.887066) vcan0 13A#000000000000000A
(1728485916.887073) vcan0 13F#0000000500000000
(1728485916.887076) vcan0 164#0000C01AA8000022
(1728485916.887078) vcan0 17C#0000000010000003
(1728485916.887082) vcan0 18E#00004D
(1728485916.887084) vcan0 1CF#80050000002D
(1728485916.887086) vcan0 1DC#0200002A
(1728485916.888991) vcan0 320#000021
(1728485916.889003) vcan0 324#7465000000000E29
(1728485916.889005) vcan0 37C#FD00FD00097F0029
(1728485916.889007) vcan0 40C#014A484D46413325
(1728485916.889010) vcan0 183#0000000700001004
(1728485916.889012) vcan0 454#23EF27
(1728485916.889014) vcan0 143#6B6B00C2
(1728485916.891967) vcan0 095#800007F400000035
(1728485916.891978) vcan0 039#000C
(1728485916.891980) vcan0 1A4#0000000800000001
(1728485916.891983) vcan0 1AA#7FFF000000006801
(1728485916.891985) vcan0 1B0#000F0000000148
(1728485916.893783) vcan0 1D0#000000000000000A
(1728485916.893794) vcan0 166#D0320009
(1728485916.894864) vcan0 158#000000000000000A
(1728485916.894877) vcan0 161#000005500108000D
(1728485916.895029) vcan0 244#00000001D2
(1728485916.896697) vcan0 191#010090A1410030
(1728485916.896706) vcan0 133#0000000098
(1728485916.896708) vcan0 136#000200000000001B
(1728485916.896710) vcan0 13A#0000000000000019
(1728485916.896713) vcan0 13F#000000050000001F
(1728485916.896715) vcan0 164#0000C01AA8000031
(1728485916.896717) vcan0 17C#0000000010000012
(1728485916.896719) vcan0 18E#00005C
(1728485916.898669) vcan0 183#0000000D0000101D
(1728485916.900577) vcan0 143#6B6B00D1
(1728485916.902125) vcan0 095#800007F400000008
(1728485916.903617) vcan0 166#D0320018
(1728485916.905502) vcan0 158#0000000000000019
(1728485916.905513) vcan0 161#000005500108001C
(1728485916.905516) vcan0 191#010090A1410003
(1728485916.905518) vcan0 133#00000000A7
(1728485916.906536) vcan0 136#000200000000002A
(1728485916.906548) vcan0 13A#0000000000000028
(1728485916.906550) vcan0 13F#000000050000002E
(1728485916.906556) vcan0 164#0000C01AA8000004
(1728485916.906560) vcan0 17C#0000000010000021
(1728485916.906743) vcan0 244#0000000195
(1728485916.907780) vcan0 18E#00006B
(1728485916.907790) vcan0 1CF#80050000003C
(1728485916.907792) vcan0 1DC#02000039
(1728485916.909411) vcan0 183#0000001100001027
(1728485916.909422) vcan0 143#6B6B00E0
(1728485916.911409) vcan0 039#001B
(1728485916.911429) vcan0 095#800007F400000017
(1728485916.911439) vcan0 1A4#0000000800000010
(1728485916.912455) vcan0 1AA#7FFF000000006810
(1728485916.912467) vcan0 1B0#000F0000000157
(1728485916.912473) vcan0 1D0#000000000000000A
(1728485916.913489) vcan0 166#D0320027
(1728485916.916128) vcan0 158#0000000000000028
(1728485916.916141) vcan0 161#000005500108002B
(1728485916.916146) vcan0 191#010090A1410012
(1728485916.916152) vcan0 133#00000000B6
(1728485916.916158) vcan0 136#0002000000000039
(1728485916.916163) vcan0 13A#0000000000000037
(1728485916.916168) vcan0 13F#000000050000003D
(1728485916.917182) vcan0 164#0000C01AA8000013
(1728485916.917193) vcan0 17C#0000000010000030
(1728485916.917199) vcan0 18E#00007A
(1728485916.917204) vcan0 294#040B0002CF5A002C
(1728485916.917209) vcan0 21E#03E8374522062F
(1728485916.917648) vcan0 244#00000001B6
(1728485916.918227) vcan0 309#00000000000000B1
(1728485916.918239) vcan0 428#01040000521C3E
(1728485916.918244) vcan0 405#0000040000000038
(1728485916.919260) vcan0 183#0000000C0000103C
(1728485916.919272) vcan0 143#6B6B00FF
(1728485916.922067) vcan0 095#800007F400000026
(1728485916.924106) vcan0 166#D0320036
(1728485916.924119) vcan0 039#002A
(1728485916.925814) vcan0 158#0000000000000037
(1728485916.925824) vcan0 161#000005500108003A
(1728485916.925831) vcan0 191#010090A1410021
(1728485916.925836) vcan0 133#0000000089
(1728485916.925841) vcan0 136#000200000000000C
(1728485916.925848) vcan0 13A#000000000000000A
(1728485916.926867) vcan0 13F#0000000500000000
(1728485916.926878) vcan0 164#0000C01AA8000022
(1728485916.926883) vcan0 17C#0000000010000003
(1728485916.926888) vcan0 18E#00004D
(1728485916.926895) vcan0 1CF#80050000000F
(1728485916.928786) vcan0 244#0000000189
(1728485916.928805) vcan0 1DC#0200000C
(1728485916.928811) vcan0 183#000000100000100A
(1728485916.928814) vcan0 143#6B6B00C2
(1728485916.932677) vcan0 095#800007F400000035
(1728485916.932690) vcan0 1A4#000000080000002F
(1728485916.932696) vcan0 1AA#7FFF000000006720
(1728485916.932701) vcan0 1B0#000F0000000166
(1728485916.932708) vcan0 1D0#000000000000000A
(1728485916.934313) vcan0 166#D0320009
(1728485916.935701) vcan0 158#000000000000000A
(1728485916.935721) vcan0 161#000005500108000D
(1728485916.935733) vcan0 191#010090A1410030
(1728485916.935740) vcan0 133#0000000098
(1728485916.935745) vcan0 136#000200000000001B
(1728485916.937540) vcan0 13A#0000000000000019
(1728485916.937554) vcan0 13F#000000050000001F
(1728485916.937559) vcan0 164#0000C01AA9000030
(1728485916.937564) vcan0 17C#0000000010000012
(1728485916.937569) vcan0 18E#00005C
(1728485916.939508) vcan0 244#0000000199
(1728485916.939518) vcan0 039#0039
(1728485916.939524) vcan0 183#0000000C0000101E
(1728485916.939529) vcan0 143#6B6B00D1
(1728485916.941441) vcan0 095#800007F400000008
(1728485916.943482) vcan0 166#D0320018
(1728485916.945353) vcan0 158#0000000000000019
(1728485916.945368) vcan0 161#000005500108001C
(1728485916.945378) vcan0 191#010090A1410003
(1728485916.945387) vcan0 133#00000000A7
(1728485916.947295) vcan0 136#000200000000002A
(1728485916.947309) vcan0 13A#0000000000000028
(1728485916.947318) vcan0 13F#000000050000002E
(1728485916.947326) vcan0 164#0000C01AA8000004
(1728485916.947335) vcan0 17C#0000000010000021
(1728485916.947343) vcan0 18E#00006B
(1728485916.947352) vcan0 1CF#80050000001E
(1728485916.947387) vcan0 1DC#0200001B
(1728485916.949261) vcan0 183#0000001000001028
(1728485916.949287) vcan0 143#6B6B00E0
(1728485916.951256) vcan0 095#800007F400000017
(1728485916.952325) vcan0 244#0000000196
(1728485916.952442) vcan0 1A4#000000080000003E
(1728485916.952538) vcan0 1AA#7FFF00000000683E
(1728485916.952546) vcan0 1B0#000F0000000175
(1728485916.952551) vcan0 1D0#000000000000000A
(1728485916.954248) vcan0 039#000C
(1728485916.954266) vcan0 166#D0320027
(1728485916.956043) vcan0 158#0000000000000028
(1728485916.956061) vcan0 161#000005500108002B
(1728485916.956069) vcan0 191#010090A1410012
(1728485916.956076) vcan0 133#00000000B6
(1728485916.956081) vcan0 136#0002000000000039
(1728485916.956086) vcan0 13A#0000000000000037
(1728485916.956091) vcan0 13F#000000050000003D
(1728485916.957965) vcan0 164#0000C01AA8000013
(1728485916.957976) vcan0 17C#0000000010000030
(1728485916.957981) vcan0 18E#00007A
(1728485916.957986) vcan0 294#040B0002CF5A003B
(1728485916.957992) vcan0 21E#03E8374522063E
(1728485916.959066) vcan0 183#0000001300001034
(1728485916.959088) vcan0 143#6B6B00FF
(1728485916.960885) vcan0 095#800007F800000022
(1728485916.963842) vcan0 244#00000001A4
(1728485916.963915) vcan0 166#D0320036
(1728485916.965695) vcan0 158#0000000000000037
(1728485916.965707) vcan0 161#000005500108003A
(1728485916.965712) vcan0 191#010090A1410021
(1728485916.965717) vcan0 133#0000000089
(1728485916.965722) vcan0 136#000200000000000C
(1728485916.966739) vcan0 13A#000000000000000A
(1728485916.966749) vcan0 13F#0000000500000000
(1728485916.966755) vcan0 164#0000C01AA8000022
(1728485916.966760) vcan0 17C#0000000010000003
(1728485916.966767) vcan0 18E#00004D
(1728485916.968645) vcan0 1CF#80050000002D
(1728485916.968666) vcan0 1DC#0200002A
(1728485916.968672) vcan0 305#8035
(1728485916.968677) vcan0 183#0000000E0000100D
(1728485916.969804) vcan0 143#6B6B00C2
(1728485916.969816) vcan0 333#0000000000003C
(1728485916.971599) vcan0 095#800007F800000031
(1728485916.971608) vcan0 1A4#0000000800000001
(1728485916.971614) vcan0 1AA#7FFF000000006801
(1728485916.973529) vcan0 1B0#000F0000000148
(1728485916.973537) vcan0 1D0#000000000000000A
(1728485916.973542) vcan0 039#001B
(1728485916.973547) vcan0 166#D0320009
(1728485916.975608) vcan0 244#00000001AD
(1728485916.975793) vcan0 158#000000000000000A
(1728485916.975807) vcan0 161#000005500108000D
(1728485916.975812) vcan0 191#010090A1410030
(1728485916.975818) vcan0 133#0000000098
(1728485916.975823) vcan0 136#000200000000001B
(1728485916.975828) vcan0 13A#0000000000000019
(1728485916.977371) vcan0 13F#000000050000001F
(1728485916.977383) vcan0 164#0000C01AA8000031
(1728485916.977388) vcan0 17C#0000000010000012
(1728485916.977393) vcan0 18E#00005C
(1728485916.979374) vcan0 183#0000000A00001010
(1728485916.979382) vcan0 143#6B6B00D1
(1728485916.981361) vcan0 095#800007F800000004
(1728485916.985266) vcan0 166#D0320018
(1728485916.985294) vcan0 158#0000000000000019
(1728485916.985300) vcan0 161#000005500108001C
(1728485916.985306) vcan0 191#010090A1410003
(1728485916.985311) vcan0 133#00000000A7
(1728485916.986562) vcan0 136#000200000000002A
(1728485916.986577) vcan0 13A#0000000000000028
(1728485916.986582) vcan0 13F#000000050000002E
(1728485916.986587) vcan0 164#0000C01AA8000004
(1728485916.986592) vcan0 039#002A
(1728485916.988144) vcan0 244#00000001C2
(1728485916.988198) vcan0 17C#0000000010000021
(1728485916.988207) vcan0 18E#00006B
(1728485916.988213) vcan0 1CF#80050000003C
(1728485916.988218) vcan0 1DC#02000039
(1728485916.988222) vcan0 320#000030
(1728485916.988227) vcan0 324#7465000000000E38
(1728485916.988233) vcan0 37C#FD00FD00097F0038
(1728485916.988238) vcan0 183#0000000700001022
(1728485916.990077) vcan0 143#6B6B00E0
(1728485916.992019) vcan0 095#800007F800000013
(1728485916.992030) vcan0 1A4#0000000800000010
(1728485916.992037) vcan0 1AA#7FFF000000006810
(1728485916.992042) vcan0 1B0#000F0000000157
(1728485916.993959) vcan0 1D0#000000000000000A
(1728485916.993969) vcan0 166#D0320027
(1728485916.995975) vcan0 158#0000000000000028
(1728485916.995991) vcan0 161#000005500108002B
(1728485916.996026) vcan0 191#010090A1410012
(1728485916.996032) vcan0 133#00000000B6
(1728485916.996037) vcan0 136#0002000000000039
(1728485916.996042) vcan0 13A#0000000000000037
(1728485916.996047) vcan0 13F#000000050000003D
(1728485916.997831) vcan0 164#0000C01AA8000013
(1728485916.997843) vcan0 17C#0000000010000030
(1728485916.997848) vcan0 18E#00007A
(1728485916.997853) vcan0 294#040B0002CF5A000E
(1728485916.997858) vcan0 21E#03E83745220601
(1728485916.999866) vcan0 183#0000000500001033
(1728485916.999878) vcan0 143#6B6B00FF
(1728485917.000167) vcan0 244#0000000178
(1728485917.000930) vcan0 039#0039
(1728485917.000941) vcan0 095#800007F800000022
(1728485917.003751) vcan0 166#D0320036
(1728485917.005613) vcan0 158#0000000000000037
(1728485917.005623) vcan0 161#000005500108003A
(1728485917.005626) vcan0 191#010090A1410021
(1728485917.005629) vcan0 164#0000C01AA8000022
(1728485917.005631) vcan0 133#0000000089
(1728485917.007573) vcan0 136#000200000000000C
(1728485917.007582) vcan0 13A#000000000000000A
(1728485917.007584) vcan0 13F#0000000500000000
(1728485917.007586) vcan0 17C#0000000010000003
(1728485917.007588) vcan0 18E#00004D
(1728485917.007591) vcan0 1CF#80050000000F
(1728485917.007593) vcan0 1DC#0200000C
(1728485917.009526) vcan0 183#0000000B00001000
(1728485917.009532) vcan0 143#6B6B00C2
(1728485917.011454) vcan0 095#800007F800000031
(1728485917.011463) vcan0 1A4#000000080000002F
(1728485917.011842) vcan0 244#00000001B2
(1728485917.012508) vcan0 1AA#7FFF000000006720
(1728485917.012515) vcan0 1B0#000F0000000166
(1728485917.012518) vcan0 1D0#000000000000000A
(1728485917.013646) vcan0 166#D0320009
(1728485917.015344) vcan0 158#000000000000000A
(1728485917.015357) vcan0 161#000005500108000D
(1728485917.015364) vcan0 191#010090A1410030
(1728485917.015369) vcan0 039#000C
(1728485917.016387) vcan0 133#0000000098
(1728485917.016400) vcan0 136#000200000000001B
(1728485917.016406) vcan0 13A#0000000000000019
(1728485917.016411) vcan0 13F#000000050000001F
(1728485917.016418) vcan0 164#0000C01AA8000031
(1728485917.017893) vcan0 17C#0000000010000012
(1728485917.017919) vcan0 18E#00005C
(1728485917.017925) vcan0 309#0000000000000084
(1728485917.019260) vcan0 183#0000000800001012
(1728485917.019282) vcan0 143#6B6B00D1
(1728485917.021336) vcan0 095#800007F800000004
(1728485917.023214) vcan0 244#0000000154
(1728485917.024133) vcan0 166#D0320018
(1728485917.025161) vcan0 158#0000000000000019
(1728485917.025176) vcan0 161#000005500108001C
(1728485917.025182) vcan0 191#010090A1410003
(1728485917.027015) vcan0 133#00000000A7
(1728485917.027028) vcan0 136#000200000000002A
(1728485917.027034) vcan0 13A#0000000000000028
(1728485917.027039) vcan0 13F#000000050000002E
(1728485917.027044) vcan0 164#0000C01AA8000004
(1728485917.027066) vcan0 17C#0000000010000021
(1728485917.027072) vcan0 18E#00006B
(1728485917.027077) vcan0 1CF#80050000001E
(1728485917.027083) vcan0 1DC#0200001B
(1728485917.028103) vcan0 183#0000000D0000102C
(1728485917.029308) vcan0 143#6B6B00E0
(1728485917.029325) vcan0 039#001B
(1728485917.031405) vcan0 095#800007F800000013
(1728485917.031415) vcan0 1A4#000000080000003E
(1728485917.033019) vcan0 1AA#7FFF00000000683E
(1728485917.033030) vcan0 1B0#000F0000000175
(1728485917.033048) vcan0 1D0#000000000000000A
(1728485917.034064) vcan0 166#D0320027
(1728485917.034108) vcan0 244#0000000114
(1728485917.035086) vcan0 158#0000000000000028
(1728485917.035105) vcan0 161#000005500108002B
(1728485917.035107) vcan0 191#010090A1410012
(1728485917.036122) vcan0 133#00000000B6
(1728485917.036132) vcan0 136#0002000000000039
(1728485917.036134) vcan0 13A#0000000000000037
(1728485917.036136) vcan0 13F#000000050000003D
(1728485917.037815) vcan0 164#0000C01AA8000013
(1728485917.037824) vcan0 17C#0000000010000030
(1728485917.037826) vcan0 18E#00007A
(1728485917.037828) vcan0 294#040B0002CF5A001D
(1728485917.037830) vcan0 21E#03E83745220610
(1728485917.039820) vcan0 183#000000090000103F
(1728485917.039830) vcan0 143#6B6B00FF
(1728485917.042774) vcan0 095#800007F800000022
(1728485917.044642) vcan0 166#D0320036
(1728485917.044650) vcan0 039#002A
(1728485917.044652) vcan0 158#0000000000000037
(1728485917.045664) vcan0 161#000005500108003A
(1728485917.045674) vcan0 191#010090A1410021
(1728485917.045676) vcan0 164#0000C01AA8000022
(1728485917.045679) vcan0 133#0000000089
(1728485917.045714) vcan0 244#0000000130
(1728485917.046693) vcan0 136#000200000000000C
(1728485917.046704) vcan0 13A#000000000000000A
(1728485917.046706) vcan0 13F#0000000500000000
(1728485917.046710) vcan0 17C#0000000010000003
(1728485917.046713) vcan0 18E#00004D
(1728485917.048542) vcan0 1CF#80050000002D
(1728485917.048551) vcan0 1DC#0200002A
(1728485917.048554) vcan0 183#0000000600001005
(1728485917.049573) vcan0 143#6B6B00C2
(1728485917.051469) vcan0 095#800007F800000031
(1728485917.051480) vcan0 1A4#0000000800000001
(1728485917.053418) vcan0 1AA#7FFF000000006801
(1728485917.053428) vcan0 1B0#000F0000000148
(1728485917.053431) vcan0 1D0#000000000000000A
(1728485917.053433) vcan0 166#D0320009
(1728485917.056330) vcan0 158#000000000000000A
(1728485917.056338) vcan0 161#000005500108000D
(1728485917.056340) vcan0 191#010090A1410030
(1728485917.056342) vcan0 133#0000000098
(1728485917.056345) vcan0 136#000200000000001B
(1728485917.056347) vcan0 13A#0000000000000019
(1728485917.056349) vcan0 13F#000000050000001F
(1728485917.056354) vcan0 164#0000C01AA8000031
(1728485917.058288) vcan0 17C#0000000010000012
(1728485917.058294) vcan0 18E#00005C
(1728485917.058510) vcan0 244#000000011B
(1728485917.059310) vcan0 183#0000000C0000101E
(1728485917.059319) vcan0 143#6B6B00D1
(1728485917.059322) vcan0 039#0039
(1728485917.061349) vcan0 095#800007F800000004
(1728485917.064105) vcan0 166#D0320018
(1728485917.065126) vcan0 158#0000000000000019
(1728485917.065134) vcan0 161#000005500108001C
(1728485917.065137) vcan0 191#010090A1410003
(1728485917.066312) vcan0 133#00000000A7
(1728485917.066321) vcan0 136#000200000000002A
(1728485917.066324) vcan0 13A#0000000000000028
(1728485917.066326) vcan0 13F#000000050000002E
(1728485917.066328) vcan0 164#0000C01AA8000004
(1728485917.068037) vcan0 17C#0000000010000021
(1728485917.068050) vcan0 18E#00006B
(1728485917.068052) vcan0 1CF#80050000003C
(1728485917.068054) vcan0 1DC#02000039
(1728485917.068057) vcan0 183#0000000900001020
(1728485917.070071) vcan0 244#0000000173
(1728485917.070085) vcan0 143#6B6B00E0
(1728485917.070089) vcan0 333#0000000000000F
(1728485917.071917) vcan0 095#800007F800000013
(1728485917.071924) vcan0 1A4#0000000800000010
(1728485917.071927) vcan0 1AA#7FFF000000006711
(1728485917.071929) vcan0 1B0#000F0000000157
(1728485917.073944) vcan0 1D0#000000000000000A
(1728485917.073953) vcan0 305#8008
(1728485917.073956) vcan0 166#D0320027
(1728485917.075879) vcan0 158#0000000000000028
(1728485917.075897) vcan0 161#000005500108002B
(1728485917.075903) vcan0 191#010090A1410012
(1728485917.075908) vcan0 133#00000000B6
(1728485917.075914) vcan0 136#0002000000000039
(1728485917.075924) vcan0 13A#0000000000000037
(1728485917.077844) vcan0 13F#000000050000003D
(1728485917.077864) vcan0 164#0000C01AA8000013
(1728485917.077870) vcan0 17C#0000000010000030
(1728485917.077875) vcan0 18E#00007A
(1728485917.077883) vcan0 294#040B0002CF5A002C
(1728485917.077888) vcan0 21E#03E8374522062F
(1728485917.079772) vcan0 183#0000000E0000103A
(1728485917.079790) vcan0 143#6B6B00FF
(1728485917.079801) vcan0 039#000C
(1728485917.081665) vcan0 244#00000001A4
(1728485917.081716) vcan0 095#800007F800000022
(1728485917.084065) vcan0 166#D0320036
(1728485917.085504) vcan0 158#0000000000000037
(1728485917.085513) vcan0 161#000005500108003A
(1728485917.085516) vcan0 191#010010A1410029
(1728485917.085518) vcan0 133#0000000089
(1728485917.086551) vcan0 136#000200000000000C
(1728485917.086559) vcan0 13A#000000000000000A
(1728485917.086563) vcan0 13F#0000000500000000
(1728485917.086565) vcan0 164#0000C01AA8000022
(1728485917.086567) vcan0 17C#0000000010000003
(1728485917.088484) vcan0 18E#00004D
(1728485917.088491) vcan0 1CF#80050000000F
(1728485917.088493) vcan0 1DC#0200000C
(1728485917.088495) vcan0 320#000003
(1728485917.088498) vcan0 324#7465000000000E0B
(1728485917.088500) vcan0 37C#FD00FD00097F000B
(1728485917.088502) vcan0 183#0000001200001008
(1728485917.090403) vcan0 143#6B6B00C2
(1728485917.092341) vcan0 095#800007F800000031
(1728485917.092347) vcan0 1A4#000000080000002F
(1728485917.092349) vcan0 039#001B
(1728485917.092351) vcan0 1AA#7FFF000000006720
(1728485917.092354) vcan0 1B0#000F0000000166
(1728485917.092356) vcan0 1D0#000000000000000A
(1728485917.093375) vcan0 244#000000016A
(1728485917.093459) vcan0 166#D0320009
(1728485917.095267) vcan0 158#000000000000000A
(1728485917.095277) vcan0 161#000005500108000D
(1728485917.095280) vcan0 191#010010A1410038
(1728485917.095282) vcan0 133#0000000098
(1728485917.097215) vcan0 136#000200000000001B
(1728485917.097221) vcan0 13A#0000000000000019
(1728485917.097223) vcan0 13F#000000050000001F
(1728485917.097225) vcan0 164#0000C01AA8000031
(1728485917.097227) vcan0 17C#0000000010000012
(1728485917.097230) vcan0 18E#00005C
(1728485917.098451) vcan0 183#0000000D0000101D
(1728485917.100192) vcan0 143#6B6B00D1
(1728485917.101448) vcan0 095#800007F800000004
(1728485917.104041) vcan0 244#000000015F
(1728485917.104392) vcan0 166#D0320018
(1728485917.105952) vcan0 158#0000000000000019
(1728485917.105959) vcan0 161#000005500108001C
(1728485917.105962) vcan0 191#010010A141000B
(1728485917.105964) vcan0 164#0000C01AA8000004
(1728485917.105966) vcan0 133#00000000A7
(1728485917.105968) vcan0 136#000200000000002A
(1728485917.106977) vcan0 13A#0000000000000028
(1728485917.106983) vcan0 13F#000000050000002E
(1728485917.106985) vcan0 039#002A
(1728485917.106988) vcan0 17C#0000000010000021
(1728485917.106990) vcan0 18E#00006B
(1728485917.106992) vcan0 1CF#80050000001E
(1728485917.108005) vcan0 1DC#0200001B
(1728485917.108012) vcan0 183#0000000900001020
(1728485917.109029) vcan0 143#6B6B00E0
(1728485917.111085) vcan0 095#800007F400000017
(1728485917.112109) vcan0 1A4#000000080000003E
(1728485917.112119) vcan0 1AA#7FFF00000000683E
(1728485917.112122) vcan0 1B0#000F0000000175
(1728485917.112124) vcan0 1D0#000000000000000A
(1728485917.114256) vcan0 166#D0320027
(1728485917.115746) vcan0 158#0000000000000028
(1728485917.115755) vcan0 161#000005500108002B
(1728485917.115757) vcan0 191#010010A141001A
(1728485917.115760) vcan0 133#00000000B6
(1728485917.115762) vcan0 136#0002000000000039
(1728485917.115764) vcan0 13A#0000000000000037
(1728485917.116794) vcan0 13F#000000050000003D
(1728485917.116800) vcan0 164#0000C01AA8000013
(1728485917.116802) vcan0 17C#0000000010000030
(1728485917.116805) vcan0 18E#00007A
(1728485917.118490) vcan0 294#040B0002CF5A003B
(1728485917.118502) vcan0 21E#03E8374522063E
(1728485917.118504) vcan0 309#0000000000000093
(1728485917.118507) vcan0 183#0000000600001032
(1728485917.119708) vcan0 244#000000019D
(1728485917.119809) vcan0 143#6B6B00FF
(1728485917.121614) vcan0 039#0039
(1728485917.121626) vcan0 095#800007F400000026
(1728485917.124429) vcan0 166#D0320036
(1728485917.126368) vcan0 158#0000000000000037
(1728485917.126375) vcan0 161#000005500108003A
(1728485917.126378) vcan0 191#010010A1410029
(1728485917.126380) vcan0 133#0000000089
(1728485917.126382) vcan0 136#000200000000000C
(1728485917.126384) vcan0 13A#000000000000000A
(1728485917.126386) vcan0 13F#0000000500000000
(1728485917.126390) vcan0 164#0000C01AA8000022
(1728485917.128288) vcan0 17C#0000000010000003
(1728485917.128295) vcan0 18E#00004D
(1728485917.128297) vcan0 1CF#80050000002D
(1728485917.128299) vcan0 1DC#0200002A
(1728485917.128301) vcan0 183#0000000C0000100F
(1728485917.129466) vcan0 143#6B6B00C2
(1728485917.130461) vcan0 244#0000000127
(1728485917.132215) vcan0 095#800007F400000035
(1728485917.132227) vcan0 1A4#0000000800000001
(1728485917.132230) vcan0 1AA#7FFF000000006801
(1728485917.132232) vcan0 1B0#000F0000000148
(1728485917.132234) vcan0 1D0#000000000000000A
(1728485917.135631) vcan0 166#D0320009
(1728485917.135648) vcan0 039#000C
(1728485917.135651) vcan0 158#000000000000000A
(1728485917.135653) vcan0 161#000005500108000D
(1728485917.135655) vcan0 191#010010A1410038
(1728485917.135658) vcan0 133#0000000098
(1728485917.135660) vcan0 136#000200000000001B
(1728485917.137037) vcan0 13A#0000000000000019
(1728485917.137055) vcan0 13F#000000050000001F
(1728485917.137058) vcan0 164#0000C01AA8000031
(1728485917.137060) vcan0 17C#0000000010000012
(1728485917.137063) vcan0 18E#00005C
(1728485917.139062) vcan0 183#0000001000001019
(1728485917.139076) vcan0 143#6B6B00D1
(1728485917.141007) vcan0 244#0000000149
(1728485917.141015) vcan0 095#800007F400000008
(1728485917.143713) vcan0 166#D0320018
(1728485917.144950) vcan0 158#0000000000000019
(1728485917.144962) vcan0 161#000005500108001C
(1728485917.146889) vcan0 191#010010A141000B
(1728485917.146898) vcan0 133#00000000A7
(1728485917.146900) vcan0 136#000200000000002A
(1728485917.146902) vcan0 13A#0000000000000028
(1728485917.146905) vcan0 13F#000000050000002E
(1728485917.146918) vcan0 164#0000C01AA8000004
(1728485917.146931) vcan0 17C#0000000010000021
(1728485917.146942) vcan0 18E#00006B
(1728485917.146970) vcan0 1CF#80050000003C
(1728485917.148876) vcan0 1DC#02000039
(1728485917.148881) vcan0 183#0000000C0000102D
(1728485917.148883) vcan0 143#6B6B00E0
(1728485917.150118) vcan0 039#001B
(1728485917.151159) vcan0 095#800007F400000017
(1728485917.151984) vcan0 244#00000001AF
(1728485917.152243) vcan0 1A4#0000000800000010
(1728485917.152250) vcan0 1AA#7FFF000000006711
(1728485917.152252) vcan0 1B0#000F0000000157
(1728485917.152255) vcan0 1D0#000000000000000A
(1728485917.153632) vcan0 166#D0320027
(1728485917.155560) vcan0 158#0000000000000028
(1728485917.155569) vcan0 161#000005500108002B
(1728485917.155571) vcan0 191#010010A141001A
(1728485917.155573) vcan0 133#00000000B6
(1728485917.155576) vcan0 136#0002000000000039
(1728485917.156677) vcan0 13A#0000000000000037
(1728485917.156684) vcan0 13F#000000050000003D
(1728485917.156686) vcan0 164#0000C01AA8000013
(1728485917.156689) vcan0 17C#0000000010000030
(1728485917.156691) vcan0 18E#00007A
(1728485917.158502) vcan0 294#040B0002CF5A000E
(1728485917.158514) vcan0 21E#03E83745220601
(1728485917.158517) vcan0 183#0000001000001037
(1728485917.160439) vcan0 143#6B6B00FF
(1728485917.161519) vcan0 095#800007F400000026
(1728485917.163269) vcan0 039#002A
(1728485917.165302) vcan0 166#D0320036
(1728485917.165312) vcan0 158#0000000000000037
(1728485917.165314) vcan0 161#000005500108003A
(1728485917.165317) vcan0 191#010010A1410029
(1728485917.165319) vcan0 133#0000000089
(1728485917.167259) vcan0 136#000200000000000C
(1728485917.167267) vcan0 13A#000000000000000A
(1728485917.167269) vcan0 13F#0000000500000000
(1728485917.167272) vcan0 164#0000C01AA8000022
(1728485917.167274) vcan0 17C#0000000010000003
(1728485917.167276) vcan0 18E#00004D
(1728485917.167279) vcan0 1CF#80050000000F
(1728485917.167281) vcan0 1DC#0200000C
(1728485917.167485) vcan0 244#00000001C6
(1728485917.169191) vcan0 183#0000000C0000100F
(1728485917.169201) vcan0 143#6B6B00C2
(1728485917.170417) vcan0 333#0000000000001E
(1728485917.172116) vcan0 095#800007F400000035
(1728485917.172125) vcan0 1A4#000000080000002F
(1728485917.172127) vcan0 1AA#7FFF000000006720
(1728485917.172130) vcan0 1B0#000F0000000166
(1728485917.172132) vcan0 1D0#000000000000000A
(1728485917.174070) vcan0 166#D0320009
(1728485917.175142) vcan0 305#8017
(1728485917.175148) vcan0 158#000000000000000A
(1728485917.175151) vcan0 161#000005500108000D
(1728485917.175153) vcan0 191#010010A1410038
(1728485917.177085) vcan0 133#0000000098
(1728485917.177116) vcan0 136#000200000000001B
(1728485917.177215) vcan0 13A#0000000000000019
(1728485917.177222) vcan0 13F#000000050000001F
(1728485917.177224) vcan0 164#0000C01AA8000031
(1728485917.177227) vcan0 17C#0000000010000012
(1728485917.177229) vcan0 18E#00005C
(1728485917.178966) vcan0 244#00000001AE
(1728485917.178987) vcan0 183#0000000900001011
(1728485917.178992) vcan0 143#6B6B00D1
(1728485917.182837) vcan0 095#800007F400000008
(1728485917.182845) vcan0 039#0039
(1728485917.183986) vcan0 166#D0320018
(1728485917.185734) vcan0 158#0000000000000019
(1728485917.185748) vcan0 161#000005500108001C
(1728485917.185751) vcan0 191#010010A141000B
(1728485917.185753) vcan0 133#00000000A7
(1728485917.185755) vcan0 136#000200000000002A
(1728485917.187708) vcan0 13A#0000000000000028
(1728485917.187718) vcan0 13F#000000050000002E
(1728485917.187721) vcan0 164#0000C01AA8000004
(1728485917.187723) vcan0 17C#0000000010000021
(1728485917.187725) vcan0 18E#00006B
(1728485917.187728) vcan0 1CF#80050000001E
(1728485917.187731) vcan0 1DC#0200001B
(1728485917.187734) vcan0 320#000012
(1728485917.187736) vcan0 324#7465000000000E1A
(1728485917.187738) vcan0 37C#FD00FD00097F001A
(1728485917.189639) vcan0 40C#0236323239533039
(1728485917.189646) vcan0 183#0000000E0000102B
(1728485917.189648) vcan0 454#23EF36
(1728485917.189651) vcan0 143#6B6B00E0
(1728485917.190630) vcan0 244#00000001F0
(1728485917.191103) vcan0 095#800007F400000017
(1728485917.192560) vcan0 1A4#000000080000003E
(1728485917.192571) vcan0 1AA#7FFF00000000683E
(1728485917.192574) vcan0 1B0#000F0000000175
(1728485917.192576) vcan0 1D0#000000000000000A
(1728485917.194560) vcan0 166#D0320027
(1728485917.195606) vcan0 158#0000000000000028
(1728485917.195614) vcan0 039#000C
(1728485917.195617) vcan0 161#000005500108002B
(1728485917.195619) vcan0 191#010010A141001A
(1728485917.195632) vcan0 133#00000000B6
(1728485917.197379) vcan0 136#0002000000000039
(1728485917.197390) vcan0 13A#0000000000000037
(1728485917.197398) vcan0 13F#000000050000003D
(1728485917.197410) vcan0 164#0000C01AA8000013
(1728485917.197412) vcan0 17C#0000000010000030
(1728485917.197414) vcan0 18E#00007A
(1728485917.197417) vcan0 294#040B0002CF5A001D
(1728485917.197419) vcan0 21E#03E83745220610
(1728485917.198518) vcan0 183#0000000A0000103E
(1728485917.200339) vcan0 143#6B6B00FF
(1728485917.201324) vcan0 244#0000000123
(1728485917.201403) vcan0 095#800007F400000026
(1728485917.204845) vcan0 166#D0320036
(1728485917.204859) vcan0 158#0000000000000037
(1728485917.206190) vcan0 161#000005500108003A
(1728485917.206199) vcan0 191#010010A1410029
(1728485917.206202) vcan0 133#0000000089
(1728485917.206204) vcan0 136#000200000000000C
(1728485917.206206) vcan0 13A#000000000000000A
(1728485917.206209) vcan0 13F#0000000500000000
(1728485917.207264) vcan0 164#0000C01AA8000022
(1728485917.207277) vcan0 17C#0000000010000003
(1728485917.207280) vcan0 18E#00004D
(1728485917.207282) vcan0 1CF#80050000002D
(1728485917.207285) vcan0 1DC#0200002A
(1728485917.209081) vcan0 183#0000000700001004
(1728485917.209091) vcan0 143#6B6B00C2
(1728485917.211173) vcan0 095#800007F400000035
(1728485917.211198) vcan0 039#001B
(1728485917.212239) vcan0 1A4#0000000800000001
(1728485917.212256) vcan0 1AA#7FFF000000006801
(1728485917.212260) vcan0 1B0#000F0000000148
(1728485917.212262) vcan0 1D0#000000000000000A
(1728485917.212301) vcan0 244#0000000114
(1728485917.214904) vcan0 166#D0320009
(1728485917.214922) vcan0 158#000000000000000A
(1728485917.214927) vcan0 161#000005500108000D
(1728485917.216845) vcan0 191#010010A1410038
(1728485917.216856) vcan0 133#0000000098
(1728485917.216861) vcan0 136#000200000000001B
(1728485917.216867) vcan0 13A#0000000000000019
(1728485917.216872) vcan0 13F#000000050000001F
(1728485917.216877) vcan0 164#0000C01AA8000031
(1728485917.216881) vcan0 17C#0000000010000012
(1728485917.216886) vcan0 18E#00005C
(1728485917.217899) vcan0 309#00000000000000A2
(1728485917.217911) vcan0 428#01040000521C01
(1728485917.217917) vcan0 405#000004000000000B
(1728485917.219259) vcan0 183#0000000D0000101D
(1728485917.219292) vcan0 143#6B6B00D1
(1728485917.221754) vcan0 095#800007F400000008
(1728485917.222984) vcan0 244#00000001E9
(1728485917.223789) vcan0 166#D0320018
(1728485917.225116) vcan0 158#0000000000000019
(1728485917.225147) vcan0 161#000005500108001C
(1728485917.225170) vcan0 191#010010A141000B
(1728485917.226600) vcan0 039#002A
(1728485917.226620) vcan0 133#00000000A7
(1728485917.226626) vcan0 136#000200000000002A
(1728485917.226631) vcan0 13A#0000000000000028
(1728485917.226637) vcan0 13F#000000050000002E
(1728485917.226643) vcan0 164#0000C01AA8000004
(1728485917.226648) vcan0 17C#0000000010000021
(1728485917.227856) vcan0 18E#00006B
(1728485917.227866) vcan0 1CF#80050000003C
(1728485917.227871) vcan0 1DC#02000039
(1728485917.229542) vcan0 183#0000000900001020
(1728485917.229557) vcan0 143#6B6B00E0
(1728485917.231987) vcan0 095#800007F400000017
(1728485917.232003) vcan0 1A4#0000000800000010
(1728485917.232009) vcan0 1AA#7FFF000000006711
(1728485917.232026) vcan0 1B0#000F0000000157
(1728485917.232033) vcan0 1D0#000000000000000A
(1728485917.233156) vcan0 188#00000000
(1728485917.234397) vcan0 166#D0320027
(1728485917.235444) vcan0 158#0000000000000028
(1728485917.235466) vcan0 161#000005500108002B
(1728485917.235491) vcan0 191#010010A141001A
(1728485917.235497) vcan0 133#00000000B6
(1728485917.236515) vcan0 136#0002000000000039
(1728485917.236526) vcan0 13A#0000000000000037
(1728485917.236531) vcan0 13F#000000050000003D
(1728485917.236536) vcan0 164#0000C01AA8000013
(1728485917.236544) vcan0 17C#0000000010000030
(1728485917.238297) vcan0 18E#00007A
(1728485917.238306) vcan0 294#040B0002CF5A002C
(1728485917.238312) vcan0 21E#03E8374522062F
(1728485917.238964) vcan0 244#00000001E7
(1728485917.240189) vcan0 183#0000000E0000103A
(1728485917.240204) vcan0 143#6B6B00FF
(1728485917.241216) vcan0 095#800007F400000026
(1728485917.244114) vcan0 5A1#960000000000623E
(1728485917.244140) vcan0 166#D0320036
(1728485917.245789) vcan0 158#0000000000000037
(1728485917.245798) vcan0 161#000005500108003A
(1728485917.245800) vcan0 191#010010A1410029
(1728485917.245802) vcan0 133#0000000089
(1728485917.245804) vcan0 039#0039
(1728485917.245808) vcan0 136#000200000000000C
(1728485917.247045) vcan0 13A#000000000000000A
(1728485917.247056) vcan0 13F#0000000500000000
(1728485917.247059) vcan0 164#0000C01AA8000022
(1728485917.247061) vcan0 17C#0000000010000003
(1728485917.247063) vcan0 18E#00004D
(1728485917.247065) vcan0 1CF#80050000000F
(1728485917.248073) vcan0 1DC#0200000C
(1728485917.248080) vcan0 183#0000000A00001001
(1728485917.249941) vcan0 143#6B6B00C2
(1728485917.250011) vcan0 244#0000000150
(1728485917.251889) vcan0 095#800007F400000035
(1728485917.251900) vcan0 1A4#000000080000002F
(1728485917.251903) vcan0 1AA#7FFF000000006720
(1728485917.251905) vcan0 1B0#000F0000000166
(1728485917.253009) vcan0 1D0#000000000000000A
(1728485917.253496) vcan0 166#D0320009
(1728485917.254819) vcan0 158#000000000000000A
(1728485917.256790) vcan0 161#000005500108000D
(1728485917.256796) vcan0 191#010010A1410038
(1728485917.256799) vcan0 133#0000000098
(1728485917.256801) vcan0 136#000200000000001B
(1728485917.256803) vcan0 13A#0000000000000019
(1728485917.256805) vcan0 13F#000000050000001F
(1728485917.256807) vcan0 164#0000C01AA8000031
(1728485917.256810) vcan0 17C#0000000010000012
(1728485917.256812) vcan0 18E#00005C
(1728485917.258657) vcan0 183#0000000700001013
(1728485917.258670) vcan0 143#6B6B00D1
(1728485917.260159) vcan0 039#000C
(1728485917.261621) vcan0 095#800007F400000008
(1728485917.261650) vcan0 244#00000001D7
(1728485917.263568) vcan0 166#D0320018
(1728485917.265570) vcan0 158#0000000000000019
(1728485917.265583) vcan0 161#000005500108001C
(1728485917.265589) vcan0 191#010010A141000B
(1728485917.265595) vcan0 133#00000000A7
(1728485917.265600) vcan0 136#000200000000002A
(1728485917.266786) vcan0 13A#0000000000000028
(1728485917.266800) vcan0 13F#000000050000002E
(1728485917.266819) vcan0 164#0000C01AA8000004
(1728485917.266825) vcan0 17C#0000000010000021
(1728485917.266830) vcan0 18E#00006B
(1728485917.267868) vcan0 1CF#80050000001E
(1728485917.267900) vcan0 1DC#0200001B
(1728485917.269403) vcan0 183#0000000500001024
(1728485917.269420) vcan0 143#6B6B00E0
(1728485917.271386) vcan0 333#0000000000002D
(1728485917.271403) vcan0 095#800007F400000017
(1728485917.271409) vcan0 1A4#000000080000003E
(1728485917.273425) vcan0 1AA#7FFF00000000683E
(1728485917.273437) vcan0 1B0#000F0000000175
(1728485917.273443) vcan0 1D0#000000000000000A
(1728485917.273448) vcan0 039#001B
(1728485917.273453) vcan0 166#D0320027
(1728485917.274332) vcan0 244#0000000198
(1728485917.276222) vcan0 158#0000000000000028
(1728485917.276239) vcan0 161#000005500108002B
(1728485917.276246) vcan0 191#010010A141001A
(1728485917.276252) vcan0 133#00000000B6
(1728485917.276259) vcan0 136#0002000000000039
(1728485917.276264) vcan0 13A#0000000000000037
(1728485917.276269) vcan0 13F#000000050000003D
(1728485917.276301) vcan0 164#0000C01AA8000013
(1728485917.278272) vcan0 17C#0000000010000030
(1728485917.278301) vcan0 18E#00007A
(1728485917.278309) vcan0 294#040B0002CF5A003B
(1728485917.278315) vcan0 21E#03E8374522063E
(1728485917.280111) vcan0 183#0000000300001035
(1728485917.280127) vcan0 143#6B6B00FF
(1728485917.280251) vcan0 305#8026
(1728485917.282068) vcan0 095#800007F400000026
(1728485917.284984) vcan0 166#D0320036
(1728485917.285000) vcan0 158#0000000000000037
(1728485917.285005) vcan0 161#000005500108003A
(1728485917.286966) vcan0 244#00000001A3
(1728485917.287001) vcan0 191#010010A1410029
(1728485917.287034) vcan0 133#0000000089
(1728485917.287075) vcan0 136#000200000000000C
(1728485917.287093) vcan0 13A#000000000000000A
(1728485917.287232) vcan0 13F#0000000500000000
(1728485917.287238) vcan0 164#0000C01AA8000022
(1728485917.287244) vcan0 039#002A
(1728485917.287250) vcan0 17C#0000000010000003
(1728485917.287273) vcan0 18E#00004D
(1728485917.287795) vcan0 1CF#80050000002D
(1728485917.287809) vcan0 1DC#0200002A
(1728485917.287815) vcan0 320#000021
(1728485917.287833) vcan0 324#7465000000000E29
(1728485917.287839) vcan0 37C#FD00FD00097F0029
(1728485917.288876) vcan0 183#0000000A00001001
(1728485917.288891) vcan0 143#6B6B00C2
(1728485917.293754) vcan0 095#800007F400000035
(1728485917.293768) vcan0 1A4#0000000800000001
(1728485917.293774) vcan0 1AA#7FFF000000006801
(1728485917.293779) vcan0 1B0#000F0000000148
(1728485917.293786) vcan0 1D0#000000000000000A
(1728485917.293791) vcan0 166#D0320009
(1728485917.295636) vcan0 158#000000000000000A
(1728485917.295659) vcan0 161#000005500108000D
(1728485917.295665) vcan0 191#010010A1410038
(1728485917.295670) vcan0 133#0000000098
(1728485917.295675) vcan0 136#000200000000001B
(1728485917.297637) vcan0 13A#0000000000000019
(1728485917.297648) vcan0 13F#000000050000001F
(1728485917.297653) vcan0 164#0000C01AA8000031
(1728485917.297658) vcan0 17C#0000000010000012
(1728485917.297664) vcan0 18E#00005C
(1728485917.299579) vcan0 183#0000000700001013
(1728485917.299595) vcan0 143#6B6B00D1
(1728485917.300510) vcan0 244#000000017C
(1728485917.302308) vcan0 095#800007F400000008
(1728485917.303491) vcan0 166#D0320018
(1728485917.305412) vcan0 158#0000000000000019
(1728485917.305418) vcan0 161#000005500108001C
(1728485917.305421) vcan0 191#010010A141000B
(1728485917.305423) vcan0 133#00000000A7
(1728485917.307374) vcan0 136#000200000000002A
(1728485917.307380) vcan0 13A#0000000000000028
(1728485917.307383) vcan0 13F#000000050000002E
(1728485917.307385) vcan0 164#0000C01AA8000004
(1728485917.307388) vcan0 039#0039
(1728485917.307390) vcan0 17C#0000000010000021
(1728485917.307392) vcan0 18E#00006B
(1728485917.307395) vcan0 1CF#80050000003C
(1728485917.307398) vcan0 1DC#02000039
(1728485917.308493) vcan0 183#0000000500001024
(1728485917.310270) vcan0 143#6B6B00E0
(1728485917.312234) vcan0 095#800007F400000017
(1728485917.312244) vcan0 1A4#0000000800000010
(1728485917.312247) vcan0 1AA#7FFF000000006711
(1728485917.312249) vcan0 1B0#000F0000000157
(1728485917.312251) vcan0 1D0#000000000000000A
(1728485917.313179) vcan0 244#000000014D
(1728485917.314400) vcan0 166#D0320027
(1728485917.315506) vcan0 158#0000000000000028
(1728485917.315525) vcan0 161#000005500108002B
(1728485917.315531) vcan0 191#010010A141001A
(1728485917.315536) vcan0 133#00000000B6
(1728485917.315541) vcan0 136#0002000000000039
(1728485917.317101) vcan0 13A#0000000000000037
(1728485917.317115) vcan0 13F#000000050000003D
(1728485917.317121) vcan0 164#0000C01AA8000013
(1728485917.317126) vcan0 17C#0000000010000030
(1728485917.317146) vcan0 18E#00007A
(1728485917.317152) vcan0 294#040B0002CF5A000E
(1728485917.317157) vcan0 21E#03E83745220601
(1728485917.318181) vcan0 309#00000000000000B1
(1728485917.319990) vcan0 183#0000000B0000103D
(1728485917.320003) vcan0 143#6B6B00FF
(1728485917.321954) vcan0 039#000C
(1728485917.321976) vcan0 095#800007F400000026
(1728485917.323900) vcan0 166#D0320036
(1728485917.324876) vcan0 244#0000000154
(1728485917.325057) vcan0 158#0000000000000037
(1728485917.325066) vcan0 161#000005500108003A
(1728485917.325096) vcan0 191#010010A1410029
(1728485917.326796) vcan0 133#0000000089
(1728485917.326806) vcan0 136#000200000000000C
(1728485917.326812) vcan0 13A#000000000000000A
(1728485917.326817) vcan0 13F#0000000500000000
(1728485917.326822) vcan0 164#0000C01AA8000022
(1728485917.326828) vcan0 17C#0000000010000003
(1728485917.326833) vcan0 18E#00004D
(1728485917.328744) vcan0 1CF#80050000000F
(1728485917.328752) vcan0 1DC#0200000C
(1728485917.328757) vcan0 183#0000000800001003
(1728485917.328766) vcan0 143#6B6B00C2
(1728485917.331689) vcan0 095#800007F400000035
(1728485917.331700) vcan0 1A4#000000080000002F
(1728485917.331706) vcan0 1AA#7FFF000000006720
(1728485917.332757) vcan0 1B0#000F0000000166
(1728485917.332774) vcan0 1D0#000000000000000A
(1728485917.333800) vcan0 166#D0320009
(1728485917.335588) vcan0 039#001B
(1728485917.335607) vcan0 158#000000000000000A
(1728485917.335615) vcan0 161#000005500108000D
(1728485917.335620) vcan0 191#010010A1410038
(1728485917.335625) vcan0 133#0000000098
(1728485917.335630) vcan0 136#000200000000001B
(1728485917.337526) vcan0 13A#0000000000000019
(1728485917.337543) vcan0 13F#000000050000001F
(1728485917.337549) vcan0 164#0000C01AA8000031
(1728485917.337554) vcan0 17C#0000000010000012
(1728485917.337559) vcan0 18E#00005C
(1728485917.338483) vcan0 244#000000013C
(1728485917.338740) vcan0 183#0000000600001014
(1728485917.338755) vcan0 143#6B6B00D1
(1728485917.342370) vcan0 095#800007F400000008
(1728485917.343443) vcan0 166#D0320018
(1728485917.345362) vcan0 158#0000000000000019
(1728485917.345381) vcan0 161#000005500108001C
(1728485917.345387) vcan0 191#010010A141000B
(1728485917.345392) vcan0 133#00000000A7
(1728485917.346416) vcan0 136#000200000000002A
(1728485917.346431) vcan0 13A#0000000000000028
(1728485917.346437) vcan0 13F#000000050000002E
(1728485917.346442) vcan0 164#0000C01AA8000004
(1728485917.348213) vcan0 17C#0000000010000021
(1728485917.348222) vcan0 18E#00006B
(1728485917.348227) vcan0 1CF#80050000001E
(1728485917.348232) vcan0 1DC#0200001B
(1728485917.348237) vcan0 183#0000000C0000102D
(1728485917.349257) vcan0 143#6B6B00E0
(1728485917.349272) vcan0 039#002A
(1728485917.349336) vcan0 244#0000000116
(1728485917.351161) vcan0 095#800007F400000017
(1728485917.352197) vcan0 1A4#000000080000003E
(1728485917.352211) vcan0 1AA#7FFF00000000683E
(1728485917.352216) vcan0 1B0#000F0000000175
(1728485917.352221) vcan0 1D0#000000000000000A
(1728485917.354033) vcan0 166#D0320027
(1728485917.355995) vcan0 158#0000000000000028
(1728485917.356005) vcan0 161#000005500108002B
(1728485917.356010) vcan0 191#010010A141001A
(1728485917.356016) vcan0 133#00000000B6
(1728485917.356021) vcan0 136#0002000000000039
(1728485917.356028) vcan0 13A#0000000000000037
(1728485917.356034) vcan0 13F#000000050000003D
(1728485917.357999) vcan0 164#0000C01AA8000013
(1728485917.358021) vcan0 17C#0000000010000030
(1728485917.358027) vcan0 18E#00007A
(1728485917.358032) vcan0 294#040B0002CF5A001D
(1728485917.358037) vcan0 21E#03E83745220610
(1728485917.359950) vcan0 183#000000090000103F
(1728485917.359967) vcan0 143#6B6B00FF
(1728485917.361825) vcan0 095#800007F400000026
(1728485917.362792) vcan0 244#00000001B3
(1728485917.364731) vcan0 166#D0320036
(1728485917.364741) vcan0 158#0000000000000037
(1728485917.365791) vcan0 161#000005500108003A
(1728485917.365803) vcan0 191#010010A1410029
(1728485917.365805) vcan0 133#0000000089
(1728485917.365807) vcan0 136#000200000000000C
(1728485917.365810) vcan0 13A#000000000000000A
(1728485917.367672) vcan0 13F#0000000500000000
(1728485917.367679) vcan0 164#0000C01AA8000022
(1728485917.367683) vcan0 17C#0000000010000003
(1728485917.367685) vcan0 18E#00004D
(1728485917.367687) vcan0 1CF#80050000002D
(1728485917.367689) vcan0 1DC#0200002A
(1728485917.368707) vcan0 183#0000000E0000100D
(1728485917.368719) vcan0 143#6B6B00C2
(1728485917.370567) vcan0 039#0039
(1728485917.370578) vcan0 333#0000000000003C
(1728485917.372511) vcan0 095#800007F400000035
(1728485917.372519) vcan0 1A4#0000000800000001
(1728485917.372521) vcan0 1AA#7FFF000000006801
(1728485917.372523) vcan0 1B0#000F0000000148
(1728485917.372526) vcan0 1D0#000000000000000A
(1728485917.373540) vcan0 166#D0320009
(1728485917.375772) vcan0 158#000000000000000A
(1728485917.375782) vcan0 161#000005500108000D
(1728485917.375784) vcan0 191#010010A1410038
(1728485917.375787) vcan0 133#0000000098
(1728485917.375789) vcan0 136#000200000000001B
(1728485917.375791) vcan0 13A#0000000000000019
(1728485917.377376) vcan0 13F#000000050000001F
(1728485917.377384) vcan0 164#0000C01AA8000031
(1728485917.377386) vcan0 17C#0000000010000012
(1728485917.377388) vcan0 18E#00005C
(1728485917.378323) vcan0 244#0000000150
(1728485917.379413) vcan0 183#0000000A00001010
(1728485917.379422) vcan0 143#6B6B00D1
(1728485917.381258) vcan0 095#800007F400000008
(1728485917.382283) vcan0 305#8035
(1728485917.383734) vcan0 166#D0320018
(1728485917.385159) vcan0 158#0000000000000019
(1728485917.385169) vcan0 161#000005500108001C
(1728485917.385171) vcan0 191#010090A1410003
(1728485917.386182) vcan0 133#00000000A7
(1728485917.386190) vcan0 136#000200000000002A
(1728485917.386193) vcan0 13A#0000000000000028
(1728485917.386195) vcan0 13F#000000050000002E
(1728485917.387207) vcan0 164#0000C01AA8000004
(1728485917.387214) vcan0 17C#0000000010000021
(1728485917.387216) vcan0 18E#00006B
(1728485917.387219) vcan0 1CF#80050000003C
(1728485917.387220) vcan0 1DC#02000039
(1728485917.387223) vcan0 320#000030
(1728485917.388233) vcan0 324#7465000000000E38
(1728485917.388238) vcan0 37C#FD00FD00097F0038
(1728485917.388241) vcan0 183#0000000F0000102A
(1728485917.389064) vcan0 244#0000000166
(1728485917.389373) vcan0 143#6B6B00E0
(1728485917.390394) vcan0 039#000C
(1728485917.392046) vcan0 095#800007F400000017
(1728485917.392057) vcan0 1A4#0000000800000010
(1728485917.392059) vcan0 1AA#7FFF000000006711
(1728485917.392062) vcan0 1B0#000F0000000157
(1728485917.392064) vcan0 1D0#000000000000000A
(1728485917.394106) vcan0 166#D0320027
(1728485917.395127) vcan0 158#0000000000000028
(1728485917.395134) vcan0 161#000005500108002B
(1728485917.395137) vcan0 191#010090A1410012
(1728485917.396151) vcan0 133#00000000B6
(1728485917.396158) vcan0 136#0002000000000039
(1728485917.396161) vcan0 13A#0000000000000037
(1728485917.396163) vcan0 13F#000000050000003D
(1728485917.397174) vcan0 164#0000C01AA8000013
(1728485917.397180) vcan0 17C#0000000010000030
(1728485917.397183) vcan0 18E#00007A
(1728485917.397185) vcan0 294#040B0002CF5A002C
(1728485917.397187) vcan0 21E#03E8374522062F
(1728485917.398742) vcan0 183#0000001300001034
(1728485917.398748) vcan0 143#6B6B00FF
(1728485917.401011) vcan0 095#800007F400000026
(1728485917.404643) vcan0 244#0000000123
(1728485917.404672) vcan0 166#D0320036
(1728485917.404681) vcan0 039#001B
(1728485917.404686) vcan0 158#0000000000000037
(1728485917.406635) vcan0 161#000005500108003A
(1728485917.406651) vcan0 191#010090A1410021
(1728485917.406658) vcan0 133#0000000089
(1728485917.406663) vcan0 136#000200000000000C
(1728485917.406668) vcan0 13A#000000000000000A
(1728485917.406674) vcan0 13F#0000000500000000
(1728485917.406681) vcan0 164#0000C01AA8000022
(1728485917.406686) vcan0 17C#0000000010000003
(1728485917.406691) vcan0 18E#00004D
(1728485917.408676) vcan0 1CF#80050000000F
(1728485917.408687) vcan0 1DC#0200000C
(1728485917.408692) vcan0 183#0000000E0000100D
(1728485917.408721) vcan0 143#6B6B00C2
(1728485917.412612) vcan0 095#800007F400000035
(1728485917.412632) vcan0 1A4#000000080000002F
(1728485917.412640) vcan0 1AA#7FFF000000006720
(1728485917.412645) vcan0 1B0#000F0000000166
(1728485917.412650) vcan0 1D0#000000000000000A
(1728485917.413765) vcan0 166#D0320009
(1728485917.414721) vcan0 244#0000000101
(1728485917.414810) vcan0 158#000000000000000A
(1728485917.416450) vcan0 161#000005500108000D
(1728485917.416459) vcan0 191#010090A1410030
(1728485917.416462) vcan0 133#0000000098
(1728485917.416464) vcan0 136#000200000000001B
(1728485917.416466) vcan0 13A#0000000000000019
(1728485917.416468) vcan0 13F#000000050000001F
(1728485917.416470) vcan0 164#0000C01AA8000031
(1728485917.417492) vcan0 17C#0000000010000012
(1728485917.417506) vcan0 18E#00005C
(1728485917.417508) vcan0 309#0000000000000084
(1728485917.419342) vcan0 039#002A
(1728485917.419351) vcan0 183#0000000A00001010
(1728485917.419353) vcan0 143#6B6B00D1
(1728485917.421346) vcan0 095#800007F400000008
(1728485917.425162) vcan0 166#D0320018
(1728485917.425169) vcan0 158#0000000000000019
(1728485917.425171) vcan0 161#000005500108001C
(1728485917.425174) vcan0 191#010090A1410003
(1728485917.427166) vcan0 133#00000000A7
(1728485917.427177) vcan0 136#000200000000002A
(1728485917.427179) vcan0 13A#0000000000000028
(1728485917.427181) vcan0 13F#000000050000002E
(1728485917.427183) vcan0 164#0000C01AA8000004
(1728485917.427186) vcan0 17C#0000000010000021
(1728485917.427189) vcan0 18E#00006B
(1728485917.427191) vcan0 1CF#80050000001E
(1728485917.427195) vcan0 1DC#0200001B
(1728485917.428097) vcan0 244#0000000132
(1728485917.428368) vcan0 183#0000000700001022
(1728485917.430045) vcan0 143#6B6B00E0
(1728485917.431096) vcan0 095#800007F400000017
(1728485917.432961) vcan0 1A4#000000080000003E
(1728485917.432970) vcan0 1AA#7FFF00000000683E
(1728485917.432977) vcan0 039#0039
(1728485917.432982) vcan0 1B0#000F0000000175
(1728485917.432984) vcan0 1D0#000000000000000A
(1728485917.434982) vcan0 166#D0320027
(1728485917.434997) vcan0 158#0000000000000028
(1728485917.434999) vcan0 161#000005500108002B
(1728485917.436858) vcan0 191#010090A1410012
(1728485917.436866) vcan0 133#00000000B6
(1728485917.436869) vcan0 136#0002000000000039
(1728485917.436871) vcan0 13A#0000000000000037
(1728485917.436873) vcan0 13F#000000050000003D
(1728485917.436876) vcan0 164#0000C01AA8000013
(1728485917.436878) vcan0 17C#0000000010000030
(1728485917.436881) vcan0 18E#00007A
(1728485917.436884) vcan0 294#040B0002CF5A003B
(1728485917.438804) vcan0 21E#03E8374522063E
(1728485917.438809) vcan0 183#0000000D0000103B
(1728485917.438812) vcan0 143#6B6B00FF
(1728485917.441731) vcan0 244#00000001DC
(1728485917.441924) vcan0 095#800007F400000026
(1728485917.443674) vcan0 166#D0320036
(1728485917.445567) vcan0 158#0000000000000037
(1728485917.445578) vcan0 161#000005500108003A
(1728485917.445583) vcan0 191#010090A1410021
(1728485917.445589) vcan0 133#0000000089
(1728485917.445594) vcan0 136#000200000000000C
(1728485917.446765) vcan0 13A#000000000000000A
(1728485917.446774) vcan0 13F#0000000500000000
(1728485917.446779) vcan0 039#000C
(1728485917.446784) vcan0 164#0000C01AA8000022
(1728485917.446790) vcan0 17C#0000000010000003
(1728485917.446796) vcan0 18E#00004D
(1728485917.448515) vcan0 1CF#80050000002D
(1728485917.448532) vcan0 1DC#0200002A
(1728485917.448539) vcan0 183#0000001100001009
(1728485917.451660) vcan0 143#6B6B00C2
(1728485917.451670) vcan0 095#800007F400000035
(1728485917.451672) vcan0 1A4#0000000800000001
(1728485917.451674) vcan0 1AA#7FFF000000006801
(1728485917.453390) vcan0 1B0#000F0000000148
(1728485917.453407) vcan0 1D0#000000000000000A
(1728485917.455235) vcan0 166#D0320009
(1728485917.455264) vcan0 158#000000000000000A
(1728485917.455270) vcan0 161#000005500108000D
(1728485917.455275) vcan0 191#010090A1410030
(1728485917.455282) vcan0 133#0000000098
(1728485917.457203) vcan0 244#0000000110
(1728485917.457216) vcan0 136#000200000000001B
(1728485917.457221) vcan0 13A#0000000000000019
(1728485917.457226) vcan0 13F#000000050000001F
(1728485917.457231) vcan0 164#0000C01AA8000031
(1728485917.457237) vcan0 17C#0000000010000012
(1728485917.457242) vcan0 18E#00005C
(1728485917.459267) vcan0 183#0000000C0000101E
(1728485917.459285) vcan0 143#6B6B00D1
(1728485917.460297) vcan0 039#001B
(1728485917.461323) vcan0 095#800007F400000008
(1728485917.464370) vcan0 166#D0320018
(1728485917.465388) vcan0 158#0000000000000019
(1728485917.465399) vcan0 161#000005500108001C
(1728485917.465405) vcan0 191#010090A1410003
(1728485917.465410) vcan0 133#00000000A7
(1728485917.466428) vcan0 136#000200000000002A
(1728485917.466446) vcan0 13A#0000000000000028
(1728485917.466451) vcan0 13F#000000050000002E
(1728485917.466475) vcan0 164#0000C01AA8000004
(1728485917.467494) vcan0 17C#0000000010000021
(1728485917.467506) vcan0 18E#00006B
(1728485917.467511) vcan0 1CF#80050000003C
(1728485917.467548) vcan0 1DC#02000039
(1728485917.468916) vcan0 183#0000001000001028
(1728485917.468942) vcan0 143#6B6B00E0
(1728485917.469965) vcan0 333#0000000000000F
(1728485917.470991) vcan0 095#800007F400000017
(1728485917.472772) vcan0 244#00000001F3
(1728485917.472783) vcan0 1A4#0000000800000010
(1728485917.472789) vcan0 1AA#7FFF000000006711
(1728485917.472794) vcan0 1B0#000F0000000157
(1728485917.472799) vcan0 1D0#000000000000000A
(1728485917.473817) vcan0 039#002A
(1728485917.473828) vcan0 166#D0320027
(1728485917.474842) vcan0 158#0000000000000028
(1728485917.476646) vcan0 161#000005500108002B
(1728485917.476658) vcan0 191#010090A1410012
(1728485917.476664) vcan0 133#00000000B6
(1728485917.476669) vcan0 136#0002000000000039
(1728485917.476674) vcan0 13A#0000000000000037
(1728485917.476679) vcan0 13F#000000050000003D
(1728485917.476684) vcan0 164#0000C01AA8000013
(1728485917.476697) vcan0 17C#0000000010000030
(1728485917.476702) vcan0 18E#00007A
(1728485917.477717) vcan0 294#040B0002CF5A000E
(1728485917.477726) vcan0 21E#03E83745220601
(1728485917.479580) vcan0 183#0000000C0000103C
(1728485917.479590) vcan0 143#6B6B00FF
(1728485917.481607) vcan0 095#800007F400000026
(1728485917.483700) vcan0 244#00000001E2
(1728485917.483712) vcan0 166#D0320036
(1728485917.484756) vcan0 158#0000000000000037
(1728485917.486373) vcan0 161#000005500108003A
(1728485917.486384) vcan0 191#010090A1410021
(1728485917.486389) vcan0 133#0000000089
(1728485917.486394) vcan0 136#000200000000000C
(1728485917.486399) vcan0 13A#000000000000000A
(1728485917.486412) vcan0 039#0039
(1728485917.486417) vcan0 13F#0000000500000000
(1728485917.486422) vcan0 164#0000C01AA8000022
(1728485917.487436) vcan0 17C#0000000010000003
(1728485917.487445) vcan0 18E#00004D
(1728485917.487451) vcan0 1CF#80050000000F
(1728485917.487456) vcan0 1DC#0200000C
(1728485917.487478) vcan0 305#8008
(1728485917.487484) vcan0 320#000003
(1728485917.488493) vcan0 324#7465000000000E0B
(1728485917.488502) vcan0 37C#FD00FD00097F000B
(1728485917.488507) vcan0 183#0000000900001002
(1728485917.488512) vcan0 40C#033133383439000D
(1728485917.489528) vcan0 454#23EF09
(1728485917.489539) vcan0 143#6B6B00C2
(1728485917.491267) vcan0 095#800007F400000035
(1728485917.492288) vcan0 1A4#000000080000002F
(1728485917.492297) vcan0 1AA#7FFF000000006720
(1728485917.492303) vcan0 1B0#000F0000000166
(1728485917.492308) vcan0 1D0#000000000000000A
(1728485917.494331) vcan0 166#D0320009
(1728485917.495357) vcan0 158#000000000000000A
(1728485917.495369) vcan0 161#000005500108000D
(1728485917.495378) vcan0 191#010090A1410030
(1728485917.495387) vcan0 133#0000000098
(1728485917.497075) vcan0 136#000200000000001B
(1728485917.497091) vcan0 13A#0000000000000019
(1728485917.497100) vcan0 13F#000000050000001F
(1728485917.497108) vcan0 164#0000C01AA8000031
(1728485917.497118) vcan0 17C#0000000010000012
(1728485917.497126) vcan0 18E#00005C
(1728485917.499023) vcan0 244#000000018C
(1728485917.499227) vcan0 183#0000000E0000101C
(1728485917.499236) vcan0 143#6B6B00D1
(1728485917.500268) vcan0 039#000C
(1728485917.501968) vcan0 095#800007F400000008
(1728485917.504877) vcan0 166#D0320018
(1728485917.504888) vcan0 158#0000000000000019
(1728485917.504893) vcan0 161#000005500108001C
(1728485917.506785) vcan0 191#010090A1410003
(1728485917.506793) vcan0 133#00000000A7
(1728485917.506798) vcan0 136#000200000000002A
(1728485917.506803) vcan0 13A#0000000000000028
(1728485917.506808) vcan0 13F#000000050000002E
(1728485917.506813) vcan0 164#0000C01AA8000004
(1728485917.506817) vcan0 17C#0000000010000021
(1728485917.506822) vcan0 18E#00006B
(1728485917.508070) vcan0 1CF#80050000001E
(1728485917.508081) vcan0 1DC#0200001B
(1728485917.508086) vcan0 183#0000000A0000102F
(1728485917.509101) vcan0 143#6B6B00E0
(1728485917.509897) vcan0 244#000000012C
(1728485917.511703) vcan0 095#800007F400000017
(1728485917.511719) vcan0 1A4#000000080000003E
(1728485917.511724) vcan0 1AA#7FFF00000000683E
(1728485917.513613) vcan0 1B0#000F0000000175
(1728485917.513630) vcan0 1D0#000000000000000A
(1728485917.513636) vcan0 166#D0320027
(1728485917.514957) vcan0 158#0000000000000028
(1728485917.514968) vcan0 161#000005500108002B
(1728485917.515985) vcan0 191#010090A1410012
(1728485917.515996) vcan0 133#00000000B6
(1728485917.516001) vcan0 136#0002000000000039
(1728485917.516006) vcan0 13A#0000000000000037
(1728485917.516012) vcan0 039#001B
(1728485917.518498) vcan0 13F#000000050000003D
(1728485917.518511) vcan0 164#0000C01AA8000013
(1728485917.518517) vcan0 17C#0000000010000030
(1728485917.518523) vcan0 18E#00007A
(1728485917.518529) vcan0 294#040B0002CF5A001D
(1728485917.518536) vcan0 21E#03E83745220610
(1728485917.518541) vcan0 309#0000000000000093
(1728485917.518546) vcan0 428#01040000521C10
(1728485917.518552) vcan0 405#000004000000001A
(1728485917.519567) vcan0 183#0000000700001031
(1728485917.519584) vcan0 143#6B6B00FF
(1728485917.522368) vcan0 095#800007F400000026
(1728485917.523440) vcan0 166#D0320036
(1728485917.525295) vcan0 244#0000000125
(1728485917.525468) vcan0 158#0000000000000037
(1728485917.525478) vcan0 161#000005500108003A
(1728485917.525483) vcan0 191#010090A1410021
(1728485917.525488) vcan0 133#0000000089
(1728485917.526507) vcan0 136#000200000000000C
(1728485917.526521) vcan0 13A#000000000000000A
(1728485917.526526) vcan0 13F#0000000500000000
(1728485917.526531) vcan0 164#0000C01AA8000022
(1728485917.526539) vcan0 17C#0000000010000003
(1728485917.529184) vcan0 18E#00004D
(1728485917.529198) vcan0 1CF#80050000002D
(1728485917.529204) vcan0 1DC#0200002A
(1728485917.529209) vcan0 183#0000000D0000100E
(1728485917.529220) vcan0 143#6B6B00C2
(1728485917.531133) vcan0 039#002A
(1728485917.531143) vcan0 095#800007F400000035
(1728485917.533334) vcan0 1A4#0000000800000001
(1728485917.533342) vcan0 1AA#7FFF000000006801
(1728485917.533344) vcan0 1B0#000F0000000148
(1728485917.533346) vcan0 1D0#000000000000000A
(1728485917.534621) vcan0 166#D0320009
(1728485917.534845) vcan0 158#000000000000000A
(1728485917.536072) vcan0 161#000005500108000D
(1728485917.536085) vcan0 191#010090A1410030
(1728485917.536088) vcan0 133#0000000098
(1728485917.536090) vcan0 136#000200000000001B
(1728485917.536092) vcan0 13A#0000000000000019
(1728485917.536099) vcan0 13F#000000050000001F
(1728485917.536157) vcan0 244#00000001F2
(1728485917.538025) vcan0 164#0000C01AA9000030
(1728485917.538038) vcan0 17C#0000000010000012
(1728485917.538040) vcan0 18E#00005C
(1728485917.540023) vcan0 183#0000000900001011
(1728485917.540034) vcan0 143#6B6B00D1
(1728485917.541880) vcan0 095#800007F400000008
(1728485917.543905) vcan0 166#D0320018
(1728485917.544939) vcan0 158#0000000000000019
(1728485917.544950) vcan0 161#000005500108001C
(1728485917.546704) vcan0 191#010090A1410003
(1728485917.546713) vcan0 133#00000000A7
(1728485917.546716) vcan0 136#000200000000002A
(1728485917.546718) vcan0 13A#0000000000000028
(1728485917.546720) vcan0 13F#000000050000002E
(1728485917.546723) vcan0 164#0000C01AA8000004
(1728485917.546726) vcan0 17C#0000000010000021
(1728485917.546730) vcan0 18E#00006B
(1728485917.547779) vcan0 244#0000000178
(1728485917.548362) vcan0 1CF#80050000003C
(1728485917.548367) vcan0 1DC#02000039
(1728485917.548370) vcan0 183#0000000E0000102B
(1728485917.550894) vcan0 143#6B6B00E0
(1728485917.550902) vcan0 039#0039
(1728485917.552547) vcan0 095#800007F400000017
(1728485917.552580) vcan0 1A4#0000000800000010
(1728485917.552589) vcan0 1AA#7FFF000000006711
(1728485917.552598) vcan0 1B0#000F0000000157
(1728485917.552606) vcan0 1D0#000000000000000A
(1728485917.554607) vcan0 166#D0320027
(1728485917.554635) vcan0 158#0000000000000028
(1728485917.556012) vcan0 161#000005500108002B
(1728485917.556029) vcan0 191#010090A1410012
(1728485917.556039) vcan0 133#00000000B6
(1728485917.556048) vcan0 136#0002000000000039
(1728485917.556057) vcan0 13A#0000000000000037
(1728485917.556065) vcan0 13F#000000050000003D
(1728485917.557109) vcan0 164#0000C01AA8000013
(1728485917.557134) vcan0 17C#0000000010000030
(1728485917.557143) vcan0 18E#00007A
(1728485917.557152) vcan0 294#040B0002CF5A002C
(1728485917.557161) vcan0 21E#03E8374522062F
(1728485917.558936) vcan0 183#0000000A0000103E
(1728485917.558963) vcan0 244#0000000188
(1728485917.558988) vcan0 143#6B6B00FF
(1728485917.561864) vcan0 095#800007F400000026
(1728485917.563850) vcan0 039#000C
(1728485917.563860) vcan0 166#D0320036
(1728485917.565741) vcan0 158#0000000000000037
(1728485917.565755) vcan0 161#000005500108003A
(1728485917.565760) vcan0 191#010090A1410021
(1728485917.565766) vcan0 133#0000000089
(1728485917.565775) vcan0 136#000200000000000C
(1728485917.565780) vcan0 13A#000000000000000A
(1728485917.566814) vcan0 13F#0000000500000000
(1728485917.566830) vcan0 164#0000C01AA8000022
(1728485917.566836) vcan0 17C#0000000010000003
(1728485917.566842) vcan0 18E#00004D
(1728485917.568115) vcan0 1CF#80050000000F
(1728485917.568128) vcan0 1DC#0200000C
(1728485917.568133) vcan0 183#0000000700001004
(1728485917.569747) vcan0 143#6B6B00C2
(1728485917.569769) vcan0 333#0000000000001E
(1728485917.572675) vcan0 095#800007F400000035
(1728485917.572691) vcan0 1A4#000000080000002F
(1728485917.572680) vcan0 244#00000001BC
(1728485917.572698) vcan0 1AA#7FFF000000006720
(1728485917.572703) vcan0 1B0#000F0000000166
(1728485917.572708) vcan0 1D0#000000000000000A
(1728485917.574700) vcan0 166#D0320009
(1728485917.574719) vcan0 158#000000000000000A
(1728485917.576549) vcan0 161#000005500108000D
(1728485917.576565) vcan0 191#010090A1410030
(1728485917.576573) vcan0 133#0000000098
(1728485917.576581) vcan0 136#000200000000001B
(1728485917.576592) vcan0 13A#0000000000000019
(1728485917.576599) vcan0 13F#000000050000001F
(1728485917.576610) vcan0 164#0000C01AA8000031
(1728485917.576618) vcan0 039#001B
(1728485917.577698) vcan0 17C#0000000010000012
(1728485917.577715) vcan0 18E#00005C
(1728485917.579552) vcan0 183#0000000D0000101D
(1728485917.579571) vcan0 143#6B6B00D1
(1728485917.582412) vcan0 095#800007F400000008
(1728485917.583486) vcan0 166#D0320018
(1728485917.584744) vcan0 158#0000000000000019
(1728485917.586262) vcan0 161#000005500108001C
(1728485917.586276) vcan0 191#010090A1410003
(1728485917.586279) vcan0 133#00000000A7
(1728485917.586281) vcan0 136#000200000000002A
(1728485917.586283) vcan0 13A#0000000000000028
(1728485917.586286) vcan0 13F#000000050000002E
(1728485917.586288) vcan0 164#0000C01AA8000004
(1728485917.587304) vcan0 17C#0000000010000021
(1728485917.587311) vcan0 18E#00006B
(1728485917.587313) vcan0 1CF#80050000001E
(1728485917.587316) vcan0 1DC#0200001B
(1728485917.587318) vcan0 320#000012
(1728485917.588333) vcan0 324#7465000000000E1A
(1728485917.588342) vcan0 37C#FD00FD00097F001A
(1728485917.588344) vcan0 183#0000000900001020
(1728485917.588467) vcan0 244#0000000184
(1728485917.589368) vcan0 143#6B6B00E0
(1728485917.589379) vcan0 039#002A
(1728485917.590680) vcan0 305#8017
(1728485917.591721) vcan0 095#800007F400000017
(1728485917.591732) vcan0 1A4#000000080000003E
(1728485917.591734) vcan0 1AA#7FFF00000000683E
(1728485917.593097) vcan0 1B0#000F0000000175
(1728485917.593105) vcan0 1D0#000000000000000A
(1728485917.594119) vcan0 166#D0320027
(1728485917.595136) vcan0 158#0000000000000028
(1728485917.595161) vcan0 161#000005500108002B
(1728485917.595164) vcan0 191#010090A1410012
(1728485917.597004) vcan0 133#00000000B6
(1728485917.597010) vcan0 136#0002000000000039
(1728485917.597012) vcan0 13A#0000000000000037
(1728485917.597014) vcan0 13F#000000050000003D
(1728485917.597017) vcan0 164#0000C01AA8000013
(1728485917.597019) vcan0 17C#0000000010000030
(1728485917.597021) vcan0 18E#00007A
(1728485917.597024) vcan0 294#040B0002CF5A003B
(1728485917.598070) vcan0 21E#03E8374522063E
(1728485917.599056) vcan0 244#0000000147
(1728485917.599130) vcan0 183#0000000E0000103A
(1728485917.599139) vcan0 143#6B6B00FF
(1728485917.601882) vcan0 095#800007F400000026
(1728485917.603986) vcan0 166#D0320036
(1728485917.605081) vcan0 158#0000000000000037
(1728485917.605177) vcan0 161#000005500108003A
(1728485917.605182) vcan0 191#010090A1410021
(1728485917.606787) vcan0 039#0039
(1728485917.606795) vcan0 133#0000000089
(1728485917.606798) vcan0 136#000200000000000C
(1728485917.606800) vcan0 13A#000000000000000A
(1728485917.606803) vcan0 13F#0000000500000000
(1728485917.606805) vcan0 164#0000C01AA8000022
(1728485917.606807) vcan0 17C#0000000010000003
(1728485917.606810) vcan0 18E#00004D
(1728485917.608715) vcan0 1CF#80050000002D
(1728485917.608727) vcan0 1DC#0200002A
(1728485917.608730) vcan0 183#0000000A00001001
(1728485917.608732) vcan0 143#6B6B00C2
(1728485917.610664) vcan0 244#000000016D
(1728485917.611332) vcan0 095#800007F400000035
(1728485917.611760) vcan0 1A4#0000000800000001
(1728485917.611771) vcan0 1AA#7FFF000000006801
(1728485917.611777) vcan0 1B0#000F0000000148
(1728485917.612797) vcan0 1D0#000000000000000A
(1728485917.614528) vcan0 166#D0320009
(1728485917.616116) vcan0 158#000000000000000A
(1728485917.616126) vcan0 161#000005500108000D
(1728485917.616129) vcan0 191#010090A1410030
(1728485917.616131) vcan0 133#0000000098
(1728485917.616133) vcan0 136#000200000000001B
(1728485917.616136) vcan0 13A#0000000000000019
(1728485917.616138) vcan0 13F#000000050000001F
(1728485917.617420) vcan0 164#0000C01AA8000031
(1728485917.617450) vcan0 17C#0000000010000012
(1728485917.617457) vcan0 18E#00005C
(1728485917.617465) vcan0 309#00000000000000A2
(1728485917.618707) vcan0 183#0000000700001013
(1728485917.618717) vcan0 143#6B6B00D1
(1728485917.620382) vcan0 039#000C
(1728485917.622366) vcan0 244#000000018A
(1728485917.622457) vcan0 095#800007F400000008
(1728485917.624281) vcan0 166#D0320018
(1728485917.625620) vcan0 158#0000000000000019
(1728485917.625629) vcan0 161#000005500108001C
(1728485917.625632) vcan0 191#010090A1410003
(1728485917.625634) vcan0 133#00000000A7
(1728485917.625636) vcan0 136#000200000000002A
(1728485917.627230) vcan0 13A#0000000000000028
(1728485917.627241) vcan0 13F#000000050000002E
(1728485917.627244) vcan0 164#0000C01AA8000004
(1728485917.627246) vcan0 17C#0000000010000021
(1728485917.627251) vcan0 18E#00006B
(1728485917.627253) vcan0 1CF#80050000003C
(1728485917.627255) vcan0 1DC#02000039
(1728485917.629158) vcan0 183#0000000500001024
(1728485917.629166) vcan0 143#6B6B00E0
(1728485917.631115) vcan0 095#800007F400000017
(1728485917.632241) vcan0 1A4#0000000800000010
(1728485917.632256) vcan0 1AA#7FFF000000006711
(1728485917.632258) vcan0 1B0#000F0000000157
(1728485917.632261) vcan0 1D0#000000000000000A
(1728485917.632289) vcan0 039#001B
(1728485917.634261) vcan0 166#D0320027
(1728485917.635964) vcan0 158#0000000000000028
(1728485917.635974) vcan0 161#000005500108002B
(1728485917.635976) vcan0 191#010090A1410012
(1728485917.635979) vcan0 133#00000000B6
(1728485917.635981) vcan0 136#0002000000000039
(1728485917.635983) vcan0 13A#0000000000000037
(1728485917.637630) vcan0 13F#000000050000003D
(1728485917.637639) vcan0 164#0000C01AA8000013
(1728485917.637642) vcan0 17C#0000000010000030
(1728485917.637644) vcan0 18E#00007A
(1728485917.637646) vcan0 294#040B0002CF5A000E
(1728485917.637648) vcan0 21E#03E83745220601
(1728485917.638754) vcan0 244#000000014A
(1728485917.638860) vcan0 183#0000000300001035
(1728485917.638868) vcan0 143#6B6B00FF
(1728485917.641827) vcan0 095#800007F400000026
(1728485917.643757) vcan0 166#D0320036
(1728485917.645607) vcan0 158#0000000000000037
(1728485917.645626) vcan0 161#000005500108003A
(1728485917.645628) vcan0 191#010090A1410021
(1728485917.645631) vcan0 133#0000000089
(1728485917.645633) vcan0 136#000200000000000C
(1728485917.646649) vcan0 13A#000000000000000A
(1728485917.646658) vcan0 13F#0000000500000000
(1728485917.646661) vcan0 164#0000C01AA8000022
(1728485917.646663) vcan0 17C#0000000010000003
(1728485917.646665) vcan0 18E#00004D
(1728485917.648620) vcan0 1CF#80050000000F
(1728485917.648631) vcan0 1DC#0200000C
(1728485917.648634) vcan0 183#0000000A00001001
(1728485917.648636) vcan0 039#002A
(1728485917.648638) vcan0 143#6B6B00C2
(1728485917.651871) vcan0 095#800007F400000035
(1728485917.651885) vcan0 1A4#000000080000002F
(1728485917.651887) vcan0 1AA#7FFF000000006720
(1728485917.651890) vcan0 1B0#000F0000000166
(1728485917.653032) vcan0 1D0#000000000000000A
(1728485917.654474) vcan0 244#0000000159
(1728485917.654516) vcan0 166#D0320009
(1728485917.656048) vcan0 158#000000000000000A
(1728485917.656057) vcan0 161#000005500108000D
(1728485917.656060) vcan0 191#010090A1410030
(1728485917.656062) vcan0 133#0000000098
(1728485917.656065) vcan0 136#000200000000001B
(1728485917.656067) vcan0 13A#0000000000000019
(1728485917.656069) vcan0 13F#000000050000001F
(1728485917.658035) vcan0 164#0000C01AA8000031
(1728485917.658041) vcan0 17C#0000000010000012
(1728485917.658043) vcan0 18E#00005C
(1728485917.660236) vcan0 183#0000000700001013
(1728485917.660248) vcan0 143#6B6B00D1
(1728485917.661921) vcan0 095#800007F400000008
(1728485917.661931) vcan0 039#0039
(1728485917.664904) vcan0 166#D0320018
(1728485917.664915) vcan0 158#0000000000000019
(1728485917.664917) vcan0 161#000005500108001C
(1728485917.666944) vcan0 191#010090A1410003
(1728485917.666956) vcan0 133#00000000A7
(1728485917.666958) vcan0 136#000200000000002A
(1728485917.666961) vcan0 13A#0000000000000028
(1728485917.666963) vcan0 13F#000000050000002E
(1728485917.666969) vcan0 164#0000C01AA8000004
(1728485917.666973) vcan0 17C#0000000010000021
(1728485917.666975) vcan0 18E#00006B
(1728485917.666977) vcan0 1CF#80050000001E
(1728485917.667315) vcan0 244#000000017D
(1728485917.668080) vcan0 1DC#0200001B
(1728485917.668091) vcan0 183#0000000500001024
(1728485917.669793) vcan0 143#6B6B00E0
(1728485917.669816) vcan0 333#0000000000002D
(1728485917.671637) vcan0 095#800007F400000017
(1728485917.671645) vcan0 1A4#000000080000003E
(1728485917.671647) vcan0 1AA#7FFF00000000683E
(1728485917.672726) vcan0 1B0#000F0000000175
(1728485917.672738) vcan0 1D0#000000000000000A
(1728485917.673960) vcan0 166#D0320027
(1728485917.675527) vcan0 158#0000000000000028
(1728485917.675535) vcan0 161#000005500108002B
(1728485917.675537) vcan0 191#010090A1410012
