(1728486117.522800) vcan0 1CF#80050000003C
(1728486117.522807) vcan0 1DC#02000039
(1728486117.522809) vcan0 320#000030
(1728486117.522811) vcan0 324#7465000000000E38
(1728486117.522814) vcan0 183#0000000900001020
(1728486117.522816) vcan0 37C#FD00FD00097F0038
(1728486117.522818) vcan0 039#002A
(1728486117.522820) vcan0 40C#0000000004000013
(1728486117.524810) vcan0 454#23EF18
(1728486117.524820) vcan0 143#6B6B00E0
(1728486117.526930) vcan0 095#800007F800000013
(1728486117.526942) vcan0 1A4#0000000800000010
(1728486117.526944) vcan0 1AA#7FFF000000006810
(1728486117.526946) vcan0 1B0#000F0000000157
(1728486117.526948) vcan0 1D0#000000000000000A
(1728486117.528670) vcan0 166#D0320027
(1728486117.530596) vcan0 158#0000000000000028
(1728486117.530603) vcan0 161#000005500108002B
(1728486117.530606) vcan0 191#010010A141001A
(1728486117.530608) vcan0 133#00000000B6
(1728486117.530610) vcan0 136#0002000000000039
(1728486117.530612) vcan0 13A#0000000000000037
(1728486117.530615) vcan0 13F#000000050000003D
(1728486117.531654) vcan0 164#0000C01AA8000013
(1728486117.531666) vcan0 17C#0000000010000030
(1728486117.531668) vcan0 18E#00007A
(1728486117.531670) vcan0 294#040B0002CF5A000E
(1728486117.531675) vcan0 21E#03E83745220601
(1728486117.532557) vcan0 244#0000000116
(1728486117.533060) vcan0 183#0000000600001032
(1728486117.534521) vcan0 143#6B6B00FF
(1728486117.536422) vcan0 095#800007F800000022
(1728486117.536430) vcan0 039#0039
(1728486117.536432) vcan0 305#8008
(1728486117.538410) vcan0 166#D0320036
(1728486117.540275) vcan0 158#0000000000000037
(1728486117.540284) vcan0 161#000005500108003A
(1728486117.540287) vcan0 191#010010A1410029
(1728486117.540289) vcan0 164#0000C01AA8000022
(1728486117.540291) vcan0 133#0000000089
(1728486117.540293) vcan0 136#000200000000000C
(1728486117.542262) vcan0 13A#000000000000000A
(1728486117.542276) vcan0 13F#0000000500000000
(1728486117.542281) vcan0 17C#0000000010000003
(1728486117.542283) vcan0 18E#00004D
(1728486117.542285) vcan0 1CF#80050000000F
(1728486117.542287) vcan0 1DC#0200000C
(1728486117.542289) vcan0 183#0000000C0000100F
(1728486117.543430) vcan0 143#6B6B00C2
(1728486117.544553) vcan0 244#000000010D
(1728486117.545742) vcan0 095#800007F800000031
(1728486117.545754) vcan0 1A4#000000080000002F
(1728486117.547211) vcan0 1AA#7FFF00000000682F
(1728486117.547220) vcan0 1B0#000F0000000166
(1728486117.547222) vcan0 1D0#000000000000000A
(1728486117.549072) vcan0 166#D0320009
(1728486117.549079) vcan0 158#000000000000000A
(1728486117.550086) vcan0 188#00000000
(1728486117.550106) vcan0 161#000005500108000D
(1728486117.550109) vcan0 191#010010A1410038
(1728486117.550111) vcan0 164#0000C01AA8000031
(1728486117.550114) vcan0 133#0000000098
(1728486117.552002) vcan0 136#000200000000001B
(1728486117.552008) vcan0 039#000C
(1728486117.552010) vcan0 13A#0000000000000019
(1728486117.552013) vcan0 13F#000000050000001F
(1728486117.552015) vcan0 17C#0000000010000012
(1728486117.552017) vcan0 18E#00005C
(1728486117.552019) vcan0 309#0000000000000084
(1728486117.552021) vcan0 428#01040000521C2F
(1728486117.553034) vcan0 405#0000040000000029
(1728486117.553039) vcan0 183#0000000900001011
(1728486117.554063) vcan0 143#6B6B00D1
(1728486117.555962) vcan0 244#00000001E4
(1728486117.555977) vcan0 095#800007F800000004
(1728486117.557892) vcan0 166#D0320018
(1728486117.559022) vcan0 158#0000000000000019
(1728486117.560583) vcan0 161#000005500108001C
(1728486117.560608) vcan0 191#010010A141000B
(1728486117.560620) vcan0 164#0000C01AA8000004
(1728486117.560623) vcan0 133#00000000A7
(1728486117.560625) vcan0 136#000200000000002A
(1728486117.560628) vcan0 13A#0000000000000028
(1728486117.560630) vcan0 13F#000000050000002E
(1728486117.561752) vcan0 17C#0000000010000021
(1728486117.561763) vcan0 18E#00006B
(1728486117.561765) vcan0 1CF#80050000001E
(1728486117.561767) vcan0 1DC#0200001B
(1728486117.563686) vcan0 183#0000000E0000102B
(1728486117.563693) vcan0 143#6B6B00E0
(1728486117.566588) vcan0 095#800007F800000013
(1728486117.566595) vcan0 039#001B
(1728486117.566597) vcan0 1A4#000000080000003E
(1728486117.566600) vcan0 1AA#7FFF00000000673F
(1728486117.566602) vcan0 1B0#000F0000000175
(1728486117.566604) vcan0 1D0#000000000000000A
(1728486117.567589) vcan0 244#0000000178
(1728486117.568665) vcan0 166#D0320027
(1728486117.570474) vcan0 158#0000000000000028
(1728486117.570482) vcan0 161#000005500108002B
(1728486117.570484) vcan0 191#010010A141001A
(1728486117.570486) vcan0 164#0000C01AA8000013
(1728486117.570488) vcan0 133#00000000B6
(1728486117.570490) vcan0 136#0002000000000039
(1728486117.570492) vcan0 13A#0000000000000037
(1728486117.572413) vcan0 13F#000000050000003D
(1728486117.572419) vcan0 17C#0000000010000030
(1728486117.572421) vcan0 18E#00007A
(1728486117.572423) vcan0 294#040B0002CF5A001D
(1728486117.572425) vcan0 21E#03E83745220610
(1728486117.573477) vcan0 183#0000000A0000103E
(1728486117.573505) vcan0 143#6B6B00FF
(1728486117.575396) vcan0 095#800007F400000026
(1728486117.578334) vcan0 166#D0320036
(1728486117.578593) vcan0 244#0000000141
(1728486117.580203) vcan0 158#0000000000000037
(1728486117.580212) vcan0 161#000005500108003A
(1728486117.580214) vcan0 039#002A
(1728486117.580216) vcan0 191#010010A1410029
(1728486117.580219) vcan0 164#0000C01AA8000022
(1728486117.580221) vcan0 133#0000000089
(1728486117.582151) vcan0 136#000200000000000C
(1728486117.582163) vcan0 13A#000000000000000A
(1728486117.582165) vcan0 13F#0000000500000000
(1728486117.582167) vcan0 17C#0000000010000003
(1728486117.582169) vcan0 18E#00004D
(1728486117.582172) vcan0 1CF#80050000002D
(1728486117.582174) vcan0 1DC#0200002A
(1728486117.582177) vcan0 183#0000000F0000100C
(1728486117.584165) vcan0 143#6B6B00C2
(1728486117.586102) vcan0 095#800007F400000035
(1728486117.586112) vcan0 1A4#0000000800000001
(1728486117.586115) vcan0 1AA#7FFF000000006801
(1728486117.587143) vcan0 1B0#000F0000000148
(1728486117.587150) vcan0 1D0#000000000000000A
(1728486117.588194) vcan0 166#D0320009
(1728486117.589962) vcan0 244#00000001D0
(1728486117.590007) vcan0 158#000000000000000A
(1728486117.590016) vcan0 161#000005500108000D
(1728486117.590018) vcan0 191#010010A1410038
(1728486117.590021) vcan0 164#0000C01AA8000031
(1728486117.590023) vcan0 133#0000000098
(1728486117.591059) vcan0 136#000200000000001B
(1728486117.591067) vcan0 13A#0000000000000019
(1728486117.591070) vcan0 13F#000000050000001F
(1728486117.591072) vcan0 17C#0000000010000012
(1728486117.592163) vcan0 18E#00005C
(1728486117.593873) vcan0 183#0000000B0000101F
(1728486117.593885) vcan0 143#6B6B00D1
(1728486117.594915) vcan0 039#0039
(1728486117.596753) vcan0 095#800007F400000008
(1728486117.597827) vcan0 166#D0320018
(1728486117.600648) vcan0 244#0000000122
(1728486117.600657) vcan0 158#0000000000000019
(1728486117.600660) vcan0 161#000005500108001C
(1728486117.600662) vcan0 191#010010A141000B
(1728486117.600665) vcan0 164#0000C01AA8000004
(1728486117.600667) vcan0 133#00000000A7
(1728486117.600668) vcan0 136#000200000000002A
(1728486117.600670) vcan0 13A#0000000000000028
(1728486117.600674) vcan0 13F#000000050000002E
(1728486117.602611) vcan0 17C#0000000010000021
(1728486117.602621) vcan0 18E#00006B
(1728486117.602623) vcan0 1CF#80050000003C
(1728486117.602625) vcan0 1DC#02000039
(1728486117.602627) vcan0 183#0000000800001021
(1728486117.604568) vcan0 143#6B6B00E0
(1728486117.604578) vcan0 333#0000000000000F
(1728486117.606495) vcan0 095#800007F400000017
(1728486117.606503) vcan0 1A4#0000000800000010
(1728486117.606506) vcan0 1AA#7FFF000000006810
(1728486117.606508) vcan0 1B0#000F0000000157
(1728486117.608472) vcan0 1D0#000000000000000A
(1728486117.608482) vcan0 166#D0320027
(1728486117.608485) vcan0 039#000C
(1728486117.610435) vcan0 158#0000000000000028
(1728486117.610445) vcan0 161#000005500108002B
(1728486117.610448) vcan0 191#010010A141001A
(1728486117.610455) vcan0 133#00000000B6
(1728486117.610458) vcan0 136#0002000000000039
(1728486117.610460) vcan0 13A#0000000000000037
(1728486117.611486) vcan0 13F#000000050000003D
(1728486117.611492) vcan0 164#0000C01AA8000013
(1728486117.611495) vcan0 17C#0000000010000030
(1728486117.611497) vcan0 18E#00007A
(1728486117.611499) vcan0 294#040B0002CF5A002C
(1728486117.611533) vcan0 244#00000001CC
(1728486117.612616) vcan0 21E#03E8374522062F
(1728486117.612633) vcan0 183#0000000600001032
(1728486117.614335) vcan0 143#6B6B00FF
(1728486117.616162) vcan0 095#800007F400000026
(1728486117.619125) vcan0 166#D0320036
(1728486117.619133) vcan0 158#0000000000000037
(1728486117.621061) vcan0 161#000005500108003A
(1728486117.621067) vcan0 191#010010A1410029
(1728486117.621069) vcan0 164#0000C01AA8000022
(1728486117.621071) vcan0 133#0000000089
(1728486117.621074) vcan0 136#000200000000000C
(1728486117.621076) vcan0 13A#000000000000000A
(1728486117.621078) vcan0 13F#0000000500000000
(1728486117.621080) vcan0 17C#0000000010000003
(1728486117.621082) vcan0 18E#00004D
(1728486117.623074) vcan0 244#00000001A3
(1728486117.623165) vcan0 1CF#80050000000F
(1728486117.623175) vcan0 1DC#0200000C
(1728486117.623177) vcan0 320#000003
(1728486117.623180) vcan0 324#7465000000000E0B
(1728486117.623182) vcan0 183#0000000400001007
(1728486117.623184) vcan0 37C#FD00FD00097F000B
(1728486117.625038) vcan0 143#6B6B00C2
(1728486117.626063) vcan0 095#800007F400000035
(1728486117.626074) vcan0 1A4#000000080000002F
(1728486117.626077) vcan0 1AA#7FFF00000000682F
(1728486117.627093) vcan0 1B0#000F0000000166
(1728486117.627099) vcan0 1D0#000000000000000A
(1728486117.628837) vcan0 039#001B
(1728486117.628843) vcan0 166#D0320009
(1728486117.629855) vcan0 158#000000000000000A
(1728486117.629859) vcan0 161#000005500108000D
(1728486117.629862) vcan0 191#010010A1410038
(1728486117.629864) vcan0 133#0000000098
(1728486117.630877) vcan0 136#000200000000001B
(1728486117.630885) vcan0 13A#0000000000000019
(1728486117.630887) vcan0 13F#000000050000001F
(1728486117.630889) vcan0 164#0000C01AA8000031
(1728486117.631904) vcan0 17C#0000000010000012
(1728486117.631909) vcan0 18E#00005C
(1728486117.632928) vcan0 183#0000000300001017
(1728486117.633895) vcan0 244#000000019A
(1728486117.633968) vcan0 143#6B6B00D1
(1728486117.635644) vcan0 095#800007F400000008
(1728486117.638676) vcan0 166#D0320018
(1728486117.640497) vcan0 158#0000000000000019
(1728486117.640502) vcan0 161#000005500108001C
(1728486117.640504) vcan0 191#010010A141000B
(1728486117.640506) vcan0 164#0000C01AA8000004
(1728486117.640508) vcan0 133#00000000A7
(1728486117.640511) vcan0 136#000200000000002A
(1728486117.640513) vcan0 13A#0000000000000028
(1728486117.641529) vcan0 13F#000000050000002E
(1728486117.641537) vcan0 17C#0000000010000021
(1728486117.641539) vcan0 18E#00006B
(1728486117.641541) vcan0 1CF#80050000001E
(1728486117.641543) vcan0 039#002A
(1728486117.641545) vcan0 1DC#0200001B
(1728486117.642560) vcan0 183#0000000A0000102F
(1728486117.642568) vcan0 305#8017
(1728486117.643582) vcan0 143#6B6B00E0
(1728486117.645335) vcan0 095#800007F400000017
(1728486117.645358) vcan0 244#00000001A2
(1728486117.646349) vcan0 1A4#000000080000003E
(1728486117.646355) vcan0 1AA#7FFF00000000673F
(1728486117.646357) vcan0 1B0#000F0000000175
(1728486117.647367) vcan0 1D0#000000000000000A
(1728486117.648378) vcan0 166#D0320027
(1728486117.649394) vcan0 158#0000000000000028
(1728486117.649398) vcan0 161#000005500108002B
(1728486117.650412) vcan0 191#010010A141001A
(1728486117.650417) vcan0 164#0000C01AA8000013
(1728486117.650419) vcan0 133#00000000B6
(1728486117.650421) vcan0 136#0002000000000039
(1728486117.651435) vcan0 13A#0000000000000037
(1728486117.651440) vcan0 13F#000000050000003D
(1728486117.651442) vcan0 17C#0000000010000030
(1728486117.651444) vcan0 18E#00007A
(1728486117.651446) vcan0 294#040B0002CF5A003B
(1728486117.652461) vcan0 21E#03E8374522063E
(1728486117.652465) vcan0 309#0000000000000093
(1728486117.653472) vcan0 183#0000000700001031
(1728486117.653476) vcan0 143#6B6B00FF
(1728486117.656066) vcan0 095#800007F400000026
(1728486117.656071) vcan0 039#0039
(1728486117.656141) vcan0 244#0000000161
(1728486117.658102) vcan0 166#D0320036
(1728486117.659127) vcan0 158#0000000000000037
(1728486117.660145) vcan0 161#000005500108003A
(1728486117.660150) vcan0 191#010010A1410029
(1728486117.660153) vcan0 164#0000C01AA8000022
(1728486117.660160) vcan0 133#0000000089
(1728486117.660162) vcan0 136#000200000000000C
(1728486117.661175) vcan0 13A#000000000000000A
(1728486117.661179) vcan0 13F#0000000500000000
(1728486117.661181) vcan0 17C#0000000010000003
(1728486117.661183) vcan0 18E#00004D
(1728486117.662872) vcan0 1CF#80050000002D
(1728486117.662877) vcan0 1DC#0200002A
(1728486117.662879) vcan0 183#0000000D0000100E
(1728486117.663970) vcan0 143#6B6B00C2
(1728486117.666772) vcan0 095#800007F400000035
(1728486117.666780) vcan0 1A4#0000000800000001
(1728486117.666782) vcan0 1AA#7FFF000000006801
(1728486117.666784) vcan0 1B0#000F0000000148
(1728486117.666786) vcan0 1D0#000000000000000A
(1728486117.666878) vcan0 244#0000000122
(1728486117.667797) vcan0 166#D0320009
(1728486117.669820) vcan0 158#000000000000000A
(1728486117.669824) vcan0 161#000005500108000D
(1728486117.669826) vcan0 191#010010A1410038
(1728486117.669828) vcan0 039#000C
(1728486117.669831) vcan0 133#0000000098
(1728486117.670844) vcan0 136#000200000000001B
(1728486117.670849) vcan0 13A#0000000000000019
(1728486117.670852) vcan0 13F#000000050000001F
(1728486117.670854) vcan0 164#0000C01AA8000031
(1728486117.672615) vcan0 17C#0000000010000012
(1728486117.672619) vcan0 18E#00005C
(1728486117.672621) vcan0 183#0000001100001018
(1728486117.673630) vcan0 143#6B6B00D1
(1728486117.676522) vcan0 095#800007F400000008
(1728486117.677693) vcan0 244#00000001AD
(1728486117.678622) vcan0 166#D0320018
(1728486117.679646) vcan0 158#0000000000000019
(1728486117.679653) vcan0 161#000005500108001C
(1728486117.679655) vcan0 191#010010A141000B
(1728486117.680664) vcan0 164#0000C01AA8000004
(1728486117.680670) vcan0 133#00000000A7
(1728486117.680672) vcan0 136#000200000000002A
(1728486117.680674) vcan0 13A#0000000000000028
(1728486117.680676) vcan0 13F#000000050000002E
(1728486117.681696) vcan0 17C#0000000010000021
(1728486117.681709) vcan0 18E#00006B
(1728486117.681712) vcan0 1CF#80050000003C
(1728486117.681714) vcan0 1DC#02000039
(1728486117.682728) vcan0 183#0000000C0000102D
(1728486117.684432) vcan0 039#001B
(1728486117.684439) vcan0 143#6B6B00E0
(1728486117.685446) vcan0 095#800007F400000017
(1728486117.686461) vcan0 1A4#0000000800000010
(1728486117.686467) vcan0 1AA#7FFF000000006810
(1728486117.686469) vcan0 1B0#000F0000000157
(1728486117.688278) vcan0 1D0#000000000000000A
(1728486117.688285) vcan0 166#D0320027
(1728486117.689293) vcan0 158#0000000000000028
(1728486117.689299) vcan0 161#000005500108002B
(1728486117.690312) vcan0 191#010010A141001A
(1728486117.690318) vcan0 164#0000C01AA8000013
(1728486117.690320) vcan0 133#00000000B6
(1728486117.690322) vcan0 136#0002000000000039
(1728486117.692163) vcan0 13A#0000000000000037
(1728486117.692169) vcan0 13F#000000050000003D
(1728486117.692171) vcan0 17C#0000000010000030
(1728486117.692174) vcan0 18E#00007A
(1728486117.692176) vcan0 294#040B0002CF5A000E
(1728486117.692179) vcan0 21E#03E83745220601
(1728486117.693201) vcan0 183#000000090000103F
(1728486117.693212) vcan0 143#6B6B00FF
(1728486117.693335) vcan0 244#0000000147
(1728486117.696054) vcan0 095#800007F400000026
(1728486117.697072) vcan0 039#002A
(1728486117.698087) vcan0 166#D0320036
(1728486117.700101) vcan0 158#0000000000000037
(1728486117.700109) vcan0 161#000005500108003A
(1728486117.700111) vcan0 191#010010A1410029
(1728486117.700113) vcan0 164#0000C01AA8000022
(1728486117.700115) vcan0 133#0000000089
(1728486117.701125) vcan0 136#000200000000000C
(1728486117.701133) vcan0 13A#000000000000000A
(1728486117.701135) vcan0 13F#0000000500000000
(1728486117.701137) vcan0 17C#0000000010000003
(1728486117.701139) vcan0 18E#00004D
(1728486117.702852) vcan0 1CF#80050000000F
(1728486117.702859) vcan0 1DC#0200000C
(1728486117.702861) vcan0 183#0000000600001005
(1728486117.704830) vcan0 143#6B6B00C2
(1728486117.704836) vcan0 333#0000000000001E
(1728486117.704884) vcan0 244#00000001F2
(1728486117.705847) vcan0 095#800007F400000035
(1728486117.705855) vcan0 1A4#000000080000002F
(1728486117.706870) vcan0 1AA#7FFF00000000682F
(1728486117.706877) vcan0 1B0#000F0000000166
(1728486117.706879) vcan0 1D0#000000000000000A
(1728486117.708697) vcan0 166#D0320009
(1728486117.709722) vcan0 158#000000000000000A
(1728486117.709728) vcan0 161#000005500108000D
(1728486117.709731) vcan0 191#010010A1410038
(1728486117.710745) vcan0 133#0000000098
(1728486117.710759) vcan0 136#000200000000001B
(1728486117.710761) vcan0 13A#0000000000000019
(1728486117.710763) vcan0 13F#000000050000001F
(1728486117.711779) vcan0 164#0000C01AA8000031
(1728486117.711786) vcan0 17C#0000000010000012
(1728486117.711788) vcan0 18E#00005C
(1728486117.711790) vcan0 039#0039
(1728486117.712802) vcan0 183#0000000C0000101E
(1728486117.713817) vcan0 143#6B6B00D1
(1728486117.715503) vcan0 095#800007F400000008
(1728486117.715630) vcan0 244#0000000191
(1728486117.718539) vcan0 166#D0320018
(1728486117.720480) vcan0 158#0000000000000019
(1728486117.720492) vcan0 161#000005500108001C
(1728486117.720495) vcan0 191#010090A1410003
(1728486117.720497) vcan0 164#0000C01AA8000004
(1728486117.720499) vcan0 133#00000000A7
(1728486117.720502) vcan0 136#000200000000002A
(1728486117.720504) vcan0 13A#0000000000000028
(1728486117.722378) vcan0 13F#000000050000002E
(1728486117.722386) vcan0 17C#0000000010000021
(1728486117.722388) vcan0 18E#00006B
(1728486117.722390) vcan0 1CF#80050000001E
(1728486117.722392) vcan0 1DC#0200001B
(1728486117.722394) vcan0 320#000012
(1728486117.722397) vcan0 324#7465000000000E1A
(1728486117.722399) vcan0 37C#FD00FD00097F001A
(1728486117.722403) vcan0 183#0000001000001028
(1728486117.724386) vcan0 143#6B6B00E0
(1728486117.725471) vcan0 095#800007F400000017
(1728486117.727275) vcan0 1A4#000000080000003E
(1728486117.727285) vcan0 1AA#7FFF00000000673F
(1728486117.727288) vcan0 1B0#000F0000000175
(1728486117.727290) vcan0 1D0#000000000000000A
(1728486117.729179) vcan0 166#D0320027
(1728486117.729186) vcan0 158#0000000000000028
(1728486117.730285) vcan0 161#000005500108002B
(1728486117.730289) vcan0 191#010090A1410012
(1728486117.730291) vcan0 133#00000000B6
(1728486117.730293) vcan0 136#0002000000000039
(1728486117.730296) vcan0 13A#0000000000000037
(1728486117.731358) vcan0 13F#000000050000003D
(1728486117.731366) vcan0 164#0000C01AA8000013
(1728486117.731369) vcan0 17C#0000000010000030
(1728486117.731371) vcan0 18E#00007A
(1728486117.731404) vcan0 244#000000015A
(1728486117.733062) vcan0 294#040B0002CF5A001D
(1728486117.733067) vcan0 039#000C
(1728486117.733070) vcan0 21E#03E83745220610
(1728486117.733072) vcan0 183#0000000C0000103C
(1728486117.734136) vcan0 143#6B6B00FF
(1728486117.735998) vcan0 095#800007F400000026
(1728486117.738019) vcan0 166#D0320036
(1728486117.739949) vcan0 158#0000000000000037
(1728486117.739956) vcan0 161#000005500108003A
(1728486117.739959) vcan0 191#010090A1410021
(1728486117.739961) vcan0 164#0000C01AA8000022
(1728486117.739963) vcan0 133#0000000089
(1728486117.741829) vcan0 136#000200000000000C
(1728486117.741835) vcan0 13A#000000000000000A
(1728486117.741838) vcan0 13F#0000000500000000
(1728486117.741840) vcan0 17C#0000000010000003
(1728486117.741842) vcan0 18E#00004D
(1728486117.741845) vcan0 1CF#80050000002D
(1728486117.741847) vcan0 1DC#0200002A
(1728486117.742865) vcan0 244#0000000167
(1728486117.743067) vcan0 183#0000000900001002
(1728486117.744741) vcan0 143#6B6B00C2
(1728486117.744749) vcan0 305#8026
(1728486117.746758) vcan0 095#800007F400000035
(1728486117.746765) vcan0 1A4#0000000800000001
(1728486117.746768) vcan0 1AA#7FFF000000006801
(1728486117.746770) vcan0 1B0#000F0000000148
(1728486117.746773) vcan0 1D0#000000000000000A
(1728486117.748588) vcan0 166#D0320009
(1728486117.749613) vcan0 158#000000000000000A
(1728486117.749617) vcan0 161#000005500108000D
(1728486117.749619) vcan0 191#010090A1410030
(1728486117.750700) vcan0 164#0000C01AA8000031
(1728486117.750705) vcan0 133#0000000098
(1728486117.750707) vcan0 136#000200000000001B
(1728486117.750709) vcan0 13A#0000000000000019
(1728486117.753494) vcan0 13F#000000050000001F
(1728486117.753499) vcan0 17C#0000000010000012
(1728486117.753501) vcan0 18E#00005C
(1728486117.753503) vcan0 309#00000000000000A2
(1728486117.753506) vcan0 039#001B
(1728486117.753508) vcan0 183#0000000600001014
(1728486117.753510) vcan0 143#6B6B00D1
(1728486117.754569) vcan0 244#00000001DC
(1728486117.756424) vcan0 095#800007F400000008
(1728486117.758434) vcan0 166#D0320018
(1728486117.759535) vcan0 158#0000000000000019
(1728486117.759540) vcan0 161#000005500108001C
(1728486117.759542) vcan0 191#010090A1410003
(1728486117.761307) vcan0 133#00000000A7
(1728486117.761316) vcan0 136#000200000000002A
(1728486117.761318) vcan0 13A#0000000000000028
(1728486117.761320) vcan0 13F#000000050000002E
(1728486117.761327) vcan0 164#0000C01AA8000004
(1728486117.761330) vcan0 17C#0000000010000021
(1728486117.761332) vcan0 18E#00006B
(1728486117.762416) vcan0 1CF#80050000003C
(1728486117.762422) vcan0 1DC#02000039
(1728486117.762426) vcan0 183#0000000C0000102D
(1728486117.764257) vcan0 143#6B6B00E0
(1728486117.766146) vcan0 095#800007F400000017
(1728486117.766153) vcan0 1A4#0000000800000010
(1728486117.766155) vcan0 1AA#7FFF000000006810
(1728486117.767186) vcan0 1B0#000F0000000157
(1728486117.767191) vcan0 039#002A
(1728486117.767194) vcan0 1D0#000000000000000A
(1728486117.769101) vcan0 166#D0320027
(1728486117.769110) vcan0 158#0000000000000028
(1728486117.771008) vcan0 161#000005500108002B
(1728486117.771014) vcan0 191#010090A1410012
(1728486117.771016) vcan0 133#00000000B6
(1728486117.771018) vcan0 136#0002000000000039
(1728486117.771020) vcan0 13A#0000000000000037
(1728486117.771023) vcan0 13F#000000050000003D
(1728486117.771025) vcan0 164#0000C01AA8000013
(1728486117.771029) vcan0 17C#0000000010000030
(1728486117.772059) vcan0 244#00000001FE
(1728486117.772312) vcan0 18E#00007A
(1728486117.772317) vcan0 294#040B0002CF5A002C
(1728486117.772319) vcan0 21E#03E8374522062F
(1728486117.773951) vcan0 183#0000001000001037
(1728486117.773959) vcan0 143#6B6B00FF
(1728486117.776849) vcan0 095#800007F400000026
(1728486117.778892) vcan0 166#D0320036
(1728486117.780734) vcan0 158#0000000000000037
(1728486117.780741) vcan0 161#000005500108003A
(1728486117.780743) vcan0 191#010090A1410021
(1728486117.780745) vcan0 164#0000C01AA8000022
(1728486117.780748) vcan0 133#0000000089
(1728486117.780750) vcan0 136#000200000000000C
(1728486117.780752) vcan0 13A#000000000000000A
(1728486117.780754) vcan0 13F#0000000500000000
(1728486117.782709) vcan0 17C#0000000010000003
(1728486117.782715) vcan0 18E#00004D
(1728486117.782717) vcan0 1CF#80050000000F
(1728486117.782720) vcan0 039#0039
(1728486117.782723) vcan0 1DC#0200000C
(1728486117.782725) vcan0 183#0000000C0000100F
(1728486117.783797) vcan0 143#6B6B00C2
(1728486117.783820) vcan0 244#000000015F
(1728486117.785669) vcan0 095#800007F400000035
(1728486117.787539) vcan0 1A4#000000080000002F
(1728486117.787545) vcan0 1AA#7FFF00000000682F
(1728486117.787547) vcan0 1B0#000F0000000166
(1728486117.787549) vcan0 1D0#000000000000000A
(1728486117.788589) vcan0 166#D0320009
(1728486117.790418) vcan0 158#000000000000000A
(1728486117.790423) vcan0 161#000005500108000D
(1728486117.790425) vcan0 191#010090A1410030
(1728486117.790427) vcan0 133#0000000098
(1728486117.790429) vcan0 136#000200000000001B
(1728486117.790432) vcan0 13A#0000000000000019
(1728486117.792657) vcan0 13F#000000050000001F
(1728486117.792666) vcan0 164#0000C01AA8000031
(1728486117.792668) vcan0 17C#0000000010000012
(1728486117.792670) vcan0 18E#00005C
(1728486117.792673) vcan0 183#0000001000001019
(1728486117.794517) vcan0 143#6B6B00D1
(1728486117.794525) vcan0 039#000C
(1728486117.795543) vcan0 244#000000017F
(1728486117.795794) vcan0 095#800007F400000008
(1728486117.799399) vcan0 166#D0320018
(1728486117.799409) vcan0 158#0000000000000019
(1728486117.799412) vcan0 161#000005500108001C
(1728486117.801337) vcan0 191#010090A1410003
(1728486117.801344) vcan0 164#0000C01AA8000004
(1728486117.801346) vcan0 133#00000000A7
(1728486117.801349) vcan0 136#000200000000002A
(1728486117.801351) vcan0 13A#0000000000000028
(1728486117.801354) vcan0 13F#000000050000002E
(1728486117.801356) vcan0 17C#0000000010000021
(1728486117.801358) vcan0 18E#00006B
(1728486117.801362) vcan0 1CF#80050000001E
(1728486117.803330) vcan0 1DC#0200001B
(1728486117.803337) vcan0 183#0000000C0000102D
(1728486117.803340) vcan0 143#6B6B00E0
(1728486117.805201) vcan0 333#0000000000002D
(1728486117.805207) vcan0 095#800007F400000017
(1728486117.807143) vcan0 1A4#000000080000003E
(1728486117.807148) vcan0 1AA#7FFF00000000673F
(1728486117.807150) vcan0 1B0#000F0000000175
(1728486117.807152) vcan0 1D0#000000000000000A
(1728486117.807275) vcan0 244#0000000165
(1728486117.809110) vcan0 166#D0320027
(1728486117.809118) vcan0 158#0000000000000028
(1728486117.811056) vcan0 161#000005500108002B
(1728486117.811070) vcan0 191#010090A1410012
(1728486117.811073) vcan0 133#00000000B6
(1728486117.811075) vcan0 136#0002000000000039
(1728486117.811077) vcan0 13A#0000000000000037
(1728486117.811080) vcan0 13F#000000050000003D
(1728486117.811087) vcan0 164#0000C01AA8000013
(1728486117.811089) vcan0 17C#0000000010000030
(1728486117.812189) vcan0 18E#00007A
(1728486117.812201) vcan0 294#040B0002CF5A003B
(1728486117.812204) vcan0 21E#03E8374522063E
(1728486117.814049) vcan0 183#000000090000103F
(1728486117.814057) vcan0 143#6B6B00FF
(1728486117.815094) vcan0 039#001B
(1728486117.816888) vcan0 095#800007F400000026
(1728486117.818845) vcan0 166#D0320036
(1728486117.819912) vcan0 158#0000000000000037
(1728486117.819917) vcan0 161#000005500108003A
(1728486117.819919) vcan0 191#010090A1410021
(1728486117.819922) vcan0 164#0000C01AA8000022
(1728486117.819936) vcan0 244#00000001E9
(1728486117.821802) vcan0 133#0000000089
(1728486117.821810) vcan0 136#000200000000000C
(1728486117.821812) vcan0 13A#000000000000000A
(1728486117.821814) vcan0 13F#0000000500000000
(1728486117.821817) vcan0 17C#0000000010000003
(1728486117.821819) vcan0 18E#00004D
(1728486117.821821) vcan0 1CF#80050000002D
(1728486117.821823) vcan0 1DC#0200002A
(1728486117.821826) vcan0 320#000021
(1728486117.823771) vcan0 324#7465000000000E29
(1728486117.823778) vcan0 183#0000000E0000100D
(1728486117.823781) vcan0 37C#FD00FD00097F0029
(1728486117.823784) vcan0 40C#014A484D46413325
(1728486117.823786) vcan0 454#23EF27
(1728486117.823791) vcan0 143#6B6B00C2
(1728486117.825995) vcan0 095#800007F400000035
(1728486117.826013) vcan0 1A4#0000000800000001
(1728486117.826016) vcan0 1AA#7FFF000000006801
(1728486117.827695) vcan0 1B0#000F0000000148
(1728486117.827707) vcan0 1D0#000000000000000A
(1728486117.829547) vcan0 166#D0320009
(1728486117.829556) vcan0 158#000000000000000A
(1728486117.829558) vcan0 161#000005500108000D
(1728486117.829560) vcan0 191#010090A1410030
(1728486117.830547) vcan0 244#000000011B
(1728486117.830621) vcan0 133#0000000098
(1728486117.830631) vcan0 136#000200000000001B
(1728486117.830633) vcan0 13A#0000000000000019
(1728486117.830636) vcan0 13F#000000050000001F
(1728486117.832418) vcan0 164#0000C01AA8000031
(1728486117.832428) vcan0 17C#0000000010000012
(1728486117.832430) vcan0 18E#00005C
(1728486117.834490) vcan0 183#0000000A00001010
(1728486117.834502) vcan0 143#6B6B00D1
(1728486117.836347) vcan0 095#800007F400000008
(1728486117.836354) vcan0 039#002A
(1728486117.839228) vcan0 166#D0320018
(1728486117.839237) vcan0 158#0000000000000019
(1728486117.839240) vcan0 161#000005500108001C
(1728486117.841213) vcan0 191#010090A1410003
(1728486117.841224) vcan0 164#0000C01AA8000004
(1728486117.841226) vcan0 133#00000000A7
(1728486117.841228) vcan0 136#000200000000002A
(1728486117.841230) vcan0 13A#0000000000000028
(1728486117.841233) vcan0 13F#000000050000002E
(1728486117.841235) vcan0 17C#0000000010000021
(1728486117.841239) vcan0 18E#00006B
(1728486117.841243) vcan0 1CF#80050000003C
(1728486117.843181) vcan0 1DC#02000039
(1728486117.843188) vcan0 183#0000000700001022
(1728486117.843193) vcan0 143#6B6B00E0
(1728486117.843279) vcan0 244#00000001D4
(1728486117.845266) vcan0 095#800007F400000017
(1728486117.846307) vcan0 1A4#0000000800000010
(1728486117.846315) vcan0 1AA#7FFF000000006810
(1728486117.846318) vcan0 1B0#000F0000000157
(1728486117.848019) vcan0 1D0#000000000000000A
(1728486117.848026) vcan0 166#D0320027
(1728486117.849978) vcan0 039#0039
(1728486117.849986) vcan0 158#0000000000000028
(1728486117.849988) vcan0 161#000005500108002B
(1728486117.849990) vcan0 191#010090A1410012
(1728486117.849993) vcan0 305#8035
(1728486117.849995) vcan0 164#0000C01AA8000013
(1728486117.849997) vcan0 133#00000000B6
(1728486117.851926) vcan0 136#0002000000000039
(1728486117.851933) vcan0 13A#0000000000000037
(1728486117.851936) vcan0 13F#000000050000003D
(1728486117.851938) vcan0 17C#0000000010000030
(1728486117.851940) vcan0 18E#00007A
(1728486117.851942) vcan0 294#040B0002CF5A000E
(1728486117.851944) vcan0 21E#03E83745220601
(1728486117.851947) vcan0 309#00000000000000B1
(1728486117.853000) vcan0 428#01040000521C3E
(1728486117.853013) vcan0 405#0000040000000038
(1728486117.853016) vcan0 183#0000000D0000103B
(1728486117.854063) vcan0 143#6B6B00FF
(1728486117.855914) vcan0 244#0000000121
(1728486117.855963) vcan0 095#800007F400000026
(1728486117.857748) vcan0 166#D0320036
(1728486117.860756) vcan0 158#0000000000000037
(1728486117.860772) vcan0 161#000005500108003A
(1728486117.860775) vcan0 191#010090A1410021
(1728486117.860777) vcan0 164#0000C01AA8000022
(1728486117.860786) vcan0 133#0000000089
(1728486117.860788) vcan0 136#000200000000000C
(1728486117.860790) vcan0 13A#000000000000000A
(1728486117.860792) vcan0 13F#0000000500000000
(1728486117.862632) vcan0 17C#0000000010000003
(1728486117.862641) vcan0 18E#00004D
(1728486117.862643) vcan0 1CF#80050000000F
(1728486117.862646) vcan0 1DC#0200000C
(1728486117.862648) vcan0 183#0000000900001002
(1728486117.862650) vcan0 039#000C
(1728486117.864629) vcan0 143#6B6B00C2
(1728486117.866589) vcan0 095#800007F400000035
(1728486117.866617) vcan0 1A4#000000080000002F
(1728486117.866620) vcan0 1AA#7FFF00000000682F
(1728486117.866622) vcan0 1B0#000F0000000166
(1728486117.866625) vcan0 1D0#000000000000000A
(1728486117.867609) vcan0 244#0000000154
(1728486117.869501) vcan0 166#D0320009
(1728486117.869510) vcan0 158#000000000000000A
(1728486117.869512) vcan0 161#000005500108000D
(1728486117.869514) vcan0 191#010090A1410030
(1728486117.870538) vcan0 18E#00005C
(1728486117.870546) vcan0 133#0000000098
(1728486117.870548) vcan0 136#000200000000001B
(1728486117.870550) vcan0 13A#0000000000000019
(1728486117.872341) vcan0 13F#000000050000001F
(1728486117.872346) vcan0 164#0000C01AA8000031
(1728486117.872349) vcan0 17C#0000000010000012
(1728486117.873374) vcan0 183#0000000E0000101C
(1728486117.873382) vcan0 143#6B6B00D1
(1728486117.875422) vcan0 095#800007F400000008
(1728486117.877484) vcan0 039#001B
(1728486117.879162) vcan0 166#D0320018
(1728486117.879170) vcan0 158#0000000000000019
(1728486117.881180) vcan0 161#000005500108001C
(1728486117.881192) vcan0 191#010090A1410003
(1728486117.881194) vcan0 164#0000C01AA8000004
(1728486117.881196) vcan0 133#00000000A7
(1728486117.881200) vcan0 136#000200000000002A
(1728486117.881203) vcan0 13A#0000000000000028
(1728486117.881205) vcan0 13F#000000050000002E
(1728486117.881207) vcan0 17C#0000000010000021
(1728486117.881210) vcan0 18E#00006B
(1728486117.881212) vcan0 1CF#80050000001E
(1728486117.883757) vcan0 1DC#0200001B
(1728486117.883765) vcan0 183#0000000A0000102F
(1728486117.883767) vcan0 143#6B6B00E0
(1728486117.884995) vcan0 244#0000000154
(1728486117.886994) vcan0 095#800007F400000017
(1728486117.887024) vcan0 1A4#000000080000003E
(1728486117.887027) vcan0 1AA#7FFF00000000673F
(1728486117.887030) vcan0 1B0#000F0000000175
(1728486117.887034) vcan0 1D0#000000000000000A
(1728486117.888066) vcan0 166#D0320027
(1728486117.889082) vcan0 158#0000000000000028
(1728486117.890930) vcan0 161#000005500108002B
(1728486117.890938) vcan0 191#010090A1410012
(1728486117.890941) vcan0 164#0000C01AA8000013
(1728486117.890943) vcan0 133#00000000B6
(1728486117.890945) vcan0 136#0002000000000039
(1728486117.890948) vcan0 13A#0000000000000037
(1728486117.890952) vcan0 13F#000000050000003D
(1728486117.892003) vcan0 17C#0000000010000030
(1728486117.892009) vcan0 18E#00007A
(1728486117.892011) vcan0 294#040B0002CF5A001D
(1728486117.892013) vcan0 21E#03E83745220610
(1728486117.893812) vcan0 039#002A
(1728486117.893823) vcan0 183#0000000F00001039
(1728486117.893825) vcan0 143#6B6B00FF
(1728486117.895718) vcan0 095#800007F400000026
(1728486117.896686) vcan0 244#00000001F4
(1728486117.898710) vcan0 166#D0320036
(1728486117.900585) vcan0 158#0000000000000037
(1728486117.900593) vcan0 161#000005500108003A
(1728486117.900595) vcan0 191#010090A1410021
(1728486117.900597) vcan0 164#0000C01AA8000022
(1728486117.900599) vcan0 133#0000000089
(1728486117.900602) vcan0 136#000200000000000C
(1728486117.900604) vcan0 13A#000000000000000A
(1728486117.902522) vcan0 13F#0000000500000000
(1728486117.902528) vcan0 17C#0000000010000003
(1728486117.902530) vcan0 18E#00004D
(1728486117.902532) vcan0 1CF#80050000002D
(1728486117.902535) vcan0 1DC#0200002A
(1728486117.902537) vcan0 183#0000001300001007
(1728486117.904546) vcan0 143#6B6B00C2
(1728486117.904553) vcan0 333#0000000000003C
(1728486117.906399) vcan0 095#800007F400000035
(1728486117.906404) vcan0 1A4#0000000800000001
(1728486117.906406) vcan0 1AA#7FFF000000006801
(1728486117.906408) vcan0 1B0#000F0000000148
(1728486117.907494) vcan0 1D0#000000000000000A
(1728486117.908663) vcan0 166#D0320009
(1728486117.908724) vcan0 244#0000000187
(1728486117.909750) vcan0 158#000000000000000A
(1728486117.909758) vcan0 161#000005500108000D
(1728486117.909760) vcan0 191#010090A1410030
(1728486117.910832) vcan0 133#0000000098
(1728486117.910844) vcan0 136#000200000000001B
(1728486117.910851) vcan0 13A#0000000000000019
(1728486117.910854) vcan0 13F#000000050000001F
(1728486117.910856) vcan0 039#0039
(1728486117.912247) vcan0 164#0000C01AA8000031
(1728486117.912255) vcan0 17C#0000000010000012
(1728486117.912258) vcan0 18E#00005C
(1728486117.913292) vcan0 183#0000000E0000101C
(1728486117.913297) vcan0 143#6B6B00D1
(1728486117.915483) vcan0 095#800007F400000008
(1728486117.919044) vcan0 166#D0320018
(1728486117.919059) vcan0 158#0000000000000019
(1728486117.921005) vcan0 161#000005500108001C
(1728486117.921017) vcan0 191#010090A1410003
(1728486117.921020) vcan0 164#0000C01AA8000004
(1728486117.921022) vcan0 133#00000000A7
(1728486117.921025) vcan0 136#000200000000002A
(1728486117.921029) vcan0 13A#0000000000000028
(1728486117.921032) vcan0 13F#000000050000002E
(1728486117.921036) vcan0 17C#0000000010000021
(1728486117.922459) vcan0 18E#00006B
(1728486117.922475) vcan0 1CF#80050000003C
(1728486117.922477) vcan0 1DC#02000039
(1728486117.922481) vcan0 320#000030
(1728486117.922483) vcan0 324#7465000000000E38
(1728486117.922485) vcan0 37C#FD00FD00097F0038
(1728486117.922509) vcan0 183#0000000A0000102F
(1728486117.923592) vcan0 143#6B6B00E0
(1728486117.924235) vcan0 244#000000017E
(1728486117.925750) vcan0 095#800007F400000017
(1728486117.926829) vcan0 1A4#0000000800000010
(1728486117.926839) vcan0 1AA#7FFF000000006810
(1728486117.926841) vcan0 1B0#000F0000000157
(1728486117.926844) vcan0 1D0#000000000000000A
(1728486117.928824) vcan0 166#D0320027
(1728486117.929888) vcan0 158#0000000000000028
(1728486117.929927) vcan0 161#000005500108002B
(1728486117.929931) vcan0 039#000C
(1728486117.929933) vcan0 191#010090A1410012
(1728486117.929936) vcan0 133#00000000B6
(1728486117.931712) vcan0 136#0002000000000039
(1728486117.931720) vcan0 13A#0000000000000037
(1728486117.931723) vcan0 13F#000000050000003D
(1728486117.931725) vcan0 164#0000C01AA8000013
(1728486117.931727) vcan0 17C#0000000010000030
(1728486117.931729) vcan0 18E#00007A
(1728486117.931732) vcan0 294#040B0002CF5A002C
(1728486117.931734) vcan0 21E#03E8374522062F
(1728486117.933703) vcan0 183#0000000700001031
(1728486117.933715) vcan0 143#6B6B00FF
(1728486117.935572) vcan0 244#0000000176
(1728486117.935825) vcan0 095#800007F400000026
(1728486117.938501) vcan0 166#D0320036
(1728486117.939574) vcan0 158#0000000000000037
(1728486117.939583) vcan0 161#000005500108003A
(1728486117.939586) vcan0 191#010090A1410021
(1728486117.941404) vcan0 164#0000C01AA8000022
(1728486117.941428) vcan0 133#0000000089
(1728486117.941431) vcan0 136#000200000000000C
(1728486117.941434) vcan0 13A#000000000000000A
(1728486117.941437) vcan0 13F#0000000500000000
(1728486117.941440) vcan0 17C#0000000010000003
(1728486117.941442) vcan0 18E#00004D
(1728486117.941444) vcan0 1CF#80050000000F
(1728486117.941446) vcan0 1DC#0200000C
(1728486117.942603) vcan0 183#0000000500001006
(1728486117.943800) vcan0 143#6B6B00C2
(1728486117.946351) vcan0 095#800007F400000035
(1728486117.946367) vcan0 039#001B
(1728486117.946370) vcan0 1A4#000000080000002F
(1728486117.946372) vcan0 1AA#7FFF000000006720
(1728486117.946375) vcan0 1B0#000F0000000166
(1728486117.947435) vcan0 1D0#000000000000000A
(1728486117.947440) vcan0 244#000000019B
(1728486117.948472) vcan0 166#D0320009
(1728486117.949664) vcan0 158#000000000000000A
(1728486117.949677) vcan0 161#000005500108000D
(1728486117.949680) vcan0 191#010090A1410030
(1728486117.951187) vcan0 164#0000C01AA9000030
(1728486117.951197) vcan0 133#0000000098
(1728486117.951200) vcan0 136#000200000000001B
(1728486117.951202) vcan0 13A#0000000000000019
(1728486117.951205) vcan0 13F#000000050000001F
(1728486117.951207) vcan0 17C#0000000010000012
(1728486117.951210) vcan0 18E#00005C
(1728486117.953106) vcan0 309#0000000000000084
(1728486117.953115) vcan0 305#8008
(1728486117.953118) vcan0 183#0000000B0000101F
(1728486117.955006) vcan0 143#6B6B00D1
(1728486117.956241) vcan0 095#800007F400000008
(1728486117.957987) vcan0 166#D0320018
(1728486117.959251) vcan0 244#000000015B
(1728486117.959853) vcan0 158#0000000000000019
(1728486117.959863) vcan0 161#000005500108001C
(1728486117.959866) vcan0 191#010090A1410003
(1728486117.959869) vcan0 133#00000000A7
(1728486117.961853) vcan0 136#000200000000002A
(1728486117.961867) vcan0 13A#0000000000000028
(1728486117.961869) vcan0 039#002A
(1728486117.961873) vcan0 13F#000000050000002E
(1728486117.961880) vcan0 164#0000C01AA8000004
(1728486117.961882) vcan0 17C#0000000010000021
(1728486117.961884) vcan0 18E#00006B
(1728486117.961887) vcan0 1CF#80050000001E
(1728486117.961889) vcan0 1DC#0200001B
(1728486117.962899) vcan0 183#0000000800001021
(1728486117.963931) vcan0 143#6B6B00E0
(1728486117.966694) vcan0 095#800007F400000017
(1728486117.966706) vcan0 1A4#000000080000003E
(1728486117.966709) vcan0 1AA#7FFF00000000673F
(1728486117.966712) vcan0 1B0#000F0000000175
(1728486117.966714) vcan0 1D0#000000000000000A
(1728486117.969616) vcan0 244#00000001E2
(1728486117.969628) vcan0 166#D0320027
(1728486117.969632) vcan0 158#0000000000000028
(1728486117.969634) vcan0 161#000005500108002B
(1728486117.969636) vcan0 191#010090A1410012
(1728486117.970748) vcan0 133#00000000B6
(1728486117.970761) vcan0 136#0002000000000039
(1728486117.970764) vcan0 13A#0000000000000037
(1728486117.970766) vcan0 13F#000000050000003D
(1728486117.970768) vcan0 164#0000C01AA8000013
(1728486117.972572) vcan0 17C#0000000010000030
(1728486117.972580) vcan0 18E#00007A
(1728486117.972584) vcan0 294#040B0002CF5A003B
(1728486117.972587) vcan0 21E#03E8374522063E
(1728486117.972589) vcan0 183#0000000D0000103B
(1728486117.974508) vcan0 143#6B6B00FF
(1728486117.975619) vcan0 095#800007F400000026
(1728486117.977965) vcan0 166#D0320036
(1728486117.979376) vcan0 158#0000000000000037
(1728486117.979383) vcan0 161#000005500108003A
(1728486117.981319) vcan0 191#010090A1410021
(1728486117.981337) vcan0 164#0000C01AA8000022
(1728486117.981340) vcan0 133#0000000089
(1728486117.981343) vcan0 136#000200000000000C
(1728486117.981345) vcan0 13A#000000000000000A
(1728486117.981347) vcan0 13F#0000000500000000
(1728486117.981350) vcan0 17C#0000000010000003
(1728486117.981350) vcan0 244#000000015A
(1728486117.981352) vcan0 18E#00004D
(1728486117.981355) vcan0 1CF#80050000002D
(1728486117.981357) vcan0 039#0039
(1728486117.983269) vcan0 1DC#0200002A
(1728486117.983277) vcan0 183#0000000900001002
(1728486117.983279) vcan0 143#6B6B00C2
(1728486117.986205) vcan0 095#800007F400000035
(1728486117.986221) vcan0 1A4#0000000800000001
(1728486117.986224) vcan0 1AA#7FFF000000006801
(1728486117.988146) vcan0 1B0#000F0000000148
(1728486117.988160) vcan0 1D0#000000000000000A
(1728486117.988162) vcan0 166#D0320009
(1728486117.990069) vcan0 158#000000000000000A
(1728486117.990078) vcan0 161#000005500108000D
(1728486117.990080) vcan0 191#010090A1410030
(1728486117.990083) vcan0 164#0000C01AA8000031
(1728486117.990085) vcan0 133#0000000098
(1728486117.991184) vcan0 136#000200000000001B
(1728486117.991196) vcan0 13A#0000000000000019
(1728486117.991198) vcan0 13F#000000050000001F
(1728486117.991201) vcan0 17C#0000000010000012
(1728486117.991203) vcan0 18E#00005C
(1728486117.992981) vcan0 183#0000000600001014
(1728486117.994891) vcan0 143#6B6B00D1
(1728486117.994903) vcan0 039#000C
(1728486117.996860) vcan0 095#800007F400000008
(1728486117.998140) vcan0 166#D0320018
(1728486117.998400) vcan0 244#0000000143
(1728486117.999821) vcan0 158#0000000000000019
(1728486117.999829) vcan0 161#000005500108001C
(1728486117.999832) vcan0 191#010090A1410003
(1728486117.999835) vcan0 164#0000C01AA8000004
(1728486118.001742) vcan0 133#00000000A7
(1728486118.001748) vcan0 136#000200000000002A
(1728486118.001750) vcan0 13A#0000000000000028
(1728486118.001753) vcan0 13F#000000050000002E
(1728486118.001755) vcan0 17C#0000000010000021
(1728486118.001757) vcan0 18E#00006B
(1728486118.001760) vcan0 1CF#80050000003C
(1728486118.001762) vcan0 1DC#02000039
(1728486118.003787) vcan0 183#0000000C0000102D
(1728486118.003799) vcan0 143#6B6B00E0
(1728486118.004926) vcan0 333#0000000000000F
(1728486118.006596) vcan0 095#800007F400000017
(1728486118.006607) vcan0 1A4#0000000800000010
(1728486118.006610) vcan0 1AA#7FFF000000006810
(1728486118.006612) vcan0 1B0#000F0000000157
(1728486118.006614) vcan0 1D0#000000000000000A
(1728486118.007629) vcan0 039#001B
(1728486118.008651) vcan0 166#D0320027
(1728486118.010069) vcan0 158#0000000000000028
(1728486118.010079) vcan0 161#000005500108002B
(1728486118.010082) vcan0 191#010090A1410012
(1728486118.010084) vcan0 133#00000000B6
(1728486118.010087) vcan0 136#0002000000000039
(1728486118.011351) vcan0 13A#0000000000000037
(1728486118.011360) vcan0 13F#000000050000003D
(1728486118.011369) vcan0 164#0000C01AA8000013
(1728486118.011372) vcan0 17C#0000000010000030
(1728486118.011374) vcan0 18E#00007A
(1728486118.011376) vcan0 294#040B0002CF5A000E
(1728486118.012391) vcan0 21E#03E83745220601
(1728486118.013419) vcan0 183#000000090000103F
(1728486118.013426) vcan0 143#6B6B00FF
(1728486118.014390) vcan0 244#00000001A1
(1728486118.015456) vcan0 095#800007F400000026
(1728486118.018681) vcan0 166#D0320036
(1728486118.019717) vcan0 158#0000000000000037
(1728486118.019727) vcan0 161#000005500108003A
(1728486118.019730) vcan0 191#010010A1410029
(1728486118.021233) vcan0 164#0000C01AA8000022
(1728486118.021239) vcan0 133#0000000089
(1728486118.021242) vcan0 136#000200000000000C
(1728486118.021244) vcan0 13A#000000000000000A
(1728486118.021246) vcan0 13F#0000000500000000
(1728486118.021249) vcan0 17C#0000000010000003
(1728486118.021251) vcan0 18E#00004D
(1728486118.022266) vcan0 1CF#80050000000F
(1728486118.022271) vcan0 1DC#0200000C
(1728486118.022273) vcan0 320#000003
(1728486118.022276) vcan0 324#7465000000000E0B
(1728486118.022278) vcan0 183#0000000600001005
(1728486118.024071) vcan0 37C#FD00FD00097F000B
(1728486118.024077) vcan0 039#002A
(1728486118.024079) vcan0 143#6B6B00C2
(1728486118.026109) vcan0 095#800007F400000035
(1728486118.026124) vcan0 1A4#000000080000002F
(1728486118.026127) vcan0 1AA#7FFF000000006720
(1728486118.027140) vcan0 1B0#000F0000000166
(1728486118.027150) vcan0 1D0#000000000000000A
(1728486118.028165) vcan0 166#D0320009
(1728486118.029183) vcan0 158#000000000000000A
(1728486118.030898) vcan0 244#0000000110
(1728486118.030907) vcan0 161#000005500108000D
(1728486118.030910) vcan0 191#010010A1410038
(1728486118.030912) vcan0 133#0000000098
(1728486118.030914) vcan0 136#000200000000001B
(1728486118.030917) vcan0 13A#0000000000000019
(1728486118.030919) vcan0 13F#000000050000001F
(1728486118.030922) vcan0 164#0000C01AA8000031
(1728486118.031940) vcan0 17C#0000000010000012
(1728486118.031950) vcan0 18E#00005C
(1728486118.032967) vcan0 183#0000000C0000101E
(1728486118.033985) vcan0 143#6B6B00D1
(1728486118.036775) vcan0 095#800007F400000008
(1728486118.036781) vcan0 039#0039
(1728486118.037802) vcan0 166#D0320018
(1728486118.039954) vcan0 158#0000000000000019
(1728486118.039967) vcan0 161#000005500108001C
(1728486118.039969) vcan0 191#010010A141000B
(1728486118.039971) vcan0 164#0000C01AA8000004
(1728486118.039973) vcan0 133#00000000A7
(1728486118.041608) vcan0 136#000200000000002A
(1728486118.041621) vcan0 13A#0000000000000028
(1728486118.041623) vcan0 13F#000000050000002E
(1728486118.041626) vcan0 17C#0000000010000021
(1728486118.041628) vcan0 18E#00006B
(1728486118.041630) vcan0 1CF#80050000001E
(1728486118.041633) vcan0 1DC#0200001B
(1728486118.041836) vcan0 244#0000000182
(1728486118.042736) vcan0 183#0000000900001020
(1728486118.043757) vcan0 143#6B6B00E0
(1728486118.045470) vcan0 095#800007F400000017
(1728486118.046660) vcan0 1A4#000000080000003E
(1728486118.046673) vcan0 1AA#7FFF00000000673F
(1728486118.046675) vcan0 1B0#000F0000000175
(1728486118.046678) vcan0 1D0#000000000000000A
(1728486118.048412) vcan0 166#D0320027
(1728486118.048422) vcan0 039#000C
(1728486118.050357) vcan0 158#0000000000000028
(1728486118.050364) vcan0 161#000005500108002B
(1728486118.050366) vcan0 191#010010A141001A
(1728486118.050369) vcan0 133#00000000B6
(1728486118.050371) vcan0 136#0002000000000039
(1728486118.050373) vcan0 13A#0000000000000037
(1728486118.051384) vcan0 13F#000000050000003D
(1728486118.051391) vcan0 164#0000C01AA8000013
(1728486118.051393) vcan0 17C#0000000010000030
(1728486118.051395) vcan0 18E#00007A
(1728486118.051398) vcan0 294#040B0002CF5A001D
(1728486118.051918) vcan0 188#00000000
(1728486118.052416) vcan0 21E#03E83745220610
(1728486118.052424) vcan0 309#0000000000000093
(1728486118.053443) vcan0 183#0000000E0000103A
(1728486118.053453) vcan0 143#6B6B00FF
(1728486118.055230) vcan0 095#800007F400000026
(1728486118.056245) vcan0 305#8017
(1728486118.058175) vcan0 244#000000019F
(1728486118.058184) vcan0 166#D0320036
(1728486118.059204) vcan0 158#0000000000000037
(1728486118.060513) vcan0 161#000005500108003A
(1728486118.060529) vcan0 191#010010A1410029
(1728486118.060531) vcan0 164#0000C01AA8000022
(1728486118.060534) vcan0 133#0000000089
(1728486118.060537) vcan0 136#000200000000000C
(1728486118.060540) vcan0 13A#000000000000000A
(1728486118.062033) vcan0 13F#0000000500000000
(1728486118.062045) vcan0 17C#0000000010000003
(1728486118.062047) vcan0 18E#00004D
(1728486118.062049) vcan0 1CF#80050000002D
(1728486118.062051) vcan0 1DC#0200002A
(1728486118.063065) vcan0 183#0000000A00001001
(1728486118.064078) vcan0 143#6B6B00C2
(1728486118.064085) vcan0 039#001B
(1728486118.066118) vcan0 095#800007F400000035
(1728486118.066128) vcan0 1A4#0000000800000001
(1728486118.066130) vcan0 1AA#7FFF000000006801
(1728486118.067144) vcan0 1B0#000F0000000148
(1728486118.067154) vcan0 1D0#000000000000000A
(1728486118.068889) vcan0 244#00000001CF
(1728486118.068906) vcan0 166#D0320009
(1728486118.069920) vcan0 158#000000000000000A
(1728486118.069927) vcan0 161#000005500108000D
(1728486118.069930) vcan0 191#010010A1410038
(1728486118.069932) vcan0 133#0000000098
(1728486118.071789) vcan0 136#000200000000001B
(1728486118.071796) vcan0 13A#0000000000000019
(1728486118.071799) vcan0 13F#000000050000001F
(1728486118.071801) vcan0 164#0000C01AA8000031
(1728486118.071803) vcan0 17C#0000000010000012
(1728486118.071805) vcan0 18E#00005C
(1728486118.073159) vcan0 183#0000000700001013
(1728486118.073171) vcan0 143#6B6B00D1
(1728486118.075690) vcan0 095#800007F400000008
(1728486118.078579) vcan0 039#002A
(1728486118.078589) vcan0 166#D0320018
(1728486118.079566) vcan0 244#000000014A
(1728486118.079641) vcan0 158#0000000000000019
(1728486118.079645) vcan0 161#000005500108001C
(1728486118.079648) vcan0 191#010010A141000B
(1728486118.080975) vcan0 133#00000000A7
(1728486118.080986) vcan0 136#000200000000002A
(1728486118.080990) vcan0 13A#0000000000000028
(1728486118.080993) vcan0 13F#000000050000002E
(1728486118.080995) vcan0 164#0000C01AA8000004
(1728486118.080998) vcan0 17C#0000000010000021
(1728486118.082485) vcan0 18E#00006B
(1728486118.082495) vcan0 1CF#80050000003C
(1728486118.082498) vcan0 1DC#02000039
(1728486118.082500) vcan0 183#0000000500001024
(1728486118.083587) vcan0 143#6B6B00E0
(1728486118.085422) vcan0 095#800007F400000017
(1728486118.086848) vcan0 1A4#0000000800000010
(1728486118.086858) vcan0 1AA#7FFF000000006810
(1728486118.086861) vcan0 1B0#000F0000000157
(1728486118.086864) vcan0 1D0#000000000000000A
(1728486118.088372) vcan0 166#D0320027
(1728486118.090266) vcan0 158#0000000000000028
(1728486118.090274) vcan0 161#000005500108002B
(1728486118.090276) vcan0 191#010010A141001A
(1728486118.090279) vcan0 133#00000000B6
(1728486118.090281) vcan0 136#0002000000000039
(1728486118.090283) vcan0 13A#0000000000000037
(1728486118.090479) vcan0 244#0000000102
(1728486118.092217) vcan0 13F#000000050000003D
(1728486118.092225) vcan0 164#0000C01AA8000013
(1728486118.092227) vcan0 17C#0000000010000030
(1728486118.092229) vcan0 039#0039
(1728486118.092232) vcan0 18E#00007A
(1728486118.092234) vcan0 294#040B0002CF5A002C
(1728486118.092236) vcan0 21E#03E8374522062F
(1728486118.093360) vcan0 183#0000000300001035
(1728486118.093369) vcan0 143#6B6B00FF
(1728486118.096134) vcan0 095#800007F400000026
(1728486118.098127) vcan0 166#D0320036
(1728486118.100019) vcan0 158#0000000000000037
(1728486118.100030) vcan0 161#000005500108003A
(1728486118.100032) vcan0 191#010010A1410029
(1728486118.100034) vcan0 133#0000000089
(1728486118.100037) vcan0 136#000200000000000C
(1728486118.101180) vcan0 13A#000000000000000A
(1728486118.101199) vcan0 13F#0000000500000000
(1728486118.101202) vcan0 164#0000C01AA8000022
(1728486118.101204) vcan0 17C#0000000010000003
(1728486118.101206) vcan0 18E#00004D
(1728486118.101444) vcan0 244#000000015D
(1728486118.102910) vcan0 1CF#80050000000F
(1728486118.102921) vcan0 1DC#0200000C
(1728486118.102923) vcan0 183#0000000A00001001
(1728486118.104827) vcan0 143#6B6B00C2
(1728486118.104839) vcan0 039#000C
(1728486118.104841) vcan0 333#0000000000001E
(1728486118.105860) vcan0 095#800007F400000035
(1728486118.105868) vcan0 1A4#000000080000002F
(1728486118.107500) vcan0 1AA#7FFF000000006720
(1728486118.107511) vcan0 1B0#000F0000000166
(1728486118.107519) vcan0 1D0#000000000000000A
(1728486118.108834) vcan0 166#D0320009
(1728486118.110695) vcan0 158#000000000000000A
(1728486118.110705) vcan0 161#000005500108000D
(1728486118.110708) vcan0 191#010010A1410038
(1728486118.110710) vcan0 133#0000000098
(1728486118.110712) vcan0 136#000200000000001B
(1728486118.110715) vcan0 13A#0000000000000019
(1728486118.110718) vcan0 13F#000000050000001F
(1728486118.112644) vcan0 164#0000C01AA8000031
(1728486118.112656) vcan0 17C#0000000010000012
(1728486118.112659) vcan0 18E#00005C
(1728486118.112661) vcan0 183#0000000700001013
(1728486118.113611) vcan0 244#0000000178
(1728486118.114071) vcan0 143#6B6B00D1
(1728486118.117494) vcan0 095#800007F400000008
(1728486118.118519) vcan0 166#D0320018
(1728486118.120373) vcan0 158#0000000000000019
(1728486118.120380) vcan0 161#000005500108001C
(1728486118.120382) vcan0 191#010010A141000B
(1728486118.120384) vcan0 133#00000000A7
(1728486118.120387) vcan0 136#000200000000002A
(1728486118.120389) vcan0 13A#0000000000000028
(1728486118.121410) vcan0 13F#000000050000002E
(1728486118.121423) vcan0 164#0000C01AA8000004
(1728486118.121425) vcan0 17C#0000000010000021
(1728486118.121428) vcan0 18E#00006B
(1728486118.121430) vcan0 1CF#80050000001E
(1728486118.122447) vcan0 1DC#0200001B
(1728486118.122457) vcan0 320#000012
(1728486118.122459) vcan0 324#7465000000000E1A
(1728486118.122462) vcan0 37C#FD00FD00097F001A
(1728486118.122464) vcan0 183#0000000500001024
(1728486118.124329) vcan0 244#0000000179
(1728486118.124342) vcan0 40C#0236323239533039
(1728486118.124347) vcan0 454#23EF36
(1728486118.124349) vcan0 143#6B6B00E0
(1728486118.125366) vcan0 095#800007F400000017
(1728486118.125373) vcan0 039#001B
(1728486118.126613) vcan0 1A4#000000080000003E
(1728486118.126624) vcan0 1AA#7FFF00000000673F
(1728486118.126626) vcan0 1B0#000F0000000175
(1728486118.126629) vcan0 1D0#000000000000000A
(1728486118.128209) vcan0 166#D0320027
(1728486118.129230) vcan0 158#0000000000000028
(1728486118.129240) vcan0 161#000005500108002B
(1728486118.130256) vcan0 191#010010A141001A
(1728486118.130266) vcan0 133#00000000B6
(1728486118.130268) vcan0 136#0002000000000039
(1728486118.130271) vcan0 13A#0000000000000037
(1728486118.131284) vcan0 13F#000000050000003D
(1728486118.131292) vcan0 164#0000C01AA8000013
(1728486118.131294) vcan0 17C#0000000010000030
(1728486118.131296) vcan0 18E#00007A
(1728486118.132306) vcan0 294#040B0002CF5A003B
(1728486118.132313) vcan0 21E#03E8374522063E
(1728486118.133989) vcan0 183#0000000B0000103D
(1728486118.133995) vcan0 143#6B6B00FF
(1728486118.136105) vcan0 095#800007F400000026
(1728486118.138142) vcan0 166#D0320036
(1728486118.139157) vcan0 158#0000000000000037
(1728486118.140123) vcan0 244#0000000160
(1728486118.140185) vcan0 161#000005500108003A
(1728486118.140191) vcan0 191#010010A1410029
(1728486118.140201) vcan0 164#0000C01AA8000022
(1728486118.140204) vcan0 133#0000000089
(1728486118.140207) vcan0 136#000200000000000C
(1728486118.141791) vcan0 13A#000000000000000A
(1728486118.141820) vcan0 13F#0000000500000000
(1728486118.141823) vcan0 17C#0000000010000003
(1728486118.141825) vcan0 18E#00004D
(1728486118.141828) vcan0 1CF#80050000002D
(1728486118.141830) vcan0 1DC#0200002A
(1728486118.142847) vcan0 183#0000000800001003
(1728486118.143874) vcan0 143#6B6B00C2
(1728486118.145900) vcan0 095#800007F400000035
(1728486118.145910) vcan0 039#002A
(1728486118.145913) vcan0 1A4#0000000800000001
(1728486118.147704) vcan0 1AA#7FFF000000006801
(1728486118.147711) vcan0 1B0#000F0000000148
(1728486118.147713) vcan0 1D0#000000000000000A
(1728486118.148732) vcan0 166#D0320009
(1728486118.149761) vcan0 158#000000000000000A
(1728486118.149771) vcan0 161#000005500108000D
(1728486118.149774) vcan0 191#010010A1410038
(1728486118.149777) vcan0 133#0000000098
(1728486118.150565) vcan0 244#00000001F0
(1728486118.150915) vcan0 136#000200000000001B
(1728486118.150935) vcan0 13A#0000000000000019
(1728486118.150938) vcan0 13F#000000050000001F
(1728486118.150940) vcan0 164#0000C01AA9000030
(1728486118.152548) vcan0 17C#0000000010000012
(1728486118.152559) vcan0 18E#00005C
(1728486118.152561) vcan0 309#00000000000000A2
(1728486118.152564) vcan0 428#01040000521C01
(1728486118.152566) vcan0 405#000004000000000B
(1728486118.152568) vcan0 183#0000000600001014
(1728486118.154456) vcan0 143#6B6B00D1
(1728486118.155580) vcan0 095#800007F400000008
(1728486118.158376) vcan0 166#D0320018
(1728486118.158389) vcan0 305#8026
(1728486118.159600) vcan0 158#0000000000000019
(1728486118.159613) vcan0 161#000005500108001C
(1728486118.159615) vcan0 191#010010A141000B
(1728486118.161277) vcan0 164#0000C01AA8000004
(1728486118.161287) vcan0 133#00000000A7
(1728486118.161290) vcan0 136#000200000000002A
(1728486118.161292) vcan0 13A#0000000000000028
(1728486118.161299) vcan0 13F#000000050000002E
(1728486118.161302) vcan0 17C#0000000010000021
(1728486118.161304) vcan0 18E#00006B
(1728486118.161310) vcan0 1CF#80050000003C
(1728486118.161656) vcan0 244#0000000113
(1728486118.162606) vcan0 1DC#02000039
(1728486118.162731) vcan0 183#0000000C0000102D
(1728486118.164223) vcan0 143#6B6B00E0
(1728486118.166162) vcan0 095#800007F400000017
(1728486118.166174) vcan0 1A4#0000000800000010
(1728486118.166176) vcan0 1AA#7FFF000000006810
(1728486118.168133) vcan0 1B0#000F0000000157
(1728486118.168141) vcan0 039#0039
(1728486118.168143) vcan0 1D0#000000000000000A
(1728486118.168146) vcan0 166#D0320027
(1728486118.169523) vcan0 158#0000000000000028
(1728486118.169531) vcan0 161#000005500108002B
(1728486118.169533) vcan0 191#010010A141001A
(1728486118.171021) vcan0 133#00000000B6
(1728486118.171030) vcan0 136#0002000000000039
(1728486118.171033) vcan0 13A#0000000000000037
(1728486118.171035) vcan0 13F#000000050000003D
(1728486118.171054) vcan0 164#0000C01AA8000013
(1728486118.171059) vcan0 17C#0000000010000030
(1728486118.172958) vcan0 18E#00007A
(1728486118.172966) vcan0 294#040B0002CF5A000E
(1728486118.172969) vcan0 21E#03E83745220601
(1728486118.172972) vcan0 183#000000090000103F
(1728486118.173946) vcan0 244#00000001DC
(1728486118.174054) vcan0 143#6B6B00FF
(1728486118.175295) vcan0 095#800007F400000026
(1728486118.178856) vcan0 166#D0320036
(1728486118.180740) vcan0 158#0000000000000037
(1728486118.180750) vcan0 161#000005500108003A
(1728486118.180752) vcan0 191#010010A1410029
(1728486118.180755) vcan0 164#0000C01AA8000022
(1728486118.180757) vcan0 133#0000000089
(1728486118.180760) vcan0 136#000200000000000C
(1728486118.180762) vcan0 13A#000000000000000A
(1728486118.180764) vcan0 039#000C
(1728486118.180766) vcan0 13F#0000000500000000
(1728486118.182744) vcan0 17C#0000000010000003
(1728486118.182756) vcan0 18E#00004D
(1728486118.182758) vcan0 1CF#80050000000F
(1728486118.182760) vcan0 1DC#0200000C
(1728486118.182763) vcan0 183#0000000E0000100D
(1728486118.183848) vcan0 143#6B6B00C2
(1728486118.185561) vcan0 095#800007F400000035
(1728486118.186594) vcan0 244#000000018B
(1728486118.186996) vcan0 1A4#000000080000002F
(1728486118.187002) vcan0 1AA#7FFF000000006720
(1728486118.187004) vcan0 1B0#000F0000000166
(1728486118.187007) vcan0 1D0#000000000000000A
(1728486118.188534) vcan0 166#D0320009
(1728486118.189589) vcan0 158#000000000000000A
(1728486118.189599) vcan0 161#000005500108000D
(1728486118.189601) vcan0 191#010010A1410038
(1728486118.190634) vcan0 133#0000000098
(1728486118.190642) vcan0 136#000200000000001B
(1728486118.190645) vcan0 13A#0000000000000019
(1728486118.190647) vcan0 13F#000000050000001F
(1728486118.192502) vcan0 164#0000C01AA8000031
(1728486118.192510) vcan0 17C#0000000010000012
(1728486118.192513) vcan0 18E#00005C
(1728486118.193525) vcan0 183#0000000A00001010
(1728486118.193535) vcan0 143#6B6B00D1
(1728486118.194545) vcan0 039#001B
(1728486118.196287) vcan0 095#800007F400000008
(1728486118.197563) vcan0 244#0000000194
(1728486118.199188) vcan0 166#D0320018
(1728486118.199199) vcan0 158#0000000000000019
(1728486118.201178) vcan0 161#000005500108001C
(1728486118.201183) vcan0 191#010010A141000B
(1728486118.201185) vcan0 164#0000C01AA8000004
(1728486118.201188) vcan0 133#00000000A7
(1728486118.201190) vcan0 136#000200000000002A
(1728486118.201192) vcan0 13A#0000000000000028
(1728486118.201195) vcan0 13F#000000050000002E
(1728486118.201197) vcan0 17C#0000000010000021
(1728486118.201200) vcan0 18E#00006B
(1728486118.203097) vcan0 1CF#80050000001E
(1728486118.203102) vcan0 1DC#0200001B
(1728486118.203105) vcan0 183#0000000700001022
(1728486118.204318) vcan0 143#6B6B00E0
(1728486118.204341) vcan0 333#0000000000002D
(1728486118.206097) vcan0 095#800007F400000017
(1728486118.206109) vcan0 1A4#000000080000003E
(1728486118.206111) vcan0 1AA#7FFF00000000673F
(1728486118.207991) vcan0 1B0#000F0000000175
(1728486118.208018) vcan0 1D0#000000000000000A
(1728486118.208020) vcan0 039#002A
(1728486118.208024) vcan0 166#D0320027
(1728486118.209880) vcan0 158#0000000000000028
(1728486118.209891) vcan0 161#000005500108002B
(1728486118.209894) vcan0 191#010010A141001A
(1728486118.209896) vcan0 133#00000000B6
(1728486118.210449) vcan0 244#0000000161
(1728486118.211377) vcan0 136#0002000000000039
(1728486118.211387) vcan0 13A#0000000000000037
(1728486118.211390) vcan0 13F#000000050000003D
(1728486118.211397) vcan0 164#0000C01AA8000013
(1728486118.211399) vcan0 17C#0000000010000030
(1728486118.211401) vcan0 18E#00007A
(1728486118.211404) vcan0 294#040B0002CF5A001D
(1728486118.212927) vcan0 21E#03E83745220610
(1728486118.212936) vcan0 183#0000000500001033
(1728486118.214759) vcan0 143#6B6B00FF
(1728486118.215807) vcan0 095#800007F400000026
(1728486118.218764) vcan0 166#D0320036
(1728486118.220609) vcan0 158#0000000000000037
(1728486118.220619) vcan0 161#000005500108003A
(1728486118.220622) vcan0 191#010010A1410029
(1728486118.220624) vcan0 164#0000C01AA8000022
(1728486118.220626) vcan0 133#0000000089
(1728486118.220629) vcan0 136#000200000000000C
(1728486118.220631) vcan0 13A#000000000000000A
(1728486118.222198) vcan0 13F#0000000500000000
(1728486118.222208) vcan0 17C#0000000010000003
(1728486118.222211) vcan0 18E#00004D
(1728486118.222213) vcan0 1CF#80050000002D
(1728486118.222215) vcan0 1DC#0200002A
(1728486118.222217) vcan0 320#000021
(1728486118.222220) vcan0 324#7465000000000E29
(1728486118.222222) vcan0 37C#FD00FD00097F0029
(1728486118.222322) vcan0 244#00000001C3
(1728486118.223506) vcan0 183#0000000300001008
(1728486118.223514) vcan0 143#6B6B00C2
(1728486118.226476) vcan0 095#800007F400000035
(1728486118.226487) vcan0 1A4#0000000800000001
(1728486118.226490) vcan0 1AA#7FFF000000006801
(1728486118.226492) vcan0 1B0#000F0000000148
(1728486118.227582) vcan0 1D0#000000000000000A
(1728486118.227594) vcan0 039#0039
(1728486118.229384) vcan0 166#D0320009
(1728486118.229393) vcan0 158#000000000000000A
(1728486118.229395) vcan0 161#000005500108000D
(1728486118.231339) vcan0 191#010010A1410038
(1728486118.231357) vcan0 133#0000000098
(1728486118.231360) vcan0 136#000200000000001B
(1728486118.231362) vcan0 13A#0000000000000019
(1728486118.231364) vcan0 13F#000000050000001F
(1728486118.231366) vcan0 164#0000C01AA8000031
(1728486118.231369) vcan0 17C#0000000010000012
(1728486118.231372) vcan0 18E#00005C
(1728486118.233294) vcan0 244#0000000105
(1728486118.233810) vcan0 183#0000000A00001010
(1728486118.233818) vcan0 143#6B6B00D1
(1728486118.235258) vcan0 095#800007F400000008
(1728486118.238776) vcan0 166#D0320018
(1728486118.238796) vcan0 039#000C
(1728486118.240132) vcan0 158#0000000000000019
(1728486118.240143) vcan0 161#000005500108001C
(1728486118.240146) vcan0 191#010010A141000B
(1728486118.240148) vcan0 164#0000C01AA8000004
(1728486118.240150) vcan0 133#00000000A7
(1728486118.240154) vcan0 136#000200000000002A
(1728486118.242179) vcan0 13A#0000000000000028
(1728486118.242190) vcan0 13F#000000050000002E
(1728486118.242192) vcan0 17C#0000000010000021
(1728486118.242194) vcan0 18E#00006B
(1728486118.242197) vcan0 1CF#80050000003C
(1728486118.242200) vcan0 1DC#02000039
(1728486118.242202) vcan0 183#0000000700001022
(1728486118.244006) vcan0 143#6B6B00E0
(1728486118.245150) vcan0 095#800007F400000017
(1728486118.245595) vcan0 244#00000001A0
(1728486118.246338) vcan0 1A4#0000000800000010
(1728486118.246345) vcan0 1AA#7FFF000000006810
(1728486118.246347) vcan0 1B0#000F0000000157
(1728486118.248046) vcan0 1D0#000000000000000A
(1728486118.248055) vcan0 166#D0320027
(1728486118.249931) vcan0 158#0000000000000028
(1728486118.249938) vcan0 161#000005500108002B
(1728486118.249940) vcan0 191#010010A141001A
(1728486118.249943) vcan0 133#00000000B6
(1728486118.251899) vcan0 136#0002000000000039
(1728486118.251920) vcan0 13A#0000000000000037
(1728486118.251922) vcan0 13F#000000050000003D
(1728486118.251925) vcan0 164#0000C01AA8000013
(1728486118.251927) vcan0 17C#0000000010000030
(1728486118.251929) vcan0 18E#00007A
(1728486118.251932) vcan0 294#040B0002CF5A002C
(1728486118.251934) vcan0 21E#03E8374522062F
(1728486118.251937) vcan0 309#00000000000000B1
(1728486118.253829) vcan0 039#001B
(1728486118.253837) vcan0 183#0000000500001033
(1728486118.253840) vcan0 143#6B6B00FF
(1728486118.255805) vcan0 095#800007F400000026
(1728486118.258686) vcan0 244#0000000133
(1728486118.259332) vcan0 166#D0320036
(1728486118.259344) vcan0 158#0000000000000037
(1728486118.259347) vcan0 161#000005500108003A
(1728486118.260468) vcan0 191#010010A1410029
(1728486118.260490) vcan0 164#0000C01AA9000021
(1728486118.260493) vcan0 133#0000000089
(1728486118.260506) vcan0 136#000200000000000C
(1728486118.260509) vcan0 13A#000000000000000A
(1728486118.261757) vcan0 13F#0000000500000000
(1728486118.261777) vcan0 17C#0000000010000003
(1728486118.261795) vcan0 18E#00004D
(1728486118.261798) vcan0 1CF#80050000000F
(1728486118.261800) vcan0 1DC#0200000C
(1728486118.263570) vcan0 183#0000000B00001000
(1728486118.263582) vcan0 143#6B6B00C2
(1728486118.265474) vcan0 095#800007F400000035
(1728486118.265485) vcan0 305#8035
(1728486118.266580) vcan0 1A4#000000080000002F
(1728486118.266591) vcan0 1AA#7FFF000000006720
(1728486118.266594) vcan0 1B0#000F0000000166
(1728486118.266596) vcan0 1D0#000000000000000A
(1728486118.268485) vcan0 166#D0320009
(1728486118.270373) vcan0 158#000000000000000A
(1728486118.270387) vcan0 161#000005500108000D
(1728486118.270391) vcan0 191#010010A1410038
(1728486118.270394) vcan0 133#0000000098
(1728486118.270396) vcan0 136#000200000000001B
(1728486118.270400) vcan0 13A#0000000000000019
(1728486118.270459) vcan0 244#00000001F6
(1728486118.271415) vcan0 13F#000000050000001F
(1728486118.271429) vcan0 164#0000C01AA8000031
(1728486118.271435) vcan0 17C#0000000010000012
(1728486118.271440) vcan0 18E#00005C
(1728486118.272743) vcan0 039#002A
(1728486118.272759) vcan0 183#0000000800001012
(1728486118.274253) vcan0 143#6B6B00D1
(1728486118.276254) vcan0 095#800007F400000008
(1728486118.278499) vcan0 166#D0320018
(1728486118.280093) vcan0 158#0000000000000019
(1728486118.280112) vcan0 161#000005500108001C
(1728486118.280114) vcan0 191#010010A141000B
(1728486118.280117) vcan0 164#0000C01AA8000004
(1728486118.280119) vcan0 133#00000000A7
(1728486118.282030) vcan0 136#000200000000002A
(1728486118.282041) vcan0 13A#0000000000000028
(1728486118.282043) vcan0 13F#000000050000002E
(1728486118.282045) vcan0 17C#0000000010000021
(1728486118.282048) vcan0 18E#00006B
(1728486118.282050) vcan0 1CF#80050000001E
(1728486118.282052) vcan0 1DC#0200001B
(1728486118.283019) vcan0 244#00000001B0
(1728486118.283341) vcan0 183#0000000600001023
(1728486118.283348) vcan0 143#6B6B00E0
(1728486118.286310) vcan0 095#800007F400000017
(1728486118.286317) vcan0 1A4#000000080000003E
(1728486118.286320) vcan0 1AA#7FFF00000000673F
(1728486118.286322) vcan0 1B0#000F0000000175
(1728486118.287920) vcan0 1D0#000000000000000A
(1728486118.287931) vcan0 039#0039
(1728486118.287933) vcan0 166#D0320027
(1728486118.289811) vcan0 158#0000000000000028
(1728486118.289821) vcan0 161#000005500108002B
(1728486118.289824) vcan0 191#010010A141001A
(1728486118.289826) vcan0 133#00000000B6
(1728486118.291777) vcan0 136#0002000000000039
(1728486118.291785) vcan0 13A#0000000000000037
(1728486118.291787) vcan0 13F#000000050000003D
(1728486118.291789) vcan0 164#0000C01AA8000013
(1728486118.291792) vcan0 17C#0000000010000030
(1728486118.291794) vcan0 18E#00007A
(1728486118.291796) vcan0 294#040B0002CF5A003B
(1728486118.291799) vcan0 21E#03E8374522063E
(1728486118.293361) vcan0 183#0000000C0000103C
(1728486118.293502) vcan0 143#6B6B00FF
(1728486118.294732) vcan0 244#0000000156
(1728486118.295805) vcan0 095#800007F800000022
(1728486118.299555) vcan0 166#D0320036
(1728486118.299566) vcan0 158#0000000000000037
(1728486118.299568) vcan0 161#000005500108003A
(1728486118.299571) vcan0 191#010010A1410029
(1728486118.300611) vcan0 164#0000C01AA8000022
(1728486118.300631) vcan0 133#0000000089
(1728486118.300637) vcan0 039#000C
(1728486118.300642) vcan0 136#000200000000000C
(1728486118.300648) vcan0 13A#000000000000000A
(1728486118.302459) vcan0 13F#0000000500000000
(1728486118.302477) vcan0 17C#0000000010000003
(1728486118.302483) vcan0 18E#00004D
(1728486118.302489) vcan0 1CF#80050000002D
(1728486118.302497) vcan0 1DC#0200002A
(1728486118.302502) vcan0 183#0000000900001002
(1728486118.304386) vcan0 143#6B6B00C2
(1728486118.304401) vcan0 333#0000000000003C
(1728486118.306372) vcan0 095#800007F800000031
(1728486118.306383) vcan0 1A4#0000000800000001
(1728486118.306388) vcan0 1AA#7FFF000000006801
(1728486118.306393) vcan0 1B0#000F0000000148
(1728486118.307513) vcan0 1D0#000000000000000A
(1728486118.309250) vcan0 166#D0320009
(1728486118.309294) vcan0 158#000000000000000A
(1728486118.309302) vcan0 161#000005500108000D
(1728486118.309634) vcan0 244#0000000190
(1728486118.310431) vcan0 191#010010A1410038
(1728486118.310455) vcan0 133#0000000098
(1728486118.310461) vcan0 136#000200000000001B
(1728486118.310476) vcan0 13A#0000000000000019
(1728486118.310483) vcan0 13F#000000050000001F
(1728486118.312262) vcan0 164#0000C01AA8000031
(1728486118.312289) vcan0 17C#0000000010000012
(1728486118.312298) vcan0 18E#00005C
(1728486118.313828) vcan0 183#0000000E0000101C
(1728486118.313844) vcan0 143#6B6B00D1
(1728486118.313862) vcan0 039#001B
(1728486118.315117) vcan0 095#800007F800000004
(1728486118.318059) vcan0 166#D0320018
(1728486118.319158) vcan0 158#0000000000000019
(1728486118.320725) vcan0 161#000005500108001C
(1728486118.320734) vcan0 191#010090A1410003
(1728486118.320736) vcan0 133#00000000A7
(1728486118.320738) vcan0 136#000200000000002A
(1728486118.320741) vcan0 13A#0000000000000028
(1728486118.320743) vcan0 13F#000000050000002E
(1728486118.320756) vcan0 164#0000C01AA8000004
(1728486118.321871) vcan0 17C#0000000010000021
(1728486118.321886) vcan0 18E#00006B
(1728486118.321892) vcan0 1CF#80050000003C
(1728486118.321922) vcan0 1DC#02000039
(1728486118.321928) vcan0 320#000030
(1728486118.321933) vcan0 324#7465000000000E38
(1728486118.324792) vcan0 37C#FD00FD00097F0038
(1728486118.324803) vcan0 183#0000000A0000102F
(1728486118.324808) vcan0 143#6B6B00E0
(1728486118.325850) vcan0 244#00000001C2
(1728486118.326245) vcan0 095#800007F800000013
(1728486118.326258) vcan0 1A4#0000000800000010
(1728486118.326264) vcan0 1AA#7FFF000000006810
(1728486118.326269) vcan0 1B0#000F0000000157
(1728486118.327290) vcan0 1D0#000000000000000A
(1728486118.328339) vcan0 039#002A
(1728486118.328360) vcan0 166#D0320027
(1728486118.329704) vcan0 158#0000000000000028
(1728486118.329713) vcan0 161#000005500108002B
(1728486118.329718) vcan0 191#010090A1410012
(1728486118.329723) vcan0 133#00000000B6
(1728486118.331372) vcan0 136#0002000000000039
(1728486118.331384) vcan0 13A#0000000000000037
(1728486118.331406) vcan0 13F#000000050000003D
(1728486118.331412) vcan0 164#0000C01AA9000012
(1728486118.331417) vcan0 17C#0000000010000030
(1728486118.331422) vcan0 18E#00007A
(1728486118.331428) vcan0 294#040B0002CF5A000E
(1728486118.332621) vcan0 21E#03E83745220601
(1728486118.334450) vcan0 183#0000000F00001039
(1728486118.334470) vcan0 143#6B6B00FF
(1728486118.335492) vcan0 095#800007F800000022
(1728486118.336525) vcan0 244#000000018F
(1728486118.338465) vcan0 166#D0320036
(1728486118.339566) vcan0 158#0000000000000037
(1728486118.339577) vcan0 161#000005500108003A
(1728486118.339582) vcan0 191#010090A1410021
(1728486118.341349) vcan0 164#0000C01AA8000022
(1728486118.341365) vcan0 133#0000000089
(1728486118.341371) vcan0 136#000200000000000C
(1728486118.341386) vcan0 13A#000000000000000A
(1728486118.341392) vcan0 13F#0000000500000000
(1728486118.341399) vcan0 17C#0000000010000003
(1728486118.341405) vcan0 18E#00004D
(1728486118.341410) vcan0 1CF#80050000000F
(1728486118.341415) vcan0 1DC#0200000C
(1728486118.343342) vcan0 183#0000001300001007
(1728486118.343368) vcan0 039#0039
(1728486118.343373) vcan0 143#6B6B00C2
(1728486118.345261) vcan0 095#800007F400000035
(1728486118.347174) vcan0 1A4#000000080000002F
(1728486118.347189) vcan0 1AA#7FFF000000006720
(1728486118.347195) vcan0 1B0#000F0000000166
(1728486118.347200) vcan0 1D0#000000000000000A
(1728486118.348174) vcan0 244#0000000189
(1728486118.348818) vcan0 166#D0320009
(1728486118.350135) vcan0 158#000000000000000A
(1728486118.350148) vcan0 161#000005500108000D
(1728486118.350154) vcan0 191#010090A1410030
(1728486118.350161) vcan0 133#0000000098
(1728486118.350168) vcan0 136#000200000000001B
(1728486118.352073) vcan0 13A#0000000000000019
(1728486118.352088) vcan0 13F#000000050000001F
(1728486118.352093) vcan0 164#0000C01AA8000031
(1728486118.352099) vcan0 17C#0000000010000012
(1728486118.352104) vcan0 18E#00005C
(1728486118.352109) vcan0 309#0000000000000084
(1728486118.354006) vcan0 183#0000000E0000101C
(1728486118.354021) vcan0 143#6B6B00D1
(1728486118.355623) vcan0 095#800007F400000008
(1728486118.356947) vcan0 039#000C
(1728486118.358870) vcan0 166#D0320018
(1728486118.359937) vcan0 158#0000000000000019
(1728486118.359953) vcan0 161#000005500108001C
(1728486118.359959) vcan0 191#010090A1410003
(1728486118.359965) vcan0 164#0000C01AA8000004
(1728486118.359970) vcan0 133#00000000A7
(1728486118.360012) vcan0 244#00000001C0
(1728486118.361097) vcan0 136#000200000000002A
(1728486118.361414) vcan0 13A#0000000000000028
(1728486118.361445) vcan0 13F#000000050000002E
(1728486118.361450) vcan0 17C#0000000010000021
(1728486118.361455) vcan0 18E#00006B
(1728486118.361460) vcan0 1CF#80050000001E
(1728486118.361473) vcan0 1DC#0200001B
(1728486118.362634) vcan0 183#0000000A0000102F
(1728486118.364698) vcan0 143#6B6B00E0
(1728486118.365738) vcan0 095#800007F400000017
(1728486118.367652) vcan0 1A4#000000080000003E
(1728486118.367672) vcan0 1AA#7FFF00000000673F
(1728486118.367678) vcan0 1B0#000F0000000175
(1728486118.367684) vcan0 1D0#000000000000000A
(1728486118.369373) vcan0 166#D0320027
(1728486118.369412) vcan0 158#0000000000000028
(1728486118.369415) vcan0 161#000005500108002B
(1728486118.370555) vcan0 191#010090A1410012
(1728486118.370564) vcan0 133#00000000B6
(1728486118.370566) vcan0 136#0002000000000039
(1728486118.370569) vcan0 039#001B
(1728486118.370571) vcan0 13A#0000000000000037
(1728486118.372485) vcan0 13F#000000050000003D
(1728486118.372492) vcan0 164#0000C01AA8000013
(1728486118.372495) vcan0 17C#0000000010000030
(1728486118.372497) vcan0 18E#00007A
(1728486118.372499) vcan0 294#040B0002CF5A001D
(1728486118.372502) vcan0 305#8008
(1728486118.372504) vcan0 21E#03E83745220610
(1728486118.373533) vcan0 244#0000000105
(1728486118.373752) vcan0 183#0000000700001031
(1728486118.373760) vcan0 143#6B6B00FF
(1728486118.375444) vcan0 095#800007F400000026
(1728486118.375451) vcan0 5A1#960000000000622F
(1728486118.378343) vcan0 166#D0320036
(1728486118.379412) vcan0 158#0000000000000037
(1728486118.379431) vcan0 161#000005500108003A
(1728486118.381258) vcan0 191#010090A1410021
(1728486118.381269) vcan0 133#0000000089
(1728486118.381275) vcan0 136#000200000000000C
(1728486118.381281) vcan0 13A#000000000000000A
(1728486118.381288) vcan0 13F#0000000500000000
(1728486118.381294) vcan0 164#0000C01AA8000022
(1728486118.381302) vcan0 17C#0000000010000003
(1728486118.381308) vcan0 18E#00004D
(1728486118.381313) vcan0 1CF#80050000002D
(1728486118.382589) vcan0 1DC#0200002A
(1728486118.382607) vcan0 183#0000000500001006
(1728486118.384183) vcan0 143#6B6B00C2
(1728486118.384198) vcan0 039#002A
(1728486118.385166) vcan0 244#00000001E8
(1728486118.385708) vcan0 095#800007F400000035
(1728486118.387117) vcan0 1A4#0000000800000001
(1728486118.387129) vcan0 1AA#7FFF000000006801
(1728486118.387135) vcan0 1B0#000F0000000148
(1728486118.387140) vcan0 1D0#000000000000000A
(1728486118.389044) vcan0 166#D0320009
(1728486118.389054) vcan0 158#000000000000000A
(1728486118.390137) vcan0 161#000005500108000D
(1728486118.390180) vcan0 191#010090A1410030
(1728486118.390210) vcan0 133#0000000098
(1728486118.390218) vcan0 136#000200000000001B
(1728486118.390225) vcan0 13A#0000000000000019
(1728486118.391981) vcan0 13F#000000050000001F
(1728486118.391991) vcan0 164#0000C01AA8000031
(1728486118.391997) vcan0 17C#0000000010000012
(1728486118.392002) vcan0 18E#00005C
(1728486118.393180) vcan0 183#0000000B0000101F
(1728486118.393193) vcan0 143#6B6B00D1
(1728486118.395886) vcan0 095#800007F400000008
(1728486118.396548) vcan0 244#000000017D
(1728486118.396941) vcan0 039#0039
(1728486118.398771) vcan0 166#D0320018
(1728486118.400738) vcan0 158#0000000000000019
(1728486118.400746) vcan0 161#000005500108001C
(1728486118.400749) vcan0 191#010090A1410003
(1728486118.400751) vcan0 133#00000000A7
(1728486118.400753) vcan0 136#000200000000002A
(1728486118.400756) vcan0 13A#0000000000000028
(1728486118.400759) vcan0 13F#000000050000002E
(1728486118.400762) vcan0 164#0000C01AA8000004
(1728486118.402676) vcan0 17C#0000000010000021
(1728486118.402683) vcan0 18E#00006B
(1728486118.402686) vcan0 1CF#80050000003C
(1728486118.402688) vcan0 1DC#02000039
(1728486118.402690) vcan0 183#0000000800001021
(1728486118.403791) vcan0 143#6B6B00E0
(1728486118.404832) vcan0 333#0000000000000F
(1728486118.406544) vcan0 095#800007F400000017
(1728486118.406551) vcan0 1A4#0000000800000010
(1728486118.406553) vcan0 1AA#7FFF000000006810
(1728486118.406556) vcan0 1B0#000F0000000157
(1728486118.406558) vcan0 1D0#000000000000000A
(1728486118.408515) vcan0 244#00000001B2
(1728486118.408836) vcan0 166#D0320027
(1728486118.409864) vcan0 158#0000000000000028
(1728486118.409879) vcan0 161#000005500108002B
(1728486118.409882) vcan0 191#010090A1410012
(1728486118.409884) vcan0 133#00000000B6
(1728486118.411408) vcan0 136#0002000000000039
(1728486118.411419) vcan0 13A#0000000000000037
(1728486118.411422) vcan0 13F#000000050000003D
(1728486118.411424) vcan0 164#0000C01AA8000013
(1728486118.411427) vcan0 17C#0000000010000030
(1728486118.411429) vcan0 18E#00007A
(1728486118.411437) vcan0 294#040B0002CF5A002C
(1728486118.412446) vcan0 21E#03E8374522062F
(1728486118.413469) vcan0 183#0000000D0000103B
(1728486118.413478) vcan0 143#6B6B00FF
(1728486118.416262) vcan0 095#800007F400000026
(1728486118.417496) vcan0 039#000C
(1728486118.419220) vcan0 244#0000000187
(1728486118.419232) vcan0 166#D0320036
(1728486118.419237) vcan0 158#0000000000000037
(1728486118.419239) vcan0 161#000005500108003A
(1728486118.420254) vcan0 191#010090A1410021
(1728486118.420264) vcan0 133#0000000089
(1728486118.420266) vcan0 136#000200000000000C
(1728486118.420269) vcan0 13A#000000000000000A
(1728486118.421280) vcan0 13F#0000000500000000
(1728486118.421289) vcan0 164#0000C01AA8000022
(1728486118.421291) vcan0 17C#0000000010000003
(1728486118.421294) vcan0 18E#00004D
(1728486118.421297) vcan0 1CF#80050000000F
(1728486118.422308) vcan0 1DC#0200000C
(1728486118.422319) vcan0 320#000003
(1728486118.422321) vcan0 324#7465000000000E0B
(1728486118.422324) vcan0 37C#FD00FD00097F000B
(1728486118.423334) vcan0 183#0000000900001002
(1728486118.423342) vcan0 40C#033133383439000D
(1728486118.423344) vcan0 454#23EF09
(1728486118.423347) vcan0 143#6B6B00C2
(1728486118.425375) vcan0 095#800007F400000035
(1728486118.426993) vcan0 1A4#000000080000002F
(1728486118.427007) vcan0 1AA#7FFF000000006720
(1728486118.427010) vcan0 1B0#000F0000000166
(1728486118.427012) vcan0 1D0#000000000000000A
(1728486118.428920) vcan0 166#D0320009
(1728486118.429938) vcan0 158#000000000000000A
(1728486118.429945) vcan0 161#000005500108000D
(1728486118.429947) vcan0 191#010090A1410030
(1728486118.429950) vcan0 18E#00005C
(1728486118.429952) vcan0 133#0000000098
(1728486118.430964) vcan0 136#000200000000001B
(1728486118.430971) vcan0 13A#0000000000000019
(1728486118.430973) vcan0 039#001B
(1728486118.430975) vcan0 13F#000000050000001F
(1728486118.430978) vcan0 164#0000C01AA8000031
(1728486118.431991) vcan0 17C#0000000010000012
(1728486118.433005) vcan0 183#0000000600001014
(1728486118.434016) vcan0 143#6B6B00D1
(1728486118.435722) vcan0 244#0000000137
(1728486118.435732) vcan0 095#800007F400000008
(1728486118.439712) vcan0 166#D0320018
(1728486118.439723) vcan0 158#0000000000000019
(1728486118.439725) vcan0 161#000005500108001C
(1728486118.439728) vcan0 191#010090A1410003
(1728486118.439730) vcan0 164#0000C01AA8000004
(1728486118.440761) vcan0 133#00000000A7
(1728486118.440770) vcan0 136#000200000000002A
(1728486118.440773) vcan0 13A#0000000000000028
(1728486118.440775) vcan0 13F#000000050000002E
(1728486118.441844) vcan0 17C#0000000010000021
(1728486118.441851) vcan0 18E#00006B
(1728486118.441853) vcan0 1CF#80050000001E
(1728486118.441856) vcan0 1DC#0200001B
(1728486118.442871) vcan0 183#0000000C0000102D
(1728486118.444475) vcan0 143#6B6B00E0
(1728486118.445511) vcan0 095#800007F400000017
(1728486118.445517) vcan0 039#002A
(1728486118.446532) vcan0 1A4#000000080000003E
(1728486118.446538) vcan0 1AA#7FFF00000000673F
(1728486118.446541) vcan0 1B0#000F0000000175
(1728486118.447550) vcan0 1D0#000000000000000A
(1728486118.448566) vcan0 166#D0320027
(1728486118.449582) vcan0 158#0000000000000028
(1728486118.449589) vcan0 161#000005500108002B
(1728486118.449591) vcan0 191#010090A1410012
(1728486118.451290) vcan0 244#000000011D
(1728486118.451298) vcan0 133#00000000B6
(1728486118.451301) vcan0 136#0002000000000039
(1728486118.451303) vcan0 13A#0000000000000037
(1728486118.451305) vcan0 13F#000000050000003D
(1728486118.451308) vcan0 164#0000C01AA8000013
(1728486118.451310) vcan0 17C#0000000010000030
(1728486118.451312) vcan0 18E#00007A
(1728486118.452329) vcan0 294#040B0002CF5A003B
(1728486118.452337) vcan0 21E#03E8374522063E
(1728486118.452339) vcan0 309#0000000000000093
(1728486118.452341) vcan0 428#01040000521C10
(1728486118.453348) vcan0 405#000004000000001A
(1728486118.453354) vcan0 183#000000090000103F
(1728486118.453356) vcan0 143#6B6B00FF
(1728486118.455377) vcan0 095#800007F400000026
(1728486118.458412) vcan0 166#D0320036
(1728486118.460045) vcan0 158#0000000000000037
(1728486118.460054) vcan0 161#000005500108003A
(1728486118.460057) vcan0 191#010090A1410021
(1728486118.460059) vcan0 039#0039
(1728486118.460061) vcan0 133#0000000089
(1728486118.460064) vcan0 136#000200000000000C
(1728486118.461996) vcan0 13A#000000000000000A
(1728486118.462003) vcan0 13F#0000000500000000
(1728486118.462011) vcan0 164#0000C01AA8000022
(1728486118.462013) vcan0 17C#0000000010000003
(1728486118.462015) vcan0 18E#00004D
(1728486118.462017) vcan0 1CF#80050000002D
(1728486118.462020) vcan0 1DC#0200002A
(1728486118.463036) vcan0 183#0000000E0000100D
(1728486118.464873) vcan0 143#6B6B00C2
(1728486118.465892) vcan0 095#800007F400000035
(1728486118.465898) vcan0 1A4#0000000800000001
(1728486118.466909) vcan0 1AA#7FFF000000006801
(1728486118.466915) vcan0 1B0#000F0000000148
(1728486118.466917) vcan0 1D0#000000000000000A
(1728486118.467015) vcan0 244#000000016E
(1728486118.467997) vcan0 166#D0320009
(1728486118.469016) vcan0 158#000000000000000A
(1728486118.470036) vcan0 161#000005500108000D
(1728486118.470042) vcan0 191#010090A1410030
(1728486118.470044) vcan0 133#0000000098
(1728486118.470047) vcan0 136#000200000000001B
(1728486118.471721) vcan0 13A#0000000000000019
(1728486118.471729) vcan0 13F#000000050000001F
(1728486118.471731) vcan0 164#0000C01AA8000031
(1728486118.471733) vcan0 17C#0000000010000012
(1728486118.471735) vcan0 18E#00005C
(1728486118.472749) vcan0 183#0000000A00001010
(1728486118.473766) vcan0 039#000C
(1728486118.473773) vcan0 143#6B6B00D1
(1728486118.473776) vcan0 305#8017
(1728486118.475803) vcan0 095#800007F400000008
(1728486118.477731) vcan0 244#00000001D6
(1728486118.477892) vcan0 166#D0320018
(1728486118.480477) vcan0 158#0000000000000019
(1728486118.480485) vcan0 161#000005500108001C
(1728486118.480487) vcan0 191#010090A1410003
(1728486118.480489) vcan0 133#00000000A7
(1728486118.480491) vcan0 136#000200000000002A
(1728486118.480493) vcan0 13A#0000000000000028
(1728486118.480497) vcan0 13F#000000050000002E
(1728486118.481507) vcan0 164#0000C01AA8000004
(1728486118.481513) vcan0 17C#0000000010000021
(1728486118.481515) vcan0 18E#00006B
(1728486118.481517) vcan0 1CF#80050000003C
(1728486118.481520) vcan0 1DC#02000039
(1728486118.483426) vcan0 183#0000000700001022
(1728486118.484079) vcan0 143#6B6B00E0
(1728486118.485339) vcan0 095#800007F400000017
(1728486118.487279) vcan0 1A4#0000000800000010
(1728486118.487285) vcan0 1AA#7FFF000000006810
(1728486118.487287) vcan0 1B0#000F0000000157
(1728486118.487290) vcan0 1D0#000000000000000A
(1728486118.489238) vcan0 244#0000000197
(1728486118.489247) vcan0 166#D0320027
(1728486118.489250) vcan0 158#0000000000000028
(1728486118.489252) vcan0 161#000005500108002B
(1728486118.490263) vcan0 191#010090A1410012
(1728486118.490272) vcan0 133#00000000B6
(1728486118.490274) vcan0 136#0002000000000039
(1728486118.490276) vcan0 039#001B
(1728486118.491289) vcan0 13A#0000000000000037
(1728486118.491298) vcan0 13F#000000050000003D
(1728486118.491300) vcan0 164#0000C01AA8000013
(1728486118.491302) vcan0 17C#0000000010000030
(1728486118.491305) vcan0 18E#00007A
(1728486118.492490) vcan0 294#040B0002CF5A000E
(1728486118.492501) vcan0 21E#03E83745220601
(1728486118.494132) vcan0 183#0000000D0000103B
(1728486118.494160) vcan0 143#6B6B00FF
(1728486118.495290) vcan0 095#800007F400000026
(1728486118.497966) vcan0 166#D0320036
(1728486118.499959) vcan0 158#0000000000000037
(1728486118.499969) vcan0 161#000005500108003A
(1728486118.499971) vcan0 191#010090A1410021
(1728486118.499974) vcan0 164#0000C01AA8000022
(1728486118.499976) vcan0 133#0000000089
(1728486118.500481) vcan0 244#0000000102
(1728486118.501067) vcan0 136#000200000000000C
(1728486118.501074) vcan0 13A#000000000000000A
(1728486118.501077) vcan0 13F#0000000500000000
(1728486118.501079) vcan0 17C#0000000010000003
(1728486118.501081) vcan0 18E#00004D
(1728486118.502869) vcan0 1CF#80050000000F
(1728486118.502877) vcan0 1DC#0200000C
(1728486118.502879) vcan0 183#0000000900001002
(1728486118.502881) vcan0 039#002A
(1728486118.504787) vcan0 143#6B6B00C2
(1728486118.504793) vcan0 333#0000000000001E
(1728486118.506857) vcan0 095#800007F400000035
(1728486118.506868) vcan0 1A4#000000080000002F
(1728486118.506871) vcan0 1AA#7FFF000000006720
(1728486118.506873) vcan0 1B0#000F0000000166
(1728486118.506877) vcan0 1D0#000000000000000A
(1728486118.509682) vcan0 166#D0320009
(1728486118.509690) vcan0 158#000000000000000A
(1728486118.509692) vcan0 161#000005500108000D
(1728486118.509694) vcan0 191#010090A1410030
(1728486118.510846) vcan0 133#0000000098
(1728486118.510859) vcan0 136#000200000000001B
(1728486118.510862) vcan0 13A#0000000000000019
(1728486118.510864) vcan0 13F#000000050000001F
(1728486118.510871) vcan0 164#0000C01AA8000031
(1728486118.511890) vcan0 17C#0000000010000012
(1728486118.511912) vcan0 18E#00005C
(1728486118.513617) vcan0 183#0000000600001014
(1728486118.513643) vcan0 143#6B6B00D1
(1728486118.515535) vcan0 095#800007F400000008
(1728486118.517460) vcan0 244#00000001EB
(1728486118.518512) vcan0 166#D0320018
(1728486118.520389) vcan0 158#0000000000000019
(1728486118.520408) vcan0 161#000005500108001C
(1728486118.520414) vcan0 191#010090A1410003
(1728486118.520419) vcan0 164#0000C01AA8000004
(1728486118.520426) vcan0 133#00000000A7
(1728486118.520431) vcan0 136#000200000000002A
(1728486118.520436) vcan0 13A#0000000000000028
(1728486118.522326) vcan0 13F#000000050000002E
(1728486118.522335) vcan0 17C#0000000010000021
(1728486118.522340) vcan0 18E#00006B
(1728486118.522345) vcan0 1CF#80050000001E
(1728486118.522350) vcan0 1DC#0200001B
(1728486118.522357) vcan0 320#000012
(1728486118.522362) vcan0 324#7465000000000E1A
(1728486118.522367) vcan0 37C#FD00FD00097F001A
(1728486118.522375) vcan0 039#0039
(1728486118.524282) vcan0 183#0000000C0000102D
(1728486118.524294) vcan0 143#6B6B00E0
(1728486118.525313) vcan0 095#800007F400000017
(1728486118.527071) vcan0 1A4#000000080000003E
(1728486118.527096) vcan0 1AA#7FFF00000000673F
(1728486118.527102) vcan0 1B0#000F0000000175
(1728486118.527108) vcan0 1D0#000000000000000A
(1728486118.528231) vcan0 166#D0320027
(1728486118.528440) vcan0 244#0000000194
(1728486118.529387) vcan0 158#0000000000000028
(1728486118.529407) vcan0 161#000005500108002B
(1728486118.531088) vcan0 191#010090A1410012
(1728486118.531109) vcan0 133#00000000B6
(1728486118.531114) vcan0 136#0002000000000039
(1728486118.531119) vcan0 13A#0000000000000037
(1728486118.531125) vcan0 13F#000000050000003D
(1728486118.531129) vcan0 164#0000C01AA9000012
(1728486118.531135) vcan0 17C#0000000010000030
(1728486118.531139) vcan0 18E#00007A
(1728486118.532255) vcan0 294#040B0002CF5A001D
(1728486118.532279) vcan0 21E#03E83745220610
(1728486118.533999) vcan0 183#000000090000103F
(1728486118.534035) vcan0 143#6B6B00FF
(1728486118.535100) vcan0 039#000C
(1728486118.535111) vcan0 095#800007F400000026
(1728486118.538068) vcan0 166#D0320036
(1728486118.539059) vcan0 244#000000010E
(1728486118.539096) vcan0 158#0000000000000037
(1728486118.540814) vcan0 161#000005500108003A
(1728486118.540838) vcan0 191#010090A1410021
(1728486118.540844) vcan0 164#0000C01AA9000021
(1728486118.540849) vcan0 133#0000000089
(1728486118.540856) vcan0 136#000200000000000C
(1728486118.540861) vcan0 13A#000000000000000A
(1728486118.540866) vcan0 13F#0000000500000000
(1728486118.540873) vcan0 17C#0000000010000003
(1728486118.542746) vcan0 18E#00004D
(1728486118.542767) vcan0 1CF#80050000002D
(1728486118.542774) vcan0 1DC#0200002A
(1728486118.542779) vcan0 183#0000000E0000100D
(1728486118.543808) vcan0 143#6B6B00C2
(1728486118.545695) vcan0 095#800007F400000035
(1728486118.547485) vcan0 1A4#0000000800000001
(1728486118.547540) vcan0 1AA#7FFF000000006801
(1728486118.547546) vcan0 1B0#000F0000000148
(1728486118.547578) vcan0 1D0#000000000000000A
(1728486118.548606) vcan0 166#D0320009
(1728486118.549709) vcan0 158#000000000000000A
(1728486118.549718) vcan0 161#000005500108000D
(1728486118.549723) vcan0 191#010090A1410030
(1728486118.549730) vcan0 039#001B
(1728486118.551504) vcan0 133#0000000098
(1728486118.551513) vcan0 136#000200000000001B
(1728486118.551518) vcan0 13A#0000000000000019
(1728486118.551523) vcan0 13F#000000050000001F
(1728486118.551529) vcan0 164#0000C01AA8000031
(1728486118.551534) vcan0 17C#0000000010000012
(1728486118.551540) vcan0 18E#00005C
(1728486118.551546) vcan0 309#00000000000000A2
(1728486118.553447) vcan0 183#0000000A00001010
(1728486118.553460) vcan0 143#6B6B00D1
(1728486118.554618) vcan0 244#000000019B
(1728486118.554628) vcan0 188#00000000
(1728486118.555657) vcan0 095#800007F400000008
(1728486118.558383) vcan0 166#D0320018
(1728486118.559441) vcan0 158#0000000000000019
(1728486118.559452) vcan0 161#000005500108001C
(1728486118.559457) vcan0 191#010090A1410003
(1728486118.560628) vcan0 133#00000000A7
(1728486118.560644) vcan0 136#000200000000002A
(1728486118.560647) vcan0 13A#0000000000000028
(1728486118.560651) vcan0 13F#000000050000002E
(1728486118.562229) vcan0 164#0000C01AA8000004
(1728486118.562239) vcan0 17C#0000000010000021
(1728486118.562242) vcan0 18E#00006B
(1728486118.562250) vcan0 1CF#80050000003C
(1728486118.562252) vcan0 1DC#02000039
(1728486118.562255) vcan0 183#0000000700001022
(1728486118.563344) vcan0 143#6B6B00E0
(1728486118.564889) vcan0 039#002A
(1728486118.565170) vcan0 244#000000018C
(1728486118.565913) vcan0 095#800007F400000017
(1728486118.565921) vcan0 1A4#0000000800000010
(1728486118.568055) vcan0 1AA#7FFF000000006810
(1728486118.568071) vcan0 1B0#000F0000000157
(1728486118.568074) vcan0 1D0#000000000000000A
(1728486118.568076) vcan0 166#D0320027
(1728486118.569095) vcan0 158#0000000000000028
(1728486118.570122) vcan0 161#000005500108002B
(1728486118.570131) vcan0 191#010090A1410012
(1728486118.570134) vcan0 133#00000000B6
(1728486118.570138) vcan0 136#0002000000000039
(1728486118.571936) vcan0 13A#0000000000000037
(1728486118.571944) vcan0 13F#000000050000003D
(1728486118.571947) vcan0 164#0000C01AA8000013
(1728486118.571949) vcan0 17C#0000000010000030
(1728486118.571951) vcan0 18E#00007A
(1728486118.571954) vcan0 294#040B0002CF5A002C
(1728486118.571957) vcan0 21E#03E8374522062F
(1728486118.573879) vcan0 183#0000000500001033
(1728486118.573906) vcan0 143#6B6B00FF
(1728486118.575840) vcan0 095#800007F400000026
(1728486118.578247) vcan0 166#D0320036
(1728486118.580725) vcan0 039#0039
(1728486118.580756) vcan0 158#0000000000000037
(1728486118.580763) vcan0 161#000005500108003A
(1728486118.580769) vcan0 191#010090A1410021
(1728486118.580774) vcan0 305#8026
(1728486118.580780) vcan0 133#0000000089
(1728486118.580786) vcan0 136#000200000000000C
(1728486118.580791) vcan0 13A#000000000000000A
(1728486118.580797) vcan0 13F#0000000500000000
(1728486118.580803) vcan0 164#0000C01AA8000022
(1728486118.582414) vcan0 17C#0000000010000003
(1728486118.582475) vcan0 18E#00004D
(1728486118.582481) vcan0 1CF#80050000000F
(1728486118.582487) vcan0 1DC#0200000C
(1728486118.582493) vcan0 183#0000000300001008
(1728486118.582630) vcan0 244#00000001B6
(1728486118.583682) vcan0 143#6B6B00C2
(1728486118.585553) vcan0 095#800007F400000035
(1728486118.587600) vcan0 1A4#000000080000002F
(1728486118.587619) vcan0 1AA#7FFF000000006720
(1728486118.587625) vcan0 1B0#000F0000000166
(1728486118.587653) vcan0 1D0#000000000000000A
(1728486118.589444) vcan0 166#D0320009
(1728486118.589459) vcan0 158#000000000000000A
(1728486118.589464) vcan0 161#000005500108000D
(1728486118.589469) vcan0 191#010090A1410030
(1728486118.590531) vcan0 133#0000000098
(1728486118.590542) vcan0 136#000200000000001B
(1728486118.590547) vcan0 13A#0000000000000019
(1728486118.590553) vcan0 13F#000000050000001F
(1728486118.592369) vcan0 164#0000C01AA8000031
(1728486118.592384) vcan0 17C#0000000010000012
(1728486118.592390) vcan0 18E#00005C
(1728486118.593534) vcan0 039#000C
(1728486118.593547) vcan0 183#0000000A00001010
(1728486118.593553) vcan0 143#6B6B00D1
(1728486118.595388) vcan0 095#800007F400000008
(1728486118.597275) vcan0 244#00000001CC
(1728486118.598261) vcan0 166#D0320018
(1728486118.599299) vcan0 158#0000000000000019
(1728486118.599327) vcan0 161#000005500108001C
(1728486118.601139) vcan0 191#010090A1410003
(1728486118.601149) vcan0 133#00000000A7
(1728486118.601151) vcan0 136#000200000000002A
(1728486118.601154) vcan0 13A#0000000000000028
(1728486118.601156) vcan0 13F#000000050000002E
(1728486118.601158) vcan0 164#0000C01AA8000004
(1728486118.601160) vcan0 17C#0000000010000021
(1728486118.601162) vcan0 18E#00006B
(1728486118.604047) vcan0 1CF#80050000001E
(1728486118.604058) vcan0 1DC#0200001B
(1728486118.604061) vcan0 183#0000000700001022
(1728486118.604063) vcan0 143#6B6B00E0
(1728486118.604065) vcan0 333#0000000000002D
(1728486118.605963) vcan0 095#800007F400000017
(1728486118.605973) vcan0 1A4#000000080000003E
(1728486118.606986) vcan0 1AA#7FFF00000000673F
(1728486118.606993) vcan0 1B0#000F0000000175
(1728486118.606995) vcan0 1D0#000000000000000A
(1728486118.606997) vcan0 039#001B
(1728486118.608560) vcan0 166#D0320027
(1728486118.609079) vcan0 244#000000010A
(1728486118.609594) vcan0 158#0000000000000028
(1728486118.609612) vcan0 161#000005500108002B
(1728486118.609620) vcan0 191#010090A1410012
(1728486118.610847) vcan0 133#00000000B6
(1728486118.610861) vcan0 136#0002000000000039
(1728486118.610866) vcan0 13A#0000000000000037
(1728486118.610872) vcan0 13F#000000050000003D
(1728486118.610877) vcan0 164#0000C01AA8000013
(1728486118.612782) vcan0 17C#0000000010000030
(1728486118.612797) vcan0 18E#00007A
(1728486118.612803) vcan0 294#040B0002CF5A003B
(1728486118.612808) vcan0 21E#03E8374522063E
(1728486118.612813) vcan0 183#0000000500001033
(1728486118.614706) vcan0 143#6B6B00FF
(1728486118.615727) vcan0 095#800007F400000026
(1728486118.619586) vcan0 166#D0320036
(1728486118.619602) vcan0 158#0000000000000037
(1728486118.619607) vcan0 161#000005500108003A
(1728486118.619612) vcan0 191#010010A1410029
(1728486118.620626) vcan0 133#0000000089
(1728486118.620636) vcan0 136#000200000000000C
(1728486118.620642) vcan0 13A#000000000000000A
(1728486118.620647) vcan0 13F#0000000500000000
(1728486118.622492) vcan0 164#0000C01AA8000022
(1728486118.622502) vcan0 17C#0000000010000003
(1728486118.622507) vcan0 18E#00004D
(1728486118.622512) vcan0 1CF#80050000002D
(1728486118.622517) vcan0 1DC#0200002A
(1728486118.622522) vcan0 320#000021
(1728486118.622527) vcan0 324#7465000000000E29
(1728486118.622534) vcan0 37C#FD00FD00097F0029
(1728486118.622539) vcan0 183#0000000B00001000
(1728486118.623589) vcan0 143#6B6B00C2
(1728486118.625564) vcan0 244#0000000115
(1728486118.625576) vcan0 095#800007F400000035
(1728486118.626598) vcan0 1A4#0000000800000001
(1728486118.626620) vcan0 1AA#7FFF000000006801
(1728486118.626628) vcan0 1B0#000F0000000148
(1728486118.626634) vcan0 1D0#000000000000000A
(1728486118.626642) vcan0 039#002A
(1728486118.628138) vcan0 166#D0320009
(1728486118.629368) vcan0 158#000000000000000A
(1728486118.629382) vcan0 161#000005500108000D
(1728486118.630412) vcan0 191#010010A1410038
(1728486118.630448) vcan0 133#0000000098
(1728486118.630454) vcan0 136#000200000000001B
(1728486118.630460) vcan0 13A#0000000000000019
(1728486118.630469) vcan0 13F#000000050000001F
(1728486118.632338) vcan0 164#0000C01AA8000031
(1728486118.632352) vcan0 17C#0000000010000012
(1728486118.632357) vcan0 18E#00005C
(1728486118.634269) vcan0 183#0000000800001012
(1728486118.634281) vcan0 143#6B6B00D1
(1728486118.635303) vcan0 095#800007F400000008
(1728486118.639136) vcan0 166#D0320018
(1728486118.639149) vcan0 158#0000000000000019
(1728486118.640160) vcan0 161#000005500108001C
(1728486118.640169) vcan0 191#010010A141000B
(1728486118.640171) vcan0 039#0039
(1728486118.640174) vcan0 133#00000000A7
(1728486118.640176) vcan0 136#000200000000002A
(1728486118.641094) vcan0 244#00000001ED
(1728486118.641193) vcan0 13A#0000000000000028
(1728486118.641197) vcan0 13F#000000050000002E
(1728486118.641199) vcan0 164#0000C01AA8000004
(1728486118.641201) vcan0 17C#0000000010000021
(1728486118.641204) vcan0 18E#00006B
(1728486118.642225) vcan0 1CF#80050000003C
(1728486118.642237) vcan0 1DC#02000039
(1728486118.642239) vcan0 183#0000000D0000102C
(1728486118.644123) vcan0 143#6B6B00E0
(1728486118.645147) vcan0 095#800007F400000017
(1728486118.646941) vcan0 1A4#0000000800000010
(1728486118.646949) vcan0 1AA#7FFF000000006810
(1728486118.646951) vcan0 1B0#000F0000000157
(1728486118.646954) vcan0 1D0#000000000000000A
(1728486118.648853) vcan0 166#D0320027
(1728486118.649869) vcan0 158#0000000000000028
(1728486118.649878) vcan0 161#000005500108002B
(1728486118.649881) vcan0 191#010010A141001A
(1728486118.649883) vcan0 133#00000000B6
(1728486118.651850) vcan0 136#0002000000000039
(1728486118.651865) vcan0 13A#0000000000000037
(1728486118.651867) vcan0 13F#000000050000003D
(1728486118.651870) vcan0 164#0000C01AA8000013
(1728486118.651873) vcan0 17C#0000000010000030
(1728486118.651875) vcan0 18E#00007A
(1728486118.651878) vcan0 294#040B0002CF5A000E
(1728486118.651881) vcan0 21E#03E83745220601
(1728486118.653740) vcan0 309#00000000000000B1
(1728486118.653757) vcan0 183#0000001100001036
(1728486118.653767) vcan0 143#6B6B00FF
(1728486118.655727) vcan0 039#000C
(1728486118.655751) vcan0 095#800007F400000026
(1728486118.658682) vcan0 244#00000001C6
(1728486118.658763) vcan0 166#D0320036
(1728486118.660687) vcan0 158#0000000000000037
(1728486118.660697) vcan0 161#000005500108003A
(1728486118.660699) vcan0 191#010010A1410029
(1728486118.660702) vcan0 164#0000C01AA8000022
(1728486118.660704) vcan0 133#0000000089
(1728486118.660706) vcan0 136#000200000000000C
(1728486118.660709) vcan0 13A#000000000000000A
(1728486118.660711) vcan0 13F#0000000500000000
(1728486118.662682) vcan0 17C#0000000010000003
(1728486118.662692) vcan0 18E#00004D
(1728486118.662695) vcan0 1CF#80050000000F
(1728486118.662703) vcan0 1DC#0200000C
(1728486118.662708) vcan0 183#0000000C0000100F
(1728486118.663797) vcan0 143#6B6B00C2
(1728486118.665493) vcan0 095#800007F400000035
(1728486118.667432) vcan0 1A4#000000080000002F
(1728486118.667438) vcan0 1AA#7FFF000000006720
(1728486118.667440) vcan0 1B0#000F0000000166
(1728486118.667443) vcan0 1D0#000000000000000A
(1728486118.668748) vcan0 166#D0320009
(1728486118.670171) vcan0 158#000000000000000A
(1728486118.670179) vcan0 161#000005500108000D
(1728486118.670181) vcan0 191#010010A1410038
(1728486118.670183) vcan0 039#001B
(1728486118.670186) vcan0 133#0000000098
(1728486118.670190) vcan0 136#000200000000001B
