(1728485892.503364) vcan0 158#0000000000000037
(1728485892.503373) vcan0 161#000005500108003A
(1728485892.503375) vcan0 191#010010A1410029
(1728485892.503377) vcan0 164#0000C01AA8000022
(1728485892.503382) vcan0 133#0000000089
(1728485892.505235) vcan0 136#000200000000000C
(1728485892.505245) vcan0 13A#000000000000000A
(1728485892.505247) vcan0 039#002A
(1728485892.505249) vcan0 13F#0000000500000000
(1728485892.505251) vcan0 17C#0000000010000003
(1728485892.505253) vcan0 18E#00004D
(1728485892.505257) vcan0 1CF#80050000000F
(1728485892.505259) vcan0 1DC#0200000C
(1728485892.505354) vcan0 244#0000000126
(1728485892.507346) vcan0 183#0000000D0000100E
(1728485892.507355) vcan0 143#6B6B00C2
(1728485892.508895) vcan0 095#800007F800000031
(1728485892.510842) vcan0 1A4#000000080000002F
(1728485892.510854) vcan0 1AA#7FFF00000000682F
(1728485892.510857) vcan0 1B0#000F0000000166
(1728485892.510862) vcan0 1D0#000000000000000A
(1728485892.512724) vcan0 166#D0320009
(1728485892.512732) vcan0 158#000000000000000A
(1728485892.512734) vcan0 161#000005500108000D
(1728485892.513770) vcan0 191#010010A1410038
(1728485892.513780) vcan0 133#0000000098
(1728485892.513784) vcan0 136#000200000000001B
(1728485892.513786) vcan0 13A#0000000000000019
(1728485892.514828) vcan0 13F#000000050000001F
(1728485892.514834) vcan0 164#0000C01AA8000031
(1728485892.514837) vcan0 17C#0000000010000012
(1728485892.514839) vcan0 18E#00005C
(1728485892.516618) vcan0 244#000000017F
(1728485892.516629) vcan0 183#0000000900001011
(1728485892.516634) vcan0 143#6B6B00D1
(1728485892.519486) vcan0 039#0039
(1728485892.519497) vcan0 095#800007F400000008
(1728485892.521218) vcan0 166#D0320018
(1728485892.522448) vcan0 158#0000000000000019
(1728485892.523544) vcan0 161#000005500108001C
(1728485892.523554) vcan0 191#010010A141000B
(1728485892.523557) vcan0 164#0000C01AA8000004
(1728485892.523559) vcan0 133#00000000A7
(1728485892.525360) vcan0 136#000200000000002A
(1728485892.525367) vcan0 13A#0000000000000028
(1728485892.525369) vcan0 13F#000000050000002E
(1728485892.525371) vcan0 17C#0000000010000021
(1728485892.525374) vcan0 18E#00006B
(1728485892.525376) vcan0 1CF#80050000001E
(1728485892.525378) vcan0 1DC#0200001B
(1728485892.527402) vcan0 244#00000001E5
(1728485892.527416) vcan0 183#0000000E0000102B
(1728485892.527420) vcan0 143#6B6B00E0
(1728485892.529250) vcan0 095#800007F400000017
(1728485892.531187) vcan0 1A4#000000080000003E
(1728485892.531195) vcan0 1AA#7FFF00000000673F
(1728485892.531197) vcan0 1B0#000F0000000175
(1728485892.531199) vcan0 1D0#000000000000000A
(1728485892.531201) vcan0 166#D0320027
(1728485892.533225) vcan0 158#0000000000000028
(1728485892.533238) vcan0 161#000005500108002B
(1728485892.533240) vcan0 039#000C
(1728485892.533242) vcan0 191#010010A141001A
(1728485892.533246) vcan0 133#00000000B6
(1728485892.534809) vcan0 136#0002000000000039
(1728485892.534821) vcan0 13A#0000000000000037
(1728485892.534823) vcan0 13F#000000050000003D
(1728485892.534825) vcan0 164#0000C01AA8000013
(1728485892.534828) vcan0 17C#0000000010000030
(1728485892.534830) vcan0 18E#00007A
(1728485892.536452) vcan0 294#040B0002CF5A003B
(1728485892.536474) vcan0 21E#03E8374522063E
(1728485892.536477) vcan0 183#0000000A0000103E
(1728485892.538016) vcan0 143#6B6B00FF
(1728485892.539106) vcan0 095#800007F400000026
(1728485892.539125) vcan0 244#00000001FA
(1728485892.542113) vcan0 166#D0320036
(1728485892.543934) vcan0 158#0000000000000037
(1728485892.543947) vcan0 161#000005500108003A
(1728485892.543950) vcan0 191#010010A1410029
(1728485892.543952) vcan0 164#0000C01AA8000022
(1728485892.543955) vcan0 133#0000000089
(1728485892.543957) vcan0 136#000200000000000C
(1728485892.543961) vcan0 13A#000000000000000A
(1728485892.545795) vcan0 13F#0000000500000000
(1728485892.545803) vcan0 17C#0000000010000003
(1728485892.545805) vcan0 18E#00004D
(1728485892.545807) vcan0 1CF#80050000002D
(1728485892.545809) vcan0 1DC#0200002A
(1728485892.545812) vcan0 183#0000000700001004
(1728485892.546835) vcan0 143#6B6B00C2
(1728485892.549686) vcan0 333#0000000000003C
(1728485892.549697) vcan0 095#800007F400000035
(1728485892.549699) vcan0 1A4#0000000800000001
(1728485892.549702) vcan0 1AA#7FFF000000006801
(1728485892.549704) vcan0 1B0#000F0000000148
(1728485892.552379) vcan0 1D0#000000000000000A
(1728485892.552393) vcan0 166#D0320009
(1728485892.552395) vcan0 039#001B
(1728485892.553676) vcan0 244#000000012B
(1728485892.553889) vcan0 158#000000000000000A
(1728485892.553906) vcan0 161#000005500108000D
(1728485892.553909) vcan0 191#010010A1410038
(1728485892.553911) vcan0 133#0000000098
(1728485892.553923) vcan0 136#000200000000001B
(1728485892.553925) vcan0 13A#0000000000000019
(1728485892.555603) vcan0 13F#000000050000001F
(1728485892.555618) vcan0 164#0000C01AA8000031
(1728485892.555620) vcan0 17C#0000000010000012
(1728485892.555623) vcan0 18E#00005C
(1728485892.557538) vcan0 183#0000000D0000101D
(1728485892.557549) vcan0 143#6B6B00D1
(1728485892.559418) vcan0 095#800007F800000004
(1728485892.561764) vcan0 166#D0320018
(1728485892.563288) vcan0 158#0000000000000019
(1728485892.563297) vcan0 161#000005500108001C
(1728485892.563299) vcan0 191#010010A141000B
(1728485892.563301) vcan0 164#0000C01AA8000004
(1728485892.565231) vcan0 133#00000000A7
(1728485892.565238) vcan0 136#000200000000002A
(1728485892.565240) vcan0 13A#0000000000000028
(1728485892.565243) vcan0 13F#000000050000002E
(1728485892.565245) vcan0 17C#0000000010000021
(1728485892.565247) vcan0 18E#00006B
(1728485892.565249) vcan0 1CF#80050000003C
(1728485892.565252) vcan0 1DC#02000039
(1728485892.565255) vcan0 320#000030
(1728485892.566263) vcan0 324#7465000000000E38
(1728485892.566269) vcan0 183#0000000900001020
(1728485892.566271) vcan0 37C#FD00FD00097F0038
(1728485892.566273) vcan0 039#002A
(1728485892.566275) vcan0 40C#0000000004000013
(1728485892.566285) vcan0 244#000000013B
(1728485892.567285) vcan0 454#23EF18
(1728485892.567291) vcan0 143#6B6B00E0
(1728485892.569323) vcan0 095#800007F800000013
(1728485892.569335) vcan0 1A4#0000000800000010
(1728485892.570416) vcan0 1AA#7FFF000000006810
(1728485892.570422) vcan0 1B0#000F0000000157
(1728485892.570424) vcan0 1D0#000000000000000A
(1728485892.572046) vcan0 166#D0320027
(1728485892.573063) vcan0 158#0000000000000028
(1728485892.573067) vcan0 161#000005500108002B
(1728485892.573070) vcan0 191#010010A141001A
(1728485892.574080) vcan0 133#00000000B6
(1728485892.574085) vcan0 136#0002000000000039
(1728485892.574087) vcan0 13A#0000000000000037
(1728485892.574089) vcan0 13F#000000050000003D
(1728485892.575107) vcan0 164#0000C01AA8000013
(1728485892.575112) vcan0 17C#0000000010000030
(1728485892.575114) vcan0 18E#00007A
(1728485892.575117) vcan0 294#040B0002CF5A000E
(1728485892.575119) vcan0 21E#03E83745220601
(1728485892.576131) vcan0 183#0000000600001032
(1728485892.577105) vcan0 244#000000011B
(1728485892.577175) vcan0 143#6B6B00FF
(1728485892.578855) vcan0 095#800007F800000022
(1728485892.578864) vcan0 039#0039
(1728485892.579872) vcan0 305#8008
(1728485892.581898) vcan0 166#D0320036
(1728485892.582774) vcan0 188#00000000
(1728485892.583019) vcan0 158#0000000000000037
(1728485892.583063) vcan0 161#000005500108003A
(1728485892.583065) vcan0 191#010010A1410029
(1728485892.584699) vcan0 164#0000C01AA8000022
(1728485892.584709) vcan0 133#0000000089
(1728485892.584711) vcan0 136#000200000000000C
(1728485892.584713) vcan0 13A#000000000000000A
(1728485892.584716) vcan0 13F#0000000500000000
(1728485892.584718) vcan0 17C#0000000010000003
(1728485892.584720) vcan0 18E#00004D
(1728485892.584723) vcan0 1CF#80050000000F
(1728485892.585744) vcan0 1DC#0200000C
(1728485892.585752) vcan0 183#0000000C0000100F
(1728485892.586773) vcan0 143#6B6B00C2
(1728485892.588542) vcan0 095#800007F800000031
(1728485892.589642) vcan0 244#0000000141
(1728485892.590152) vcan0 1A4#000000080000002F
(1728485892.590157) vcan0 1AA#7FFF00000000682F
(1728485892.590160) vcan0 1B0#000F0000000166
(1728485892.590162) vcan0 1D0#000000000000000A
(1728485892.591655) vcan0 166#D0320009
(1728485892.592672) vcan0 158#000000000000000A
(1728485892.592678) vcan0 161#000005500108000D
(1728485892.594597) vcan0 191#010010A1410038
(1728485892.594601) vcan0 164#0000C01AA8000031
(1728485892.594604) vcan0 133#0000000098
(1728485892.594606) vcan0 136#000200000000001B
(1728485892.594608) vcan0 039#000C
(1728485892.594610) vcan0 13A#0000000000000019
(1728485892.594612) vcan0 13F#000000050000001F
(1728485892.594614) vcan0 17C#0000000010000012
(1728485892.595634) vcan0 18E#00005C
(1728485892.595641) vcan0 309#0000000000000084
(1728485892.595644) vcan0 428#01040000521C2F
(1728485892.595647) vcan0 405#0000040000000029
(1728485892.596661) vcan0 183#0000000900001011
(1728485892.596669) vcan0 143#6B6B00D1
(1728485892.599458) vcan0 095#800007F800000004
(1728485892.600460) vcan0 244#000000015E
(1728485892.601611) vcan0 166#D0320018
(1728485892.602648) vcan0 158#0000000000000019
(1728485892.604329) vcan0 161#000005500108001C
(1728485892.604337) vcan0 191#010010A141000B
(1728485892.604343) vcan0 164#0000C01AA8000004
(1728485892.604345) vcan0 133#00000000A7
(1728485892.604348) vcan0 136#000200000000002A
(1728485892.604350) vcan0 13A#0000000000000028
(1728485892.604352) vcan0 13F#000000050000002E
(1728485892.604354) vcan0 17C#0000000010000021
(1728485892.605367) vcan0 18E#00006B
(1728485892.605373) vcan0 1CF#80050000001E
(1728485892.605377) vcan0 1DC#0200001B
(1728485892.607351) vcan0 183#0000000E0000102B
(1728485892.607358) vcan0 143#6B6B00E0
(1728485892.608784) vcan0 095#800007F800000013
(1728485892.608789) vcan0 039#001B
(1728485892.609834) vcan0 1A4#000000080000003E
(1728485892.609843) vcan0 1AA#7FFF00000000673F
(1728485892.609845) vcan0 1B0#000F0000000175
(1728485892.610862) vcan0 1D0#000000000000000A
(1728485892.611732) vcan0 244#000000012C
(1728485892.612318) vcan0 166#D0320027
(1728485892.614620) vcan0 158#0000000000000028
(1728485892.614625) vcan0 161#000005500108002B
(1728485892.614627) vcan0 191#010010A141001A
(1728485892.614630) vcan0 164#0000C01AA8000013
(1728485892.614632) vcan0 133#00000000B6
(1728485892.614634) vcan0 136#0002000000000039
(1728485892.614636) vcan0 13A#0000000000000037
(1728485892.614639) vcan0 13F#000000050000003D
(1728485892.614641) vcan0 17C#0000000010000030
(1728485892.614643) vcan0 18E#00007A
(1728485892.615656) vcan0 294#040B0002CF5A001D
(1728485892.615661) vcan0 21E#03E83745220610
(1728485892.618518) vcan0 183#0000000A0000103E
(1728485892.618526) vcan0 143#6B6B00FF
(1728485892.618528) vcan0 095#800007F400000026
(1728485892.622403) vcan0 166#D0320036
(1728485892.623362) vcan0 244#0000000116
(1728485892.623877) vcan0 158#0000000000000037
(1728485892.623887) vcan0 161#000005500108003A
(1728485892.623890) vcan0 039#002A
(1728485892.623893) vcan0 191#010010A1410029
(1728485892.623897) vcan0 164#0000C01AA8000022
(1728485892.623900) vcan0 133#0000000089
(1728485892.623902) vcan0 136#000200000000000C
(1728485892.625333) vcan0 13A#000000000000000A
(1728485892.625342) vcan0 13F#0000000500000000
(1728485892.625344) vcan0 17C#0000000010000003
(1728485892.625347) vcan0 18E#00004D
(1728485892.625349) vcan0 1CF#80050000002D
(1728485892.625351) vcan0 1DC#0200002A
(1728485892.626363) vcan0 183#0000000F0000100C
(1728485892.627384) vcan0 143#6B6B00C2
(1728485892.631147) vcan0 095#800007F400000035
(1728485892.631154) vcan0 1A4#0000000800000001
(1728485892.631156) vcan0 1AA#7FFF000000006801
(1728485892.631158) vcan0 1B0#000F0000000148
(1728485892.631161) vcan0 1D0#000000000000000A
(1728485892.632171) vcan0 166#D0320009
(1728485892.634099) vcan0 158#000000000000000A
(1728485892.634105) vcan0 161#000005500108000D
(1728485892.634107) vcan0 191#010010A1410038
(1728485892.634109) vcan0 164#0000C01AA8000031
(1728485892.634111) vcan0 133#0000000098
(1728485892.634113) vcan0 136#000200000000001B
(1728485892.634115) vcan0 13A#0000000000000019
(1728485892.634407) vcan0 244#00000001DD
(1728485892.635133) vcan0 13F#000000050000001F
(1728485892.635143) vcan0 17C#0000000010000012
(1728485892.635145) vcan0 18E#00005C
(1728485892.636160) vcan0 183#0000000B0000101F
(1728485892.637935) vcan0 143#6B6B00D1
(1728485892.637942) vcan0 039#0039
(1728485892.638954) vcan0 095#800007F400000008
(1728485892.641889) vcan0 166#D0320018
(1728485892.642908) vcan0 158#0000000000000019
(1728485892.642914) vcan0 161#000005500108001C
(1728485892.642916) vcan0 191#010010A141000B
(1728485892.643930) vcan0 164#0000C01AA8000004
(1728485892.643936) vcan0 133#00000000A7
(1728485892.643939) vcan0 136#000200000000002A
(1728485892.643941) vcan0 13A#0000000000000028
(1728485892.644953) vcan0 13F#000000050000002E
(1728485892.644960) vcan0 17C#0000000010000021
(1728485892.644962) vcan0 18E#00006B
(1728485892.644964) vcan0 1CF#80050000003C
(1728485892.644966) vcan0 1DC#02000039
(1728485892.645981) vcan0 183#0000000800001021
(1728485892.646998) vcan0 143#6B6B00E0
(1728485892.648661) vcan0 333#0000000000000F
(1728485892.648667) vcan0 095#800007F400000017
(1728485892.649682) vcan0 1A4#0000000800000010
(1728485892.649688) vcan0 1AA#7FFF000000006810
(1728485892.650656) vcan0 244#000000014C
(1728485892.651232) vcan0 1B0#000F0000000157
(1728485892.651250) vcan0 1D0#000000000000000A
(1728485892.651253) vcan0 166#D0320027
(1728485892.652581) vcan0 039#000C
(1728485892.652590) vcan0 158#0000000000000028
(1728485892.653607) vcan0 161#000005500108002B
(1728485892.653613) vcan0 191#010010A141001A
(1728485892.653621) vcan0 133#00000000B6
(1728485892.653623) vcan0 136#0002000000000039
(1728485892.654637) vcan0 13A#0000000000000037
(1728485892.654642) vcan0 13F#000000050000003D
(1728485892.654645) vcan0 164#0000C01AA8000013
(1728485892.654647) vcan0 17C#0000000010000030
(1728485892.654649) vcan0 18E#00007A
(1728485892.656463) vcan0 294#040B0002CF5A002C
(1728485892.656468) vcan0 21E#03E8374522062F
(1728485892.656470) vcan0 183#0000000600001032
(1728485892.657478) vcan0 143#6B6B00FF
(1728485892.660500) vcan0 095#800007F400000026
(1728485892.661517) vcan0 166#D0320036
(1728485892.661642) vcan0 244#000000018A
(1728485892.662533) vcan0 158#0000000000000037
(1728485892.663551) vcan0 161#000005500108003A
(1728485892.663558) vcan0 191#010010A1410029
(1728485892.663560) vcan0 164#0000C01AA8000022
(1728485892.663562) vcan0 133#0000000089
(1728485892.664575) vcan0 136#000200000000000C
(1728485892.664579) vcan0 13A#000000000000000A
(1728485892.664582) vcan0 13F#0000000500000000
(1728485892.664584) vcan0 17C#0000000010000003
(1728485892.664587) vcan0 18E#00004D
(1728485892.665602) vcan0 1CF#80050000000F
(1728485892.665606) vcan0 1DC#0200000C
(1728485892.665609) vcan0 320#000003
(1728485892.665611) vcan0 324#7465000000000E0B
(1728485892.665613) vcan0 183#0000000400001007
(1728485892.667261) vcan0 37C#FD00FD00097F000B
(1728485892.667270) vcan0 143#6B6B00C2
(1728485892.670190) vcan0 095#800007F400000035
(1728485892.670201) vcan0 1A4#000000080000002F
(1728485892.670203) vcan0 1AA#7FFF00000000682F
(1728485892.670205) vcan0 1B0#000F0000000166
(1728485892.670208) vcan0 1D0#000000000000000A
(1728485892.671217) vcan0 039#001B
(1728485892.671221) vcan0 166#D0320009
(1728485892.672346) vcan0 244#0000000169
(1728485892.673240) vcan0 158#000000000000000A
(1728485892.673247) vcan0 161#000005500108000D
(1728485892.673250) vcan0 191#010010A1410038
(1728485892.673252) vcan0 133#0000000098
(1728485892.675073) vcan0 136#000200000000001B
(1728485892.675083) vcan0 13A#0000000000000019
(1728485892.675085) vcan0 13F#000000050000001F
(1728485892.675088) vcan0 164#0000C01AA8000031
(1728485892.675090) vcan0 17C#0000000010000012
(1728485892.675092) vcan0 18E#00005C
(1728485892.677013) vcan0 183#0000000300001017
(1728485892.677020) vcan0 143#6B6B00D1
(1728485892.679048) vcan0 095#800007F400000008
(1728485892.682077) vcan0 166#D0320018
(1728485892.683831) vcan0 244#00000001FF
(1728485892.683853) vcan0 158#0000000000000019
(1728485892.683857) vcan0 161#000005500108001C
(1728485892.683859) vcan0 191#010010A141000B
(1728485892.683861) vcan0 164#0000C01AA8000004
(1728485892.683864) vcan0 133#00000000A7
(1728485892.683866) vcan0 136#000200000000002A
(1728485892.683868) vcan0 13A#0000000000000028
(1728485892.684913) vcan0 13F#000000050000002E
(1728485892.684927) vcan0 17C#0000000010000021
(1728485892.684929) vcan0 18E#00006B
(1728485892.684931) vcan0 1CF#80050000001E
(1728485892.684933) vcan0 039#002A
(1728485892.685953) vcan0 1DC#0200001B
(1728485892.685963) vcan0 183#0000000A0000102F
(1728485892.685965) vcan0 305#8017
(1728485892.686981) vcan0 143#6B6B00E0
(1728485892.688682) vcan0 095#800007F400000017
(1728485892.689698) vcan0 1A4#000000080000003E
(1728485892.689704) vcan0 1AA#7FFF00000000673F
(1728485892.690720) vcan0 1B0#000F0000000175
(1728485892.690726) vcan0 1D0#000000000000000A
(1728485892.692556) vcan0 166#D0320027
(1728485892.692562) vcan0 158#0000000000000028
(1728485892.693577) vcan0 161#000005500108002B
(1728485892.693584) vcan0 191#010010A141001A
(1728485892.693587) vcan0 164#0000C01AA8000013
(1728485892.693589) vcan0 133#00000000B6
(1728485892.694599) vcan0 136#0002000000000039
(1728485892.694605) vcan0 13A#0000000000000037
(1728485892.694608) vcan0 13F#000000050000003D
(1728485892.694610) vcan0 17C#0000000010000030
(1728485892.694612) vcan0 18E#00007A
(1728485892.696464) vcan0 294#040B0002CF5A003B
(1728485892.696471) vcan0 21E#03E8374522063E
(1728485892.696474) vcan0 309#0000000000000093
(1728485892.696476) vcan0 183#0000000700001031
(1728485892.697484) vcan0 143#6B6B00FF
(1728485892.699403) vcan0 244#00000001AF
(1728485892.699509) vcan0 095#800007F400000026
(1728485892.699514) vcan0 039#0039
(1728485892.701561) vcan0 166#D0320036
(1728485892.702588) vcan0 158#0000000000000037
(1728485892.704251) vcan0 161#000005500108003A
(1728485892.704258) vcan0 191#010010A1410029
(1728485892.704261) vcan0 164#0000C01AA8000022
(1728485892.704268) vcan0 133#0000000089
(1728485892.704270) vcan0 136#000200000000000C
(1728485892.704272) vcan0 13A#000000000000000A
(1728485892.704274) vcan0 13F#0000000500000000
(1728485892.705286) vcan0 17C#0000000010000003
(1728485892.705293) vcan0 18E#00004D
(1728485892.705295) vcan0 1CF#80050000002D
(1728485892.705297) vcan0 1DC#0200002A
(1728485892.706308) vcan0 183#0000000D0000100E
(1728485892.707324) vcan0 143#6B6B00C2
(1728485892.709532) vcan0 095#800007F400000035
(1728485892.709543) vcan0 1A4#0000000800000001
(1728485892.709545) vcan0 1AA#7FFF000000006801
(1728485892.710574) vcan0 1B0#000F0000000148
(1728485892.710585) vcan0 1D0#000000000000000A
(1728485892.711783) vcan0 166#D0320009
(1728485892.712895) vcan0 158#000000000000000A
(1728485892.712906) vcan0 161#000005500108000D
(1728485892.712908) vcan0 191#010010A1410038
(1728485892.714860) vcan0 244#0000000161
(1728485892.714875) vcan0 039#000C
(1728485892.714879) vcan0 133#0000000098
(1728485892.714881) vcan0 136#000200000000001B
(1728485892.714883) vcan0 13A#0000000000000019
(1728485892.714885) vcan0 13F#000000050000001F
(1728485892.714887) vcan0 164#0000C01AA8000031
(1728485892.714889) vcan0 17C#0000000010000012
(1728485892.714892) vcan0 18E#00005C
(1728485892.715909) vcan0 183#0000001100001018
(1728485892.716927) vcan0 143#6B6B00D1
(1728485892.718967) vcan0 095#800007F400000008
(1728485892.721642) vcan0 166#D0320018
(1728485892.722744) vcan0 158#0000000000000019
(1728485892.722751) vcan0 161#000005500108001C
(1728485892.723762) vcan0 191#010010A141000B
(1728485892.723767) vcan0 164#0000C01AA8000004
(1728485892.723770) vcan0 133#00000000A7
(1728485892.723772) vcan0 136#000200000000002A
(1728485892.724784) vcan0 13A#0000000000000028
(1728485892.724789) vcan0 13F#000000050000002E
(1728485892.724792) vcan0 17C#0000000010000021
(1728485892.724794) vcan0 18E#00006B
(1728485892.724796) vcan0 1CF#80050000003C
(1728485892.725806) vcan0 1DC#02000039
(1728485892.725812) vcan0 183#0000000C0000102D
(1728485892.727527) vcan0 039#001B
(1728485892.727538) vcan0 143#6B6B00E0
(1728485892.728583) vcan0 095#800007F400000017
(1728485892.730559) vcan0 244#00000001FC
(1728485892.730570) vcan0 1A4#0000000800000010
(1728485892.730573) vcan0 1AA#7FFF000000006810
(1728485892.730575) vcan0 1B0#000F0000000157
(1728485892.730577) vcan0 1D0#000000000000000A
(1728485892.731591) vcan0 166#D0320027
(1728485892.732608) vcan0 158#0000000000000028
(1728485892.734464) vcan0 161#000005500108002B
(1728485892.734473) vcan0 191#010010A141001A
(1728485892.734476) vcan0 164#0000C01AA8000013
(1728485892.734478) vcan0 133#00000000B6
(1728485892.734482) vcan0 136#0002000000000039
(1728485892.734484) vcan0 13A#0000000000000037
(1728485892.734486) vcan0 13F#000000050000003D
(1728485892.734488) vcan0 17C#0000000010000030
(1728485892.735503) vcan0 18E#00007A
(1728485892.735509) vcan0 294#040B0002CF5A000E
(1728485892.735511) vcan0 21E#03E83745220601
(1728485892.736531) vcan0 183#000000090000103F
(1728485892.737555) vcan0 143#6B6B00FF
(1728485892.738568) vcan0 095#800007F400000026
(1728485892.741234) vcan0 244#0000000108
(1728485892.741301) vcan0 039#002A
(1728485892.741306) vcan0 166#D0320036
(1728485892.743329) vcan0 158#0000000000000037
(1728485892.743338) vcan0 161#000005500108003A
(1728485892.743340) vcan0 191#010010A1410029
(1728485892.743342) vcan0 164#0000C01AA8000022
(1728485892.743345) vcan0 133#0000000089
(1728485892.744357) vcan0 136#000200000000000C
(1728485892.744362) vcan0 13A#000000000000000A
(1728485892.744364) vcan0 13F#0000000500000000
(1728485892.744366) vcan0 17C#0000000010000003
(1728485892.745374) vcan0 18E#00004D
(1728485892.745379) vcan0 1CF#80050000000F
(1728485892.745382) vcan0 1DC#0200000C
(1728485892.747136) vcan0 183#0000000600001005
(1728485892.747142) vcan0 143#6B6B00C2
(1728485892.749061) vcan0 333#0000000000001E
(1728485892.749071) vcan0 095#800007F400000035
(1728485892.750086) vcan0 1A4#000000080000002F
(1728485892.750092) vcan0 1AA#7FFF00000000682F
(1728485892.750094) vcan0 1B0#000F0000000166
(1728485892.750096) vcan0 1D0#000000000000000A
(1728485892.752001) vcan0 166#D0320009
(1728485892.752155) vcan0 244#00000001EA
(1728485892.753019) vcan0 158#000000000000000A
(1728485892.753035) vcan0 161#000005500108000D
(1728485892.753039) vcan0 191#010010A1410038
(1728485892.754058) vcan0 133#0000000098
(1728485892.754073) vcan0 136#000200000000001B
(1728485892.754076) vcan0 13A#0000000000000019
(1728485892.754079) vcan0 13F#000000050000001F
(1728485892.755854) vcan0 164#0000C01AA8000031
(1728485892.755862) vcan0 17C#0000000010000012
(1728485892.755864) vcan0 18E#00005C
(1728485892.755866) vcan0 039#0039
(1728485892.756879) vcan0 183#0000000C0000101E
(1728485892.756884) vcan0 143#6B6B00D1
(1728485892.759719) vcan0 095#800007F400000008
(1728485892.762081) vcan0 166#D0320018
(1728485892.763666) vcan0 158#0000000000000019
(1728485892.763674) vcan0 161#000005500108001C
(1728485892.763677) vcan0 191#010090A1410003
(1728485892.763679) vcan0 164#0000C01AA8000004
(1728485892.763681) vcan0 133#00000000A7
(1728485892.763683) vcan0 136#000200000000002A
(1728485892.765590) vcan0 13A#0000000000000028
(1728485892.765596) vcan0 13F#000000050000002E
(1728485892.765598) vcan0 17C#0000000010000021
(1728485892.765600) vcan0 18E#00006B
(1728485892.765602) vcan0 1CF#80050000001E
(1728485892.765604) vcan0 1DC#0200001B
(1728485892.765606) vcan0 320#000012
(1728485892.765608) vcan0 324#7465000000000E1A
(1728485892.765610) vcan0 37C#FD00FD00097F001A
(1728485892.766656) vcan0 183#0000001000001028
(1728485892.767678) vcan0 143#6B6B00E0
(1728485892.769466) vcan0 095#800007F400000017
(1728485892.769476) vcan0 1A4#000000080000003E
(1728485892.770631) vcan0 1AA#7FFF00000000673F
(1728485892.770640) vcan0 1B0#000F0000000175
(1728485892.770642) vcan0 1D0#000000000000000A
(1728485892.770654) vcan0 244#0000000119
(1728485892.772508) vcan0 166#D0320027
(1728485892.772519) vcan0 158#0000000000000028
(1728485892.774412) vcan0 161#000005500108002B
(1728485892.774421) vcan0 191#010090A1410012
(1728485892.774424) vcan0 133#00000000B6
(1728485892.774426) vcan0 136#0002000000000039
(1728485892.774428) vcan0 13A#0000000000000037
(1728485892.774430) vcan0 13F#000000050000003D
(1728485892.774432) vcan0 164#0000C01AA8000013
(1728485892.776303) vcan0 17C#0000000010000030
(1728485892.776310) vcan0 18E#00007A
(1728485892.776313) vcan0 294#040B0002CF5A001D
(1728485892.776315) vcan0 039#000C
(1728485892.776317) vcan0 21E#03E83745220610
(1728485892.776319) vcan0 183#0000000C0000103C
(1728485892.778245) vcan0 143#6B6B00FF
(1728485892.779321) vcan0 095#800007F400000026
(1728485892.781263) vcan0 166#D0320036
(1728485892.782291) vcan0 244#000000013B
(1728485892.784075) vcan0 158#0000000000000037
(1728485892.784087) vcan0 161#000005500108003A
(1728485892.784089) vcan0 191#010090A1410021
(1728485892.784091) vcan0 164#0000C01AA8000022
(1728485892.784093) vcan0 133#0000000089
(1728485892.784095) vcan0 136#000200000000000C
(1728485892.784097) vcan0 13A#000000000000000A
(1728485892.784099) vcan0 13F#0000000500000000
(1728485892.785288) vcan0 17C#0000000010000003
(1728485892.785296) vcan0 18E#00004D
(1728485892.785299) vcan0 1CF#80050000002D
(1728485892.785301) vcan0 1DC#0200002A
(1728485892.787115) vcan0 183#0000000900001002
(1728485892.787128) vcan0 143#6B6B00C2
(1728485892.788947) vcan0 305#8026
(1728485892.788957) vcan0 095#800007F400000035
(1728485892.790899) vcan0 1A4#0000000800000001
(1728485892.790909) vcan0 1AA#7FFF000000006801
(1728485892.790911) vcan0 1B0#000F0000000148
(1728485892.790913) vcan0 1D0#000000000000000A
(1728485892.792830) vcan0 166#D0320009
(1728485892.792837) vcan0 158#000000000000000A
(1728485892.792839) vcan0 161#000005500108000D
(1728485892.794866) vcan0 191#010090A1410030
(1728485892.794878) vcan0 164#0000C01AA8000031
(1728485892.794880) vcan0 133#0000000098
(1728485892.794882) vcan0 136#000200000000001B
(1728485892.794885) vcan0 13A#0000000000000019
(1728485892.794887) vcan0 13F#000000050000001F
(1728485892.794891) vcan0 17C#0000000010000012
(1728485892.794894) vcan0 18E#00005C
(1728485892.794897) vcan0 309#00000000000000A2
(1728485892.795777) vcan0 244#0000000188
(1728485892.796074) vcan0 039#001B
(1728485892.796079) vcan0 183#0000000600001014
(1728485892.797678) vcan0 143#6B6B00D1
(1728485892.799356) vcan0 095#800007F400000008
(1728485892.802588) vcan0 166#D0320018
(1728485892.802600) vcan0 158#0000000000000019
(1728485892.804536) vcan0 161#000005500108001C
(1728485892.804546) vcan0 191#010090A1410003
(1728485892.804548) vcan0 133#00000000A7
(1728485892.804550) vcan0 136#000200000000002A
(1728485892.804553) vcan0 13A#0000000000000028
(1728485892.804555) vcan0 13F#000000050000002E
(1728485892.804562) vcan0 164#0000C01AA8000004
(1728485892.804564) vcan0 17C#0000000010000021
(1728485892.806537) vcan0 18E#00006B
(1728485892.806549) vcan0 1CF#80050000003C
(1728485892.806552) vcan0 1DC#02000039
(1728485892.806555) vcan0 183#0000000C0000102D
(1728485892.808437) vcan0 244#00000001BD
(1728485892.808505) vcan0 143#6B6B00E0
(1728485892.810348) vcan0 095#800007F400000017
(1728485892.810357) vcan0 1A4#0000000800000010
(1728485892.810360) vcan0 1AA#7FFF000000006810
(1728485892.810362) vcan0 1B0#000F0000000157
(1728485892.810364) vcan0 039#002A
(1728485892.810366) vcan0 1D0#000000000000000A
(1728485892.813026) vcan0 166#D0320027
(1728485892.813034) vcan0 158#0000000000000028
(1728485892.813037) vcan0 161#000005500108002B
(1728485892.813039) vcan0 191#010090A1410012
(1728485892.815288) vcan0 133#00000000B6
(1728485892.815293) vcan0 136#0002000000000039
(1728485892.815295) vcan0 13A#0000000000000037
(1728485892.815298) vcan0 13F#000000050000003D
(1728485892.815301) vcan0 164#0000C01AA8000013
(1728485892.815303) vcan0 17C#0000000010000030
(1728485892.815305) vcan0 18E#00007A
(1728485892.815308) vcan0 294#040B0002CF5A002C
(1728485892.815311) vcan0 21E#03E8374522062F
(1728485892.816365) vcan0 183#0000001000001037
(1728485892.817555) vcan0 143#6B6B00FF
(1728485892.819193) vcan0 095#800007F400000026
(1728485892.821229) vcan0 244#00000001C7
(1728485892.822174) vcan0 166#D0320036
(1728485892.824073) vcan0 158#0000000000000037
(1728485892.824084) vcan0 161#000005500108003A
(1728485892.824087) vcan0 191#010090A1410021
(1728485892.824089) vcan0 164#0000C01AA8000022
(1728485892.824092) vcan0 133#0000000089
(1728485892.824094) vcan0 136#000200000000000C
(1728485892.824098) vcan0 13A#000000000000000A
(1728485892.825977) vcan0 13F#0000000500000000
(1728485892.825987) vcan0 17C#0000000010000003
(1728485892.825990) vcan0 18E#00004D
(1728485892.825992) vcan0 1CF#80050000000F
(1728485892.825994) vcan0 039#0039
(1728485892.825996) vcan0 1DC#0200000C
(1728485892.825998) vcan0 183#0000000C0000100F
(1728485892.827978) vcan0 143#6B6B00C2
(1728485892.829061) vcan0 095#800007F400000035
(1728485892.831049) vcan0 1A4#000000080000002F
(1728485892.831061) vcan0 1AA#7FFF00000000682F
(1728485892.831063) vcan0 1B0#000F0000000166
(1728485892.831067) vcan0 1D0#000000000000000A
(1728485892.832955) vcan0 166#D0320009
(1728485892.832964) vcan0 158#000000000000000A
(1728485892.832967) vcan0 161#000005500108000D
(1728485892.832969) vcan0 191#010090A1410030
(1728485892.833800) vcan0 244#000000011B
(1728485892.834370) vcan0 133#0000000098
(1728485892.834381) vcan0 136#000200000000001B
(1728485892.834384) vcan0 13A#0000000000000019
(1728485892.834386) vcan0 13F#000000050000001F
(1728485892.834388) vcan0 164#0000C01AA8000031
(1728485892.835811) vcan0 17C#0000000010000012
(1728485892.835826) vcan0 18E#00005C
(1728485892.837761) vcan0 183#0000001000001019
(1728485892.837768) vcan0 143#6B6B00D1
(1728485892.838783) vcan0 039#000C
(1728485892.838791) vcan0 095#800007F400000008
(1728485892.842617) vcan0 166#D0320018
(1728485892.842625) vcan0 158#0000000000000019
(1728485892.844498) vcan0 161#000005500108001C
(1728485892.844507) vcan0 191#010090A1410003
(1728485892.844509) vcan0 164#0000C01AA8000004
(1728485892.844512) vcan0 133#00000000A7
(1728485892.844514) vcan0 136#000200000000002A
(1728485892.844516) vcan0 13A#0000000000000028
(1728485892.844519) vcan0 13F#000000050000002E
(1728485892.844521) vcan0 17C#0000000010000021
(1728485892.846526) vcan0 18E#00006B
(1728485892.846536) vcan0 1CF#80050000001E
(1728485892.846539) vcan0 1DC#0200001B
(1728485892.846541) vcan0 183#0000000C0000102D
(1728485892.847439) vcan0 244#000000011A
(1728485892.847700) vcan0 143#6B6B00E0
(1728485892.847707) vcan0 333#0000000000002D
(1728485892.849308) vcan0 095#800007F400000017
(1728485892.849316) vcan0 1A4#000000080000003E
(1728485892.850405) vcan0 1AA#7FFF00000000673F
(1728485892.850418) vcan0 1B0#000F0000000175
(1728485892.850420) vcan0 1D0#000000000000000A
(1728485892.851905) vcan0 166#D0320027
(1728485892.853261) vcan0 158#0000000000000028
(1728485892.853269) vcan0 161#000005500108002B
(1728485892.853272) vcan0 191#010090A1410012
(1728485892.853274) vcan0 133#00000000B6
(1728485892.854682) vcan0 136#0002000000000039
(1728485892.854687) vcan0 13A#0000000000000037
(1728485892.854690) vcan0 13F#000000050000003D
(1728485892.854696) vcan0 164#0000C01AA8000013
(1728485892.854698) vcan0 17C#0000000010000030
(1728485892.854700) vcan0 18E#00007A
(1728485892.856132) vcan0 294#040B0002CF5A003B
(1728485892.856137) vcan0 21E#03E8374522063E
(1728485892.856139) vcan0 183#000000090000103F
(1728485892.858121) vcan0 143#6B6B00FF
(1728485892.859208) vcan0 039#001B
(1728485892.859216) vcan0 095#800007F400000026
(1728485892.860129) vcan0 244#0000000178
(1728485892.862358) vcan0 166#D0320036
(1728485892.863985) vcan0 158#0000000000000037
(1728485892.863992) vcan0 161#000005500108003A
(1728485892.863994) vcan0 191#010090A1410021
(1728485892.863997) vcan0 164#0000C01AA8000022
(1728485892.863999) vcan0 133#0000000089
(1728485892.864001) vcan0 136#000200000000000C
(1728485892.864003) vcan0 13A#000000000000000A
(1728485892.866031) vcan0 13F#0000000500000000
(1728485892.866039) vcan0 17C#0000000010000003
(1728485892.866041) vcan0 18E#00004D
(1728485892.866043) vcan0 1CF#80050000002D
(1728485892.866046) vcan0 1DC#0200002A
(1728485892.866048) vcan0 320#000021
(1728485892.866050) vcan0 324#7465000000000E29
(1728485892.866052) vcan0 183#0000000E0000100D
(1728485892.866055) vcan0 37C#FD00FD00097F0029
(1728485892.867913) vcan0 40C#014A484D46413325
(1728485892.867925) vcan0 454#23EF27
(1728485892.867927) vcan0 143#6B6B00C2
(1728485892.869785) vcan0 095#800007F400000035
(1728485892.869796) vcan0 1A4#0000000800000001
(1728485892.869798) vcan0 1AA#7FFF000000006801
(1728485892.869800) vcan0 1B0#000F0000000148
(1728485892.870865) vcan0 1D0#000000000000000A
(1728485892.871082) vcan0 244#000000015F
(1728485892.872740) vcan0 166#D0320009
(1728485892.872747) vcan0 158#000000000000000A
(1728485892.872750) vcan0 161#000005500108000D
(1728485892.874684) vcan0 191#010090A1410030
(1728485892.874691) vcan0 133#0000000098
(1728485892.874694) vcan0 136#000200000000001B
(1728485892.874696) vcan0 13A#0000000000000019
(1728485892.874698) vcan0 13F#000000050000001F
(1728485892.874701) vcan0 164#0000C01AA8000031
(1728485892.874703) vcan0 17C#0000000010000012
(1728485892.874705) vcan0 18E#00005C
(1728485892.876685) vcan0 183#0000000A00001010
(1728485892.876698) vcan0 143#6B6B00D1
(1728485892.878570) vcan0 095#800007F400000008
(1728485892.879678) vcan0 039#002A
(1728485892.881558) vcan0 166#D0320018
(1728485892.883401) vcan0 158#0000000000000019
(1728485892.883409) vcan0 161#000005500108001C
(1728485892.883413) vcan0 191#010090A1410003
(1728485892.883415) vcan0 164#0000C01AA8000004
(1728485892.883417) vcan0 133#00000000A7
(1728485892.885130) vcan0 136#000200000000002A
(1728485892.885141) vcan0 13A#0000000000000028
(1728485892.885144) vcan0 13F#000000050000002E
(1728485892.885146) vcan0 17C#0000000010000021
(1728485892.885149) vcan0 18E#00006B
(1728485892.885152) vcan0 1CF#80050000003C
(1728485892.885154) vcan0 1DC#02000039
(1728485892.886385) vcan0 183#0000000700001022
(1728485892.886832) vcan0 244#00000001EF
(1728485892.887587) vcan0 143#6B6B00E0
(1728485892.889261) vcan0 095#800007F400000017
(1728485892.889268) vcan0 1A4#0000000800000010
(1728485892.890351) vcan0 1AA#7FFF000000006810
(1728485892.890362) vcan0 1B0#000F0000000157
(1728485892.890364) vcan0 1D0#000000000000000A
(1728485892.892188) vcan0 166#D0320027
(1728485892.892195) vcan0 039#0039
(1728485892.894095) vcan0 158#0000000000000028
(1728485892.894103) vcan0 161#000005500108002B
(1728485892.894105) vcan0 191#010090A1410012
(1728485892.894108) vcan0 305#8035
(1728485892.894110) vcan0 164#0000C01AA8000013
(1728485892.894112) vcan0 133#00000000B6
(1728485892.894114) vcan0 136#0002000000000039
(1728485892.894117) vcan0 13A#0000000000000037
(1728485892.896083) vcan0 13F#000000050000003D
(1728485892.896089) vcan0 17C#0000000010000030
(1728485892.896091) vcan0 18E#00007A
(1728485892.896094) vcan0 294#040B0002CF5A000E
(1728485892.896096) vcan0 21E#03E83745220601
(1728485892.896098) vcan0 309#00000000000000B1
(1728485892.896100) vcan0 428#01040000521C3E
(1728485892.896102) vcan0 405#0000040000000038
(1728485892.897137) vcan0 183#0000000D0000103B
(1728485892.897149) vcan0 143#6B6B00FF
(1728485892.897430) vcan0 244#00000001BA
(1728485892.899005) vcan0 095#800007F400000026
(1728485892.902063) vcan0 166#D0320036
(1728485892.903884) vcan0 158#0000000000000037
(1728485892.903893) vcan0 161#000005500108003A
(1728485892.903895) vcan0 191#010090A1410021
(1728485892.903897) vcan0 164#0000C01AA8000022
(1728485892.903905) vcan0 133#0000000089
(1728485892.903907) vcan0 136#000200000000000C
(1728485892.903911) vcan0 13A#000000000000000A
(1728485892.905806) vcan0 13F#0000000500000000
(1728485892.905812) vcan0 17C#0000000010000003
(1728485892.905814) vcan0 18E#00004D
(1728485892.905816) vcan0 1CF#80050000000F
(1728485892.905818) vcan0 1DC#0200000C
(1728485892.905820) vcan0 183#0000000900001002
(1728485892.906845) vcan0 039#000C
(1728485892.906851) vcan0 143#6B6B00C2
(1728485892.909710) vcan0 095#800007F400000035
(1728485892.909718) vcan0 1A4#000000080000002F
(1728485892.909720) vcan0 1AA#7FFF00000000682F
(1728485892.909723) vcan0 1B0#000F0000000166
(1728485892.911661) vcan0 1D0#000000000000000A
(1728485892.911668) vcan0 166#D0320009
(1728485892.913619) vcan0 244#00000001FA
(1728485892.913687) vcan0 158#000000000000000A
(1728485892.913696) vcan0 161#000005500108000D
(1728485892.913698) vcan0 191#010090A1410030
(1728485892.913700) vcan0 18E#00005C
(1728485892.913703) vcan0 133#0000000098
(1728485892.913705) vcan0 136#000200000000001B
(1728485892.914746) vcan0 13A#0000000000000019
(1728485892.914756) vcan0 13F#000000050000001F
(1728485892.914758) vcan0 164#0000C01AA8000031
(1728485892.914760) vcan0 17C#0000000010000012
(1728485892.916596) vcan0 183#0000000E0000101C
(1728485892.917626) vcan0 143#6B6B00D1
(1728485892.918687) vcan0 095#800007F400000008
(1728485892.921508) vcan0 039#001B
(1728485892.921518) vcan0 166#D0320018
(1728485892.922654) vcan0 158#0000000000000019
(1728485892.922714) vcan0 161#000005500108001C
(1728485892.923917) vcan0 191#010090A1410003
(1728485892.923924) vcan0 164#0000C01AA8000004
(1728485892.923926) vcan0 133#00000000A7
(1728485892.923928) vcan0 136#000200000000002A
(1728485892.923930) vcan0 13A#0000000000000028
(1728485892.925000) vcan0 13F#000000050000002E
(1728485892.925007) vcan0 17C#0000000010000021
(1728485892.925010) vcan0 18E#00006B
(1728485892.925012) vcan0 1CF#80050000001E
(1728485892.925014) vcan0 1DC#0200001B
(1728485892.926224) vcan0 183#0000000A0000102F
(1728485892.928169) vcan0 143#6B6B00E0
(1728485892.929173) vcan0 244#0000000171
(1728485892.929242) vcan0 095#800007F400000017
(1728485892.930265) vcan0 1A4#000000080000003E
(1728485892.930272) vcan0 1AA#7FFF00000000673F
(1728485892.930274) vcan0 1B0#000F0000000175
(1728485892.930276) vcan0 1D0#000000000000000A
(1728485892.932068) vcan0 166#D0320027
(1728485892.933080) vcan0 158#0000000000000028
(1728485892.933085) vcan0 161#000005500108002B
(1728485892.933087) vcan0 191#010090A1410012
(1728485892.934991) vcan0 164#0000C01AA8000013
(1728485892.935001) vcan0 133#00000000B6
(1728485892.935003) vcan0 136#0002000000000039
(1728485892.935005) vcan0 13A#0000000000000037
(1728485892.935007) vcan0 13F#000000050000003D
(1728485892.935010) vcan0 17C#0000000010000030
(1728485892.935012) vcan0 18E#00007A
(1728485892.935014) vcan0 294#040B0002CF5A001D
(1728485892.936034) vcan0 21E#03E83745220610
(1728485892.936040) vcan0 039#002A
(1728485892.936043) vcan0 183#0000000F00001039
(1728485892.937100) vcan0 143#6B6B00FF
(1728485892.939201) vcan0 095#800007F400000026
(1728485892.940003) vcan0 244#0000000150
(1728485892.941798) vcan0 166#D0320036
(1728485892.942821) vcan0 158#0000000000000037
(1728485892.942826) vcan0 161#000005500108003A
(1728485892.944673) vcan0 191#010090A1410021
(1728485892.944677) vcan0 164#0000C01AA8000022
(1728485892.944679) vcan0 133#0000000089
(1728485892.944683) vcan0 136#000200000000000C
(1728485892.944685) vcan0 13A#000000000000000A
(1728485892.944687) vcan0 13F#0000000500000000
(1728485892.944689) vcan0 17C#0000000010000003
(1728485892.944692) vcan0 18E#00004D
(1728485892.944694) vcan0 1CF#80050000002D
(1728485892.945713) vcan0 1DC#0200002A
(1728485892.945718) vcan0 183#0000001300001007
(1728485892.946732) vcan0 143#6B6B00C2
(1728485892.947775) vcan0 333#0000000000003C
(1728485892.948787) vcan0 095#800007F400000035
(1728485892.949802) vcan0 1A4#0000000800000001
(1728485892.949807) vcan0 1AA#7FFF000000006801
(1728485892.949809) vcan0 1B0#000F0000000148
(1728485892.950826) vcan0 1D0#000000000000000A
(1728485892.952474) vcan0 166#D0320009
(1728485892.952483) vcan0 158#000000000000000A
(1728485892.953494) vcan0 161#000005500108000D
(1728485892.953499) vcan0 191#010090A1410030
(1728485892.953501) vcan0 133#0000000098
(1728485892.953503) vcan0 136#000200000000001B
(1728485892.954516) vcan0 13A#0000000000000019
(1728485892.954520) vcan0 13F#000000050000001F
(1728485892.954523) vcan0 039#0039
(1728485892.954525) vcan0 164#0000C01AA8000031
(1728485892.956375) vcan0 244#0000000142
(1728485892.956387) vcan0 17C#0000000010000012
(1728485892.956391) vcan0 18E#00005C
(1728485892.956393) vcan0 183#0000000E0000101C
(1728485892.957410) vcan0 143#6B6B00D1
(1728485892.959280) vcan0 095#800007F400000008
(1728485892.961385) vcan0 166#D0320018
(1728485892.963445) vcan0 158#0000000000000019
(1728485892.963455) vcan0 161#000005500108001C
(1728485892.963458) vcan0 191#010090A1410003
(1728485892.963460) vcan0 164#0000C01AA8000004
(1728485892.963462) vcan0 133#00000000A7
(1728485892.964612) vcan0 136#000200000000002A
(1728485892.964621) vcan0 13A#0000000000000028
(1728485892.964623) vcan0 13F#000000050000002E
(1728485892.964625) vcan0 17C#0000000010000021
(1728485892.964627) vcan0 18E#00006B
(1728485892.966085) vcan0 1CF#80050000003C
(1728485892.966092) vcan0 1DC#02000039
(1728485892.966094) vcan0 320#000030
(1728485892.966096) vcan0 324#7465000000000E38
(1728485892.966099) vcan0 37C#FD00FD00097F0038
(1728485892.966101) vcan0 183#0000000A0000102F
(1728485892.967158) vcan0 244#00000001C8
(1728485892.967173) vcan0 143#6B6B00E0
(1728485892.970018) vcan0 095#800007F400000017
(1728485892.970031) vcan0 1A4#0000000800000010
(1728485892.970034) vcan0 1AA#7FFF000000006810
(1728485892.970036) vcan0 1B0#000F0000000157
(1728485892.970038) vcan0 1D0#000000000000000A
(1728485892.972090) vcan0 166#D0320027
(1728485892.973926) vcan0 158#0000000000000028
(1728485892.973932) vcan0 161#000005500108002B
(1728485892.973934) vcan0 039#000C
(1728485892.973936) vcan0 191#010090A1410012
(1728485892.973939) vcan0 133#00000000B6
(1728485892.973941) vcan0 136#0002000000000039
(1728485892.973943) vcan0 13A#0000000000000037
(1728485892.975868) vcan0 13F#000000050000003D
(1728485892.975873) vcan0 164#0000C01AA8000013
(1728485892.975875) vcan0 17C#0000000010000030
(1728485892.975877) vcan0 18E#00007A
(1728485892.975879) vcan0 294#040B0002CF5A002C
(1728485892.975881) vcan0 21E#03E8374522062F
(1728485892.977770) vcan0 183#0000000700001031
(1728485892.977778) vcan0 143#6B6B00FF
(1728485892.978020) vcan0 244#0000000188
(1728485892.979750) vcan0 095#800007F400000026
(1728485892.981690) vcan0 166#D0320036
(1728485892.983721) vcan0 158#0000000000000037
(1728485892.983728) vcan0 161#000005500108003A
(1728485892.983730) vcan0 191#010090A1410021
(1728485892.983733) vcan0 164#0000C01AA8000022
(1728485892.983735) vcan0 133#0000000089
(1728485892.983737) vcan0 136#000200000000000C
(1728485892.985563) vcan0 13A#000000000000000A
(1728485892.985571) vcan0 13F#0000000500000000
(1728485892.985573) vcan0 17C#0000000010000003
(1728485892.985575) vcan0 18E#00004D
(1728485892.985578) vcan0 1CF#80050000000F
(1728485892.985580) vcan0 1DC#0200000C
(1728485892.985582) vcan0 183#0000000500001006
(1728485892.986741) vcan0 143#6B6B00C2
(1728485892.989630) vcan0 244#0000000120
(1728485892.989662) vcan0 095#800007F400000035
(1728485892.989668) vcan0 039#001B
(1728485892.989673) vcan0 1A4#000000080000002F
(1728485892.989675) vcan0 1AA#7FFF000000006720
(1728485892.989677) vcan0 1B0#000F0000000166
(1728485892.991415) vcan0 1D0#000000000000000A
(1728485892.991424) vcan0 166#D0320009
(1728485892.992434) vcan0 158#000000000000000A
(1728485892.994327) vcan0 161#000005500108000D
(1728485892.994334) vcan0 191#010090A1410030
(1728485892.994336) vcan0 164#0000C01AA9000030
(1728485892.994339) vcan0 133#0000000098
(1728485892.994341) vcan0 136#000200000000001B
(1728485892.994343) vcan0 13A#0000000000000019
(1728485892.994345) vcan0 13F#000000050000001F
(1728485892.996334) vcan0 17C#0000000010000012
(1728485892.996340) vcan0 18E#00005C
(1728485892.996342) vcan0 309#0000000000000084
(1728485892.996344) vcan0 305#8008
(1728485892.996346) vcan0 183#0000000B0000101F
(1728485892.997355) vcan0 143#6B6B00D1
(1728485892.999379) vcan0 095#800007F400000008
(1728485893.000400) vcan0 244#00000001C4
(1728485893.001417) vcan0 166#D0320018
(1728485893.002447) vcan0 158#0000000000000019
(1728485893.004053) vcan0 161#000005500108001C
(1728485893.004060) vcan0 191#010090A1410003
(1728485893.004063) vcan0 133#00000000A7
(1728485893.004065) vcan0 136#000200000000002A
(1728485893.004067) vcan0 13A#0000000000000028
(1728485893.004069) vcan0 039#002A
(1728485893.004072) vcan0 13F#000000050000002E
(1728485893.005093) vcan0 164#0000C01AA8000004
(1728485893.005100) vcan0 17C#0000000010000021
(1728485893.005103) vcan0 18E#00006B
(1728485893.005105) vcan0 1CF#80050000001E
(1728485893.005107) vcan0 1DC#0200001B
(1728485893.006969) vcan0 183#0000000800001021
(1728485893.006977) vcan0 143#6B6B00E0
(1728485893.008919) vcan0 095#800007F400000017
(1728485893.009940) vcan0 1A4#000000080000003E
(1728485893.009948) vcan0 1AA#7FFF00000000673F
(1728485893.009950) vcan0 1B0#000F0000000175
(1728485893.010966) vcan0 1D0#000000000000000A
(1728485893.011955) vcan0 244#00000001D1
(1728485893.012493) vcan0 166#D0320027
(1728485893.012500) vcan0 158#0000000000000028
(1728485893.013788) vcan0 161#000005500108002B
(1728485893.013796) vcan0 191#010090A1410012
(1728485893.013798) vcan0 133#00000000B6
(1728485893.013800) vcan0 136#0002000000000039
(1728485893.013802) vcan0 13A#0000000000000037
(1728485893.014819) vcan0 13F#000000050000003D
(1728485893.014827) vcan0 164#0000C01AA8000013
(1728485893.014829) vcan0 17C#0000000010000030
(1728485893.014832) vcan0 18E#00007A
(1728485893.014834) vcan0 294#040B0002CF5A003B
(1728485893.017641) vcan0 21E#03E8374522063E
(1728485893.017647) vcan0 183#0000000D0000103B
(1728485893.017649) vcan0 143#6B6B00FF
(1728485893.018661) vcan0 095#800007F400000026
(1728485893.021707) vcan0 166#D0320036
(1728485893.022731) vcan0 158#0000000000000037
(1728485893.022737) vcan0 161#000005500108003A
(1728485893.023554) vcan0 244#0000000152
(1728485893.023930) vcan0 191#010090A1410021
(1728485893.023938) vcan0 164#0000C01AA8000022
(1728485893.023940) vcan0 133#0000000089
(1728485893.023943) vcan0 136#000200000000000C
(1728485893.023945) vcan0 13A#000000000000000A
(1728485893.025493) vcan0 13F#0000000500000000
(1728485893.025500) vcan0 17C#0000000010000003
(1728485893.025502) vcan0 18E#00004D
(1728485893.025505) vcan0 1CF#80050000002D
(1728485893.025507) vcan0 039#0039
(1728485893.025509) vcan0 1DC#0200002A
(1728485893.025511) vcan0 183#0000000900001002
(1728485893.028505) vcan0 143#6B6B00C2
(1728485893.031123) vcan0 095#800007F400000035
(1728485893.031137) vcan0 1A4#0000000800000001
(1728485893.031139) vcan0 1AA#7FFF000000006801
(1728485893.031141) vcan0 1B0#000F0000000148
(1728485893.031144) vcan0 1D0#000000000000000A
(1728485893.032390) vcan0 166#D0320009
(1728485893.034275) vcan0 158#000000000000000A
(1728485893.034285) vcan0 161#000005500108000D
(1728485893.034288) vcan0 191#010090A1410030
(1728485893.034290) vcan0 164#0000C01AA8000031
(1728485893.034292) vcan0 133#0000000098
(1728485893.034294) vcan0 136#000200000000001B
(1728485893.034296) vcan0 13A#0000000000000019
(1728485893.034298) vcan0 13F#000000050000001F
(1728485893.036220) vcan0 17C#0000000010000012
(1728485893.036227) vcan0 18E#00005C
(1728485893.036230) vcan0 183#0000000600001014
(1728485893.036632) vcan0 244#000000013D
(1728485893.037255) vcan0 143#6B6B00D1
(1728485893.037272) vcan0 039#000C
(1728485893.039293) vcan0 095#800007F400000008
(1728485893.041321) vcan0 166#D0320018
(1728485893.044099) vcan0 158#0000000000000019
(1728485893.044107) vcan0 161#000005500108001C
(1728485893.044109) vcan0 191#010090A1410003
(1728485893.044112) vcan0 164#0000C01AA8000004
(1728485893.044114) vcan0 133#00000000A7
(1728485893.044117) vcan0 136#000200000000002A
(1728485893.044119) vcan0 13A#0000000000000028
(1728485893.045174) vcan0 13F#000000050000002E
(1728485893.045187) vcan0 17C#0000000010000021
(1728485893.045190) vcan0 18E#00006B
(1728485893.045192) vcan0 1CF#80050000003C
(1728485893.045194) vcan0 1DC#02000039
(1728485893.046974) vcan0 183#0000000C0000102D
(1728485893.047006) vcan0 143#6B6B00E0
(1728485893.047982) vcan0 244#00000001BA
(1728485893.048159) vcan0 333#0000000000000F
(1728485893.049906) vcan0 095#800007F400000017
(1728485893.049916) vcan0 1A4#0000000800000010
(1728485893.049919) vcan0 1AA#7FFF000000006810
(1728485893.049921) vcan0 1B0#000F0000000157
(1728485893.051007) vcan0 1D0#000000000000000A
(1728485893.051016) vcan0 039#001B
(1728485893.052833) vcan0 166#D0320027
(1728485893.052845) vcan0 158#0000000000000028
(1728485893.052847) vcan0 161#000005500108002B
(1728485893.054747) vcan0 191#010090A1410012
(1728485893.054758) vcan0 133#00000000B6
(1728485893.054760) vcan0 136#0002000000000039
(1728485893.054762) vcan0 13A#0000000000000037
(1728485893.054765) vcan0 13F#000000050000003D
(1728485893.054772) vcan0 164#0000C01AA8000013
(1728485893.054774) vcan0 17C#0000000010000030
(1728485893.054777) vcan0 18E#00007A
(1728485893.056796) vcan0 294#040B0002CF5A000E
(1728485893.056808) vcan0 21E#03E83745220601
(1728485893.056811) vcan0 183#000000090000103F
(1728485893.056813) vcan0 143#6B6B00FF
(1728485893.059654) vcan0 095#800007F400000026
(1728485893.061540) vcan0 166#D0320036
(1728485893.061679) vcan0 244#00000001F8
(1728485893.062621) vcan0 158#0000000000000037
(1728485893.063671) vcan0 161#000005500108003A
(1728485893.063680) vcan0 191#010010A1410029
(1728485893.063682) vcan0 164#0000C01AA8000022
(1728485893.063685) vcan0 133#0000000089
(1728485893.063687) vcan0 136#000200000000000C
(1728485893.064753) vcan0 13A#000000000000000A
(1728485893.064761) vcan0 13F#0000000500000000
(1728485893.064763) vcan0 17C#0000000010000003
(1728485893.064766) vcan0 18E#00004D
(1728485893.064768) vcan0 1CF#80050000000F
(1728485893.066533) vcan0 1DC#0200000C
(1728485893.066541) vcan0 320#000003
(1728485893.066543) vcan0 324#7465000000000E0B
(1728485893.066545) vcan0 183#0000000600001005
(1728485893.066548) vcan0 37C#FD00FD00097F000B
(1728485893.066550) vcan0 039#002A
(1728485893.067592) vcan0 143#6B6B00C2
(1728485893.069445) vcan0 095#800007F400000035
(1728485893.069456) vcan0 1A4#000000080000002F
(1728485893.069458) vcan0 1AA#7FFF000000006720
(1728485893.071391) vcan0 1B0#000F0000000166
(1728485893.071402) vcan0 1D0#000000000000000A
(1728485893.071404) vcan0 166#D0320009
(1728485893.072394) vcan0 244#00000001C3
(1728485893.072569) vcan0 158#000000000000000A
(1728485893.074278) vcan0 161#000005500108000D
(1728485893.074287) vcan0 191#010010A1410038
(1728485893.074290) vcan0 133#0000000098
(1728485893.074292) vcan0 136#000200000000001B
(1728485893.074294) vcan0 13A#0000000000000019
(1728485893.074296) vcan0 13F#000000050000001F
(1728485893.074298) vcan0 164#0000C01AA8000031
(1728485893.076261) vcan0 17C#0000000010000012
(1728485893.076273) vcan0 18E#00005C
(1728485893.076277) vcan0 183#0000000C0000101E
(1728485893.077352) vcan0 143#6B6B00D1
(1728485893.079184) vcan0 095#800007F400000008
(1728485893.079195) vcan0 039#0039
(1728485893.082980) vcan0 166#D0320018
(1728485893.082998) vcan0 158#0000000000000019
(1728485893.083001) vcan0 161#000005500108001C
(1728485893.083003) vcan0 191#010010A141000B
(1728485893.083964) vcan0 244#00000001D5
(1728485893.083970) vcan0 188#00000000
(1728485893.084276) vcan0 164#0000C01AA8000004
(1728485893.084285) vcan0 133#00000000A7
(1728485893.084287) vcan0 136#000200000000002A
(1728485893.084291) vcan0 13A#0000000000000028
(1728485893.084293) vcan0 13F#000000050000002E
(1728485893.084300) vcan0 17C#0000000010000021
(1728485893.085477) vcan0 18E#00006B
(1728485893.085492) vcan0 1CF#80050000001E
(1728485893.085494) vcan0 1DC#0200001B
(1728485893.086876) vcan0 183#0000000900001020
(1728485893.086884) vcan0 143#6B6B00E0
(1728485893.090597) vcan0 095#800007F400000017
(1728485893.090646) vcan0 1A4#000000080000003E
(1728485893.090653) vcan0 1AA#7FFF00000000673F
(1728485893.090659) vcan0 1B0#000F0000000175
(1728485893.090667) vcan0 1D0#000000000000000A
(1728485893.092711) vcan0 166#D0320027
(1728485893.092734) vcan0 039#000C
(1728485893.092739) vcan0 158#0000000000000028
(1728485893.092745) vcan0 161#000005500108002B
(1728485893.093757) vcan0 191#010010A141001A
(1728485893.093767) vcan0 133#00000000B6
(1728485893.093772) vcan0 136#0002000000000039
(1728485893.093777) vcan0 13A#0000000000000037
(1728485893.094794) vcan0 13F#000000050000003D
(1728485893.094804) vcan0 164#0000C01AA8000013
(1728485893.094810) vcan0 17C#0000000010000030
(1728485893.094815) vcan0 18E#00007A
(1728485893.094824) vcan0 294#040B0002CF5A001D
(1728485893.094968) vcan0 244#0000000143
(1728485893.095839) vcan0 21E#03E83745220610
(1728485893.095856) vcan0 309#0000000000000093
(1728485893.097440) vcan0 183#0000000E0000103A
(1728485893.097455) vcan0 143#6B6B00FF
(1728485893.100524) vcan0 095#800007F400000026
(1728485893.100539) vcan0 305#8017
(1728485893.101723) vcan0 166#D0320036
(1728485893.103448) vcan0 158#0000000000000037
(1728485893.103471) vcan0 161#000005500108003A
(1728485893.103477) vcan0 191#010010A1410029
(1728485893.103482) vcan0 164#0000C01AA8000022
(1728485893.103488) vcan0 133#0000000089
(1728485893.105375) vcan0 136#000200000000000C
(1728485893.105393) vcan0 13A#000000000000000A
(1728485893.105398) vcan0 13F#0000000500000000
(1728485893.105408) vcan0 17C#0000000010000003
(1728485893.105413) vcan0 18E#00004D
(1728485893.105419) vcan0 1CF#80050000002D
(1728485893.105426) vcan0 1DC#0200002A
(1728485893.107313) vcan0 183#0000000A00001001
(1728485893.107323) vcan0 143#6B6B00C2
(1728485893.108348) vcan0 244#00000001C1
(1728485893.108401) vcan0 039#001B
(1728485893.110212) vcan0 095#800007F400000035
(1728485893.110232) vcan0 1A4#0000000800000001
(1728485893.110238) vcan0 1AA#7FFF000000006801
(1728485893.110243) vcan0 1B0#000F0000000148
(1728485893.110257) vcan0 1D0#000000000000000A
(1728485893.111303) vcan0 166#D0320009
(1728485893.113178) vcan0 158#000000000000000A
(1728485893.113192) vcan0 161#000005500108000D
(1728485893.113198) vcan0 191#010010A1410038
(1728485893.113229) vcan0 133#0000000098
(1728485893.116037) vcan0 136#000200000000001B
(1728485893.116048) vcan0 13A#0000000000000019
(1728485893.116053) vcan0 13F#000000050000001F
(1728485893.116058) vcan0 164#0000C01AA8000031
(1728485893.116064) vcan0 17C#0000000010000012
(1728485893.116069) vcan0 18E#00005C
(1728485893.116074) vcan0 183#0000000700001013
(1728485893.117481) vcan0 143#6B6B00D1
(1728485893.119223) vcan0 244#000000016F
(1728485893.119670) vcan0 095#800007F400000008
(1728485893.120996) vcan0 039#002A
(1728485893.122939) vcan0 166#D0320018
(1728485893.122957) vcan0 158#0000000000000019
(1728485893.122963) vcan0 161#000005500108001C
(1728485893.122970) vcan0 191#010010A141000B
(1728485893.124924) vcan0 133#00000000A7
(1728485893.124943) vcan0 136#000200000000002A
(1728485893.124949) vcan0 13A#0000000000000028
(1728485893.124954) vcan0 13F#000000050000002E
(1728485893.124961) vcan0 164#0000C01AA8000004
(1728485893.124981) vcan0 17C#0000000010000021
(1728485893.124987) vcan0 18E#00006B
(1728485893.124992) vcan0 1CF#80050000003C
(1728485893.124997) vcan0 1DC#02000039
(1728485893.126786) vcan0 183#0000000500001024
(1728485893.126821) vcan0 143#6B6B00E0
(1728485893.128722) vcan0 095#800007F400000017
(1728485893.129768) vcan0 1A4#0000000800000010
(1728485893.129783) vcan0 1AA#7FFF000000006810
(1728485893.129789) vcan0 1B0#000F0000000157
(1728485893.131156) vcan0 1D0#000000000000000A
(1728485893.132626) vcan0 166#D0320027
(1728485893.132640) vcan0 158#0000000000000028
(1728485893.133721) vcan0 161#000005500108002B
(1728485893.133735) vcan0 191#010010A141001A
(1728485893.133741) vcan0 133#00000000B6
(1728485893.133748) vcan0 136#0002000000000039
(1728485893.133753) vcan0 13A#0000000000000037
(1728485893.135571) vcan0 244#0000000168
(1728485893.135623) vcan0 13F#000000050000003D
(1728485893.135630) vcan0 164#0000C01AA8000013
(1728485893.135632) vcan0 17C#0000000010000030
(1728485893.135635) vcan0 039#0039
(1728485893.135637) vcan0 18E#00007A
(1728485893.135639) vcan0 294#040B0002CF5A002C
(1728485893.135642) vcan0 21E#03E8374522062F
(1728485893.137456) vcan0 183#0000000300001035
(1728485893.137465) vcan0 143#6B6B00FF
(1728485893.138726) vcan0 095#800007F400000026
(1728485893.142344) vcan0 166#D0320036
(1728485893.144294) vcan0 158#0000000000000037
(1728485893.144305) vcan0 161#000005500108003A
(1728485893.144307) vcan0 191#010010A1410029
(1728485893.144309) vcan0 133#0000000089
(1728485893.144312) vcan0 136#000200000000000C
(1728485893.144314) vcan0 13A#000000000000000A
(1728485893.144316) vcan0 13F#0000000500000000
(1728485893.144318) vcan0 164#0000C01AA8000022
(1728485893.145452) vcan0 17C#0000000010000003
(1728485893.145462) vcan0 18E#00004D
(1728485893.145464) vcan0 1CF#80050000000F
(1728485893.145467) vcan0 1DC#0200000C
(1728485893.146453) vcan0 244#0000000148
(1728485893.146480) vcan0 183#0000000A00001001
(1728485893.148140) vcan0 143#6B6B00C2
(1728485893.148150) vcan0 039#000C
(1728485893.148153) vcan0 333#0000000000001E
(1728485893.149168) vcan0 095#800007F400000035
(1728485893.149177) vcan0 1A4#000000080000002F
(1728485893.150187) vcan0 1AA#7FFF000000006720
(1728485893.150195) vcan0 1B0#000F0000000166
(1728485893.150198) vcan0 1D0#000000000000000A
(1728485893.151253) vcan0 166#D0320009
(1728485893.152467) vcan0 158#000000000000000A
(1728485893.154017) vcan0 161#000005500108000D
(1728485893.154040) vcan0 191#010010A1410038
(1728485893.154046) vcan0 133#0000000098
(1728485893.154051) vcan0 136#000200000000001B
(1728485893.154056) vcan0 13A#0000000000000019
(1728485893.154061) vcan0 13F#000000050000001F
(1728485893.155947) vcan0 164#0000C01AA8000031
(1728485893.155962) vcan0 17C#0000000010000012
(1728485893.155967) vcan0 18E#00005C
(1728485893.156956) vcan0 244#0000000124
(1728485893.157027) vcan0 183#0000000700001013
(1728485893.157035) vcan0 143#6B6B00D1
(1728485893.158928) vcan0 095#800007F400000008
(1728485893.161957) vcan0 166#D0320018
(1728485893.163766) vcan0 158#0000000000000019
(1728485893.163780) vcan0 161#000005500108001C
(1728485893.163787) vcan0 191#010010A141000B
(1728485893.163794) vcan0 133#00000000A7
(1728485893.163825) vcan0 136#000200000000002A
(1728485893.163830) vcan0 13A#0000000000000028
(1728485893.164854) vcan0 13F#000000050000002E
(1728485893.164869) vcan0 164#0000C01AA8000004
(1728485893.164874) vcan0 17C#0000000010000021
(1728485893.164880) vcan0 18E#00006B
(1728485893.164885) vcan0 1CF#80050000001E
(1728485893.165997) vcan0 1DC#0200001B
(1728485893.166015) vcan0 320#000012
(1728485893.166020) vcan0 324#7465000000000E1A
(1728485893.166026) vcan0 37C#FD00FD00097F001A
(1728485893.166031) vcan0 183#0000000500001024
(1728485893.166469) vcan0 40C#0236323239533039
(1728485893.166478) vcan0 454#23EF36
(1728485893.167616) vcan0 143#6B6B00E0
(1728485893.168636) vcan0 244#00000001C0
(1728485893.168742) vcan0 095#800007F400000017
(1728485893.170549) vcan0 039#001B
(1728485893.170566) vcan0 1A4#000000080000003E
(1728485893.170572) vcan0 1AA#7FFF00000000673F
(1728485893.170586) vcan0 1B0#000F0000000175
(1728485893.170591) vcan0 1D0#000000000000000A
(1728485893.172534) vcan0 166#D0320027
(1728485893.172560) vcan0 158#0000000000000028
(1728485893.174490) vcan0 161#000005500108002B
(1728485893.174511) vcan0 191#010010A141001A
(1728485893.174517) vcan0 133#00000000B6
(1728485893.174522) vcan0 136#0002000000000039
(1728485893.174527) vcan0 13A#0000000000000037
(1728485893.174532) vcan0 13F#000000050000003D
(1728485893.174537) vcan0 164#0000C01AA8000013
(1728485893.174542) vcan0 17C#0000000010000030
(1728485893.174547) vcan0 18E#00007A
(1728485893.176383) vcan0 294#040B0002CF5A003B
(1728485893.176398) vcan0 21E#03E8374522063E
(1728485893.176403) vcan0 183#0000000B0000103D
(1728485893.178275) vcan0 143#6B6B00FF
(1728485893.179396) vcan0 095#800007F400000026
(1728485893.179895) vcan0 244#00000001EC
(1728485893.182242) vcan0 166#D0320036
(1728485893.184161) vcan0 158#0000000000000037
(1728485893.184176) vcan0 161#000005500108003A
(1728485893.184181) vcan0 191#010010A1410029
(1728485893.184186) vcan0 164#0000C01AA8000022
(1728485893.184191) vcan0 133#0000000089
(1728485893.184197) vcan0 136#000200000000000C
(1728485893.184202) vcan0 13A#000000000000000A
(1728485893.184206) vcan0 13F#0000000500000000
(1728485893.185275) vcan0 17C#0000000010000003
(1728485893.185294) vcan0 18E#00004D
(1728485893.185300) vcan0 1CF#80050000002D
(1728485893.185308) vcan0 1DC#0200002A
(1728485893.186407) vcan0 183#0000000800001003
(1728485893.188197) vcan0 143#6B6B00C2
(1728485893.190023) vcan0 095#800007F400000035
(1728485893.190032) vcan0 039#002A
(1728485893.190035) vcan0 1A4#0000000800000001
(1728485893.190037) vcan0 1AA#7FFF000000006801
(1728485893.190039) vcan0 1B0#000F0000000148
(1728485893.190042) vcan0 1D0#000000000000000A
(1728485893.191010) vcan0 244#00000001FD
(1728485893.192958) vcan0 166#D0320009
(1728485893.192971) vcan0 158#000000000000000A
(1728485893.192974) vcan0 161#000005500108000D
(1728485893.192976) vcan0 191#010010A1410038
(1728485893.194885) vcan0 133#0000000098
(1728485893.194896) vcan0 136#000200000000001B
(1728485893.194898) vcan0 13A#0000000000000019
(1728485893.194901) vcan0 13F#000000050000001F
(1728485893.194903) vcan0 164#0000C01AA9000030
(1728485893.194905) vcan0 17C#0000000010000012
(1728485893.194908) vcan0 18E#00005C
(1728485893.194910) vcan0 309#00000000000000A2
(1728485893.196853) vcan0 428#01040000521C01
(1728485893.196862) vcan0 405#000004000000000B
(1728485893.196864) vcan0 183#0000000600001014
(1728485893.196867) vcan0 143#6B6B00D1
(1728485893.198738) vcan0 095#800007F400000008
(1728485893.202708) vcan0 166#D0320018
(1728485893.202723) vcan0 305#8026
(1728485893.202726) vcan0 158#0000000000000019
(1728485893.202728) vcan0 161#000005500108001C
(1728485893.203796) vcan0 191#010010A141000B
(1728485893.204058) vcan0 164#0000C01AA8000004
(1728485893.204065) vcan0 133#00000000A7
(1728485893.204068) vcan0 136#000200000000002A
(1728485893.204070) vcan0 13A#0000000000000028
(1728485893.204078) vcan0 13F#000000050000002E
(1728485893.204084) vcan0 244#0000000123
(1728485893.205538) vcan0 17C#0000000010000021
(1728485893.205548) vcan0 18E#00006B
(1728485893.205551) vcan0 1CF#80050000003C
(1728485893.205553) vcan0 1DC#02000039
(1728485893.205555) vcan0 183#0000000C0000102D
(1728485893.207677) vcan0 143#6B6B00E0
(1728485893.209431) vcan0 095#800007F400000017
(1728485893.209442) vcan0 1A4#0000000800000010
(1728485893.209444) vcan0 1AA#7FFF000000006810
(1728485893.211380) vcan0 1B0#000F0000000157
(1728485893.211386) vcan0 039#0039
(1728485893.211388) vcan0 1D0#000000000000000A
(1728485893.211390) vcan0 166#D0320027
(1728485893.213701) vcan0 158#0000000000000028
(1728485893.213713) vcan0 161#000005500108002B
(1728485893.213715) vcan0 191#010010A141001A
(1728485893.213718) vcan0 133#00000000B6
(1728485893.213720) vcan0 136#0002000000000039
(1728485893.213722) vcan0 13A#0000000000000037
(1728485893.215333) vcan0 244#00000001A5
(1728485893.215445) vcan0 13F#000000050000003D
(1728485893.215453) vcan0 164#0000C01AA8000013
(1728485893.215456) vcan0 17C#0000000010000030
(1728485893.215458) vcan0 18E#00007A
(1728485893.215462) vcan0 294#040B0002CF5A000E
(1728485893.215464) vcan0 21E#03E83745220601
(1728485893.216473) vcan0 183#000000090000103F
(1728485893.217850) vcan0 143#6B6B00FF
(1728485893.218878) vcan0 095#800007F400000026
(1728485893.222107) vcan0 166#D0320036
(1728485893.224040) vcan0 158#0000000000000037
(1728485893.224050) vcan0 161#000005500108003A
(1728485893.224055) vcan0 191#010010A1410029
(1728485893.224061) vcan0 164#0000C01AA8000022
(1728485893.224068) vcan0 133#0000000089
(1728485893.224073) vcan0 136#000200000000000C
(1728485893.224078) vcan0 13A#000000000000000A
(1728485893.224083) vcan0 039#000C
(1728485893.225992) vcan0 13F#0000000500000000
(1728485893.226002) vcan0 17C#0000000010000003
(1728485893.226007) vcan0 18E#00004D
(1728485893.226012) vcan0 1CF#80050000000F
(1728485893.226017) vcan0 1DC#0200000C
(1728485893.226024) vcan0 183#0000000E0000100D
(1728485893.226959) vcan0 244#0000000134
(1728485893.227041) vcan0 143#6B6B00C2
(1728485893.228925) vcan0 095#800007F400000035
(1728485893.230859) vcan0 1A4#000000080000002F
(1728485893.230875) vcan0 1AA#7FFF000000006720
(1728485893.230880) vcan0 1B0#000F0000000166
(1728485893.230889) vcan0 1D0#000000000000000A
(1728485893.231991) vcan0 166#D0320009
(1728485893.233819) vcan0 158#000000000000000A
(1728485893.233825) vcan0 161#000005500108000D
(1728485893.233828) vcan0 191#010010A1410038
(1728485893.233830) vcan0 133#0000000098
(1728485893.233832) vcan0 136#000200000000001B
(1728485893.233835) vcan0 13A#0000000000000019
(1728485893.235174) vcan0 13F#000000050000001F
(1728485893.235180) vcan0 164#0000C01AA8000031
(1728485893.235183) vcan0 17C#0000000010000012
(1728485893.235185) vcan0 18E#00005C
(1728485893.236352) vcan0 183#0000000A00001010
(1728485893.237626) vcan0 143#6B6B00D1
(1728485893.238762) vcan0 039#001B
(1728485893.238774) vcan0 095#800007F400000008
(1728485893.242511) vcan0 166#D0320018
(1728485893.242521) vcan0 158#0000000000000019
(1728485893.243613) vcan0 244#00000001B8
(1728485893.243664) vcan0 161#000005500108001C
(1728485893.243674) vcan0 191#010010A141000B
(1728485893.243677) vcan0 164#0000C01AA8000004
(1728485893.243680) vcan0 133#00000000A7
(1728485893.243682) vcan0 136#000200000000002A
(1728485893.245498) vcan0 13A#0000000000000028
(1728485893.245509) vcan0 13F#000000050000002E
(1728485893.245511) vcan0 17C#0000000010000021
(1728485893.245513) vcan0 18E#00006B
(1728485893.245516) vcan0 1CF#80050000001E
(1728485893.245518) vcan0 1DC#0200001B
(1728485893.247457) vcan0 183#0000000700001022
(1728485893.247466) vcan0 143#6B6B00E0
(1728485893.247469) vcan0 333#0000000000002D
(1728485893.249564) vcan0 095#800007F400000017
(1728485893.249573) vcan0 1A4#000000080000003E
(1728485893.249575) vcan0 1AA#7FFF00000000673F
(1728485893.250651) vcan0 1B0#000F0000000175
(1728485893.250660) vcan0 1D0#000000000000000A
(1728485893.251803) vcan0 039#002A
(1728485893.251819) vcan0 166#D0320027
(1728485893.253246) vcan0 158#0000000000000028
(1728485893.253261) vcan0 161#000005500108002B
(1728485893.253263) vcan0 191#010010A141001A
(1728485893.253265) vcan0 133#00000000B6
(1728485893.254242) vcan0 244#0000000120
(1728485893.254338) vcan0 136#0002000000000039
(1728485893.254350) vcan0 13A#0000000000000037
(1728485893.254352) vcan0 13F#000000050000003D
(1728485893.254361) vcan0 164#0000C01AA8000013
(1728485893.256128) vcan0 17C#0000000010000030
(1728485893.256143) vcan0 18E#00007A
(1728485893.256145) vcan0 294#040B0002CF5A001D
(1728485893.256148) vcan0 21E#03E83745220610
(1728485893.256150) vcan0 183#0000000500001033
(1728485893.257173) vcan0 143#6B6B00FF
(1728485893.260112) vcan0 095#800007F400000026
(1728485893.262938) vcan0 166#D0320036
(1728485893.262948) vcan0 158#0000000000000037
(1728485893.262950) vcan0 161#000005500108003A
(1728485893.262953) vcan0 191#010010A1410029
(1728485893.264256) vcan0 164#0000C01AA8000022
(1728485893.264267) vcan0 133#0000000089
(1728485893.264270) vcan0 136#000200000000000C
(1728485893.264272) vcan0 13A#000000000000000A
(1728485893.264274) vcan0 13F#0000000500000000
(1728485893.265139) vcan0 244#00000001C0
(1728485893.265404) vcan0 17C#0000000010000003
(1728485893.265411) vcan0 18E#00004D
(1728485893.265413) vcan0 1CF#80050000002D
(1728485893.265415) vcan0 1DC#0200002A
(1728485893.265417) vcan0 320#000021
(1728485893.265556) vcan0 324#7465000000000E29
(1728485893.265559) vcan0 37C#FD00FD00097F0029
(1728485893.266869) vcan0 183#0000000300001008
(1728485893.266876) vcan0 143#6B6B00C2
(1728485893.268754) vcan0 095#800007F400000035
(1728485893.269855) vcan0 1A4#0000000800000001
(1728485893.269870) vcan0 1AA#7FFF000000006801
(1728485893.269872) vcan0 1B0#000F0000000148
(1728485893.270896) vcan0 1D0#000000000000000A
(1728485893.270907) vcan0 039#0039
(1728485893.272774) vcan0 166#D0320009
(1728485893.272784) vcan0 158#000000000000000A
(1728485893.272787) vcan0 161#000005500108000D
(1728485893.274635) vcan0 191#010010A1410038
(1728485893.274642) vcan0 133#0000000098
(1728485893.274644) vcan0 136#000200000000001B
(1728485893.274646) vcan0 13A#0000000000000019
(1728485893.274648) vcan0 13F#000000050000001F
(1728485893.274650) vcan0 164#0000C01AA8000031
(1728485893.274652) vcan0 17C#0000000010000012
(1728485893.274654) vcan0 18E#00005C
(1728485893.276640) vcan0 183#0000000A00001010
(1728485893.276650) vcan0 143#6B6B00D1
(1728485893.278542) vcan0 095#800007F400000008
(1728485893.281453) vcan0 244#000000010E
(1728485893.281611) vcan0 166#D0320018
(1728485893.283398) vcan0 039#000C
(1728485893.283407) vcan0 158#0000000000000019
(1728485893.283409) vcan0 161#000005500108001C
(1728485893.283412) vcan0 191#010010A141000B
(1728485893.283414) vcan0 164#0000C01AA8000004
(1728485893.283416) vcan0 133#00000000A7
(1728485893.285381) vcan0 136#000200000000002A
(1728485893.285389) vcan0 13A#0000000000000028
(1728485893.285391) vcan0 13F#000000050000002E
(1728485893.285393) vcan0 17C#0000000010000021
(1728485893.285395) vcan0 18E#00006B
(1728485893.285397) vcan0 1CF#80050000003C
(1728485893.285400) vcan0 1DC#02000039
(1728485893.287286) vcan0 183#0000000700001022
(1728485893.287297) vcan0 143#6B6B00E0
(1728485893.289223) vcan0 095#800007F400000017
(1728485893.289233) vcan0 1A4#0000000800000010
(1728485893.290274) vcan0 1AA#7FFF000000006810
(1728485893.290286) vcan0 1B0#000F0000000157
(1728485893.290288) vcan0 1D0#000000000000000A
(1728485893.293149) vcan0 244#00000001B7
(1728485893.293220) vcan0 166#D0320027
(1728485893.293229) vcan0 158#0000000000000028
(1728485893.293231) vcan0 161#000005500108002B
(1728485893.293233) vcan0 191#010010A141001A
(1728485893.293236) vcan0 133#00000000B6
(1728485893.295064) vcan0 136#0002000000000039
(1728485893.295071) vcan0 13A#0000000000000037
(1728485893.295073) vcan0 13F#000000050000003D
(1728485893.295076) vcan0 164#0000C01AA8000013
(1728485893.295077) vcan0 17C#0000000010000030
(1728485893.295079) vcan0 18E#00007A
(1728485893.295082) vcan0 294#040B0002CF5A002C
(1728485893.295084) vcan0 21E#03E8374522062F
(1728485893.297005) vcan0 309#00000000000000B1
(1728485893.297013) vcan0 039#001B
(1728485893.297015) vcan0 183#0000000500001033
(1728485893.297017) vcan0 143#6B6B00FF
(1728485893.299028) vcan0 095#800007F400000026
(1728485893.301957) vcan0 166#D0320036
(1728485893.303040) vcan0 158#0000000000000037
(1728485893.303047) vcan0 161#000005500108003A
(1728485893.303050) vcan0 191#010010A1410029
(1728485893.304810) vcan0 244#00000001CD
(1728485893.304879) vcan0 164#0000C01AA9000021
(1728485893.304889) vcan0 133#0000000089
(1728485893.304891) vcan0 136#000200000000000C
(1728485893.304893) vcan0 13A#000000000000000A
(1728485893.304895) vcan0 13F#0000000500000000
(1728485893.304898) vcan0 17C#0000000010000003
(1728485893.304905) vcan0 18E#00004D
(1728485893.304910) vcan0 1CF#80050000000F
(1728485893.304912) vcan0 1DC#0200000C
(1728485893.306861) vcan0 183#0000000B00001000
(1728485893.306870) vcan0 143#6B6B00C2
(1728485893.309676) vcan0 095#800007F400000035
(1728485893.309683) vcan0 305#8035
(1728485893.309685) vcan0 1A4#000000080000002F
(1728485893.309688) vcan0 1AA#7FFF000000006720
(1728485893.309690) vcan0 1B0#000F0000000166
(1728485893.311680) vcan0 1D0#000000000000000A
(1728485893.311691) vcan0 166#D0320009
(1728485893.313084) vcan0 158#000000000000000A
(1728485893.313092) vcan0 161#000005500108000D
(1728485893.313094) vcan0 191#010010A1410038
(1728485893.314530) vcan0 133#0000000098
(1728485893.314542) vcan0 136#000200000000001B
(1728485893.314547) vcan0 13A#0000000000000019
(1728485893.314552) vcan0 13F#000000050000001F
(1728485893.314557) vcan0 164#0000C01AA8000031
(1728485893.314562) vcan0 17C#0000000010000012
(1728485893.314567) vcan0 18E#00005C
(1728485893.315799) vcan0 244#000000017C
(1728485893.317455) vcan0 039#002A
(1728485893.317469) vcan0 183#0000000800001012
(1728485893.317474) vcan0 143#6B6B00D1
(1728485893.319118) vcan0 095#800007F400000008
(1728485893.322322) vcan0 166#D0320018
(1728485893.323388) vcan0 158#0000000000000019
(1728485893.323399) vcan0 161#000005500108001C
(1728485893.323402) vcan0 191#010010A141000B
(1728485893.323405) vcan0 164#0000C01AA8000004
(1728485893.323407) vcan0 133#00000000A7
(1728485893.325235) vcan0 136#000200000000002A
(1728485893.325245) vcan0 13A#0000000000000028
(1728485893.325247) vcan0 13F#000000050000002E
(1728485893.325249) vcan0 17C#0000000010000021
(1728485893.325251) vcan0 18E#00006B
(1728485893.325254) vcan0 1CF#80050000001E
(1728485893.325256) vcan0 1DC#0200001B
(1728485893.327172) vcan0 183#0000000600001023
(1728485893.327179) vcan0 143#6B6B00E0
(1728485893.327250) vcan0 244#0000000115
(1728485893.329112) vcan0 095#800007F400000017
(1728485893.331110) vcan0 1A4#000000080000003E
(1728485893.331122) vcan0 1AA#7FFF00000000673F
(1728485893.331124) vcan0 1B0#000F0000000175
(1728485893.331127) vcan0 1D0#000000000000000A
(1728485893.331129) vcan0 039#0039
(1728485893.333004) vcan0 166#D0320027
(1728485893.333012) vcan0 158#0000000000000028
(1728485893.333014) vcan0 161#000005500108002B
(1728485893.333016) vcan0 191#010010A141001A
(1728485893.335012) vcan0 133#00000000B6
(1728485893.335023) vcan0 136#0002000000000039
(1728485893.335055) vcan0 13A#0000000000000037
(1728485893.335063) vcan0 13F#000000050000003D
(1728485893.335065) vcan0 164#0000C01AA8000013
(1728485893.335067) vcan0 17C#0000000010000030
(1728485893.335071) vcan0 18E#00007A
(1728485893.335073) vcan0 294#040B0002CF5A003B
(1728485893.335076) vcan0 21E#03E8374522063E
(1728485893.336347) vcan0 183#0000000C0000103C
(1728485893.337955) vcan0 143#6B6B00FF
(1728485893.338106) vcan0 244#0000000132
(1728485893.338989) vcan0 095#800007F800000022
(1728485893.342732) vcan0 166#D0320036
(1728485893.342741) vcan0 158#0000000000000037
(1728485893.342743) vcan0 161#000005500108003A
(1728485893.343759) vcan0 191#010010A1410029
(1728485893.343766) vcan0 164#0000C01AA8000022
(1728485893.343768) vcan0 133#0000000089
(1728485893.343770) vcan0 039#000C
(1728485893.343772) vcan0 136#000200000000000C
(1728485893.344819) vcan0 13A#000000000000000A
(1728485893.344829) vcan0 13F#0000000500000000
(1728485893.344831) vcan0 17C#0000000010000003
(1728485893.344834) vcan0 18E#00004D
(1728485893.344839) vcan0 1CF#80050000002D
(1728485893.346706) vcan0 1DC#0200002A
(1728485893.346718) vcan0 183#0000000900001002
(1728485893.346721) vcan0 143#6B6B00C2
(1728485893.347819) vcan0 333#0000000000003C
(1728485893.349552) vcan0 095#800007F800000031
(1728485893.349560) vcan0 1A4#0000000800000001
(1728485893.349562) vcan0 1AA#7FFF000000006801
(1728485893.350712) vcan0 1B0#000F0000000148
(1728485893.350722) vcan0 1D0#000000000000000A
(1728485893.351824) vcan0 166#D0320009
(1728485893.353449) vcan0 158#000000000000000A
(1728485893.353459) vcan0 161#000005500108000D
(1728485893.353462) vcan0 191#010010A1410038
(1728485893.353464) vcan0 133#0000000098
(1728485893.353466) vcan0 136#000200000000001B
(1728485893.354440) vcan0 244#00000001A0
(1728485893.354703) vcan0 13A#0000000000000019
(1728485893.354711) vcan0 13F#000000050000001F
(1728485893.354713) vcan0 164#0000C01AA8000031
(1728485893.354721) vcan0 17C#0000000010000012
(1728485893.354723) vcan0 18E#00005C
(1728485893.356453) vcan0 183#0000000E0000101C
(1728485893.357472) vcan0 143#6B6B00D1
(1728485893.357480) vcan0 039#001B
(1728485893.359231) vcan0 095#800007F800000004
(1728485893.361237) vcan0 166#D0320018
(1728485893.363181) vcan0 158#0000000000000019
(1728485893.363188) vcan0 161#000005500108001C
(1728485893.363190) vcan0 191#010090A1410003
(1728485893.363192) vcan0 133#00000000A7
(1728485893.364464) vcan0 136#000200000000002A
(1728485893.364474) vcan0 13A#0000000000000028
(1728485893.364477) vcan0 13F#000000050000002E
(1728485893.364479) vcan0 164#0000C01AA8000004
(1728485893.364481) vcan0 17C#0000000010000021
(1728485893.365340) vcan0 244#00000001D2
(1728485893.365691) vcan0 18E#00006B
(1728485893.365699) vcan0 1CF#80050000003C
(1728485893.365701) vcan0 1DC#02000039
(1728485893.365704) vcan0 320#000030
(1728485893.365706) vcan0 324#7465000000000E38
(1728485893.365710) vcan0 37C#FD00FD00097F0038
(1728485893.366723) vcan0 183#0000000A0000102F
(1728485893.366730) vcan0 143#6B6B00E0
(1728485893.369996) vcan0 095#800007F800000013
(1728485893.370010) vcan0 1A4#0000000800000010
(1728485893.370013) vcan0 1AA#7FFF000000006810
(1728485893.370015) vcan0 1B0#000F0000000157
(1728485893.370017) vcan0 1D0#000000000000000A
(1728485893.371074) vcan0 039#002A
(1728485893.372839) vcan0 166#D0320027
(1728485893.372847) vcan0 158#0000000000000028
(1728485893.372849) vcan0 161#000005500108002B
(1728485893.374847) vcan0 191#010090A1410012
(1728485893.374855) vcan0 133#00000000B6
(1728485893.374857) vcan0 136#0002000000000039
(1728485893.374859) vcan0 13A#0000000000000037
(1728485893.374862) vcan0 13F#000000050000003D
(1728485893.374864) vcan0 164#0000C01AA9000012
(1728485893.374866) vcan0 17C#0000000010000030
(1728485893.374868) vcan0 18E#00007A
(1728485893.374871) vcan0 294#040B0002CF5A000E
(1728485893.376830) vcan0 21E#03E83745220601
(1728485893.376841) vcan0 183#0000000F00001039
(1728485893.376844) vcan0 143#6B6B00FF
(1728485893.378778) vcan0 244#0000000112
(1728485893.378795) vcan0 095#800007F800000022
(1728485893.381650) vcan0 166#D0320036
(1728485893.382708) vcan0 158#0000000000000037
(1728485893.382719) vcan0 161#000005500108003A
(1728485893.384611) vcan0 191#010090A1410021
(1728485893.384623) vcan0 164#0000C01AA8000022
(1728485893.384625) vcan0 133#0000000089
(1728485893.384629) vcan0 136#000200000000000C
(1728485893.384631) vcan0 13A#000000000000000A
(1728485893.384634) vcan0 13F#0000000500000000
(1728485893.384638) vcan0 17C#0000000010000003
(1728485893.384640) vcan0 18E#00004D
(1728485893.385692) vcan0 1CF#80050000000F
(1728485893.385704) vcan0 1DC#0200000C
(1728485893.385706) vcan0 183#0000001300001007
(1728485893.386720) vcan0 039#0039
(1728485893.386727) vcan0 143#6B6B00C2
(1728485893.388456) vcan0 095#800007F400000035
(1728485893.389507) vcan0 1A4#000000080000002F
(1728485893.389520) vcan0 1AA#7FFF000000006720
(1728485893.390430) vcan0 244#000000010D
(1728485893.390944) vcan0 1B0#000F0000000166
(1728485893.390952) vcan0 1D0#000000000000000A
(1728485893.392352) vcan0 166#D0320009
(1728485893.394309) vcan0 158#000000000000000A
(1728485893.394320) vcan0 161#000005500108000D
(1728485893.394322) vcan0 191#010090A1410030
(1728485893.394324) vcan0 133#0000000098
(1728485893.394327) vcan0 136#000200000000001B
(1728485893.394329) vcan0 13A#0000000000000019
(1728485893.394331) vcan0 13F#000000050000001F
(1728485893.394333) vcan0 164#0000C01AA8000031
(1728485893.395558) vcan0 17C#0000000010000012
(1728485893.395570) vcan0 18E#00005C
(1728485893.395572) vcan0 309#0000000000000084
(1728485893.397223) vcan0 183#0000000E0000101C
(1728485893.397231) vcan0 143#6B6B00D1
(1728485893.399829) vcan0 095#800007F400000008
(1728485893.401115) vcan0 039#000C
(1728485893.402170) vcan0 244#0000000140
(1728485893.402273) vcan0 166#D0320018
(1728485893.403309) vcan0 158#0000000000000019
(1728485893.403319) vcan0 161#000005500108001C
(1728485893.403321) vcan0 191#010090A1410003
(1728485893.403324) vcan0 164#0000C01AA8000004
(1728485893.403326) vcan0 133#00000000A7
(1728485893.404980) vcan0 136#000200000000002A
(1728485893.404990) vcan0 13A#0000000000000028
(1728485893.404992) vcan0 13F#000000050000002E
(1728485893.404995) vcan0 17C#0000000010000021
(1728485893.404997) vcan0 18E#00006B
(1728485893.404999) vcan0 1CF#80050000001E
(1728485893.405001) vcan0 1DC#0200001B
(1728485893.406018) vcan0 183#0000000A0000102F
(1728485893.407038) vcan0 143#6B6B00E0
(1728485893.408894) vcan0 095#800007F400000017
(1728485893.409925) vcan0 1A4#000000080000003E
(1728485893.409936) vcan0 1AA#7FFF00000000673F
(1728485893.409939) vcan0 1B0#000F0000000175
(1728485893.411871) vcan0 1D0#000000000000000A
(1728485893.411883) vcan0 166#D0320027
(1728485893.412900) vcan0 158#0000000000000028
(1728485893.412908) vcan0 161#000005500108002B
(1728485893.412910) vcan0 191#010090A1410012
(1728485893.412917) vcan0 244#000000016C
(1728485893.413932) vcan0 133#00000000B6
(1728485893.413940) vcan0 136#0002000000000039
(1728485893.413942) vcan0 039#001B
(1728485893.413944) vcan0 13A#0000000000000037
(1728485893.414968) vcan0 13F#000000050000003D
(1728485893.414982) vcan0 164#0000C01AA8000013
(1728485893.414985) vcan0 17C#0000000010000030
(1728485893.414987) vcan0 18E#00007A
(1728485893.414990) vcan0 294#040B0002CF5A001D
(1728485893.416679) vcan0 305#8008
(1728485893.416690) vcan0 21E#03E83745220610
(1728485893.416692) vcan0 183#0000000700001031
(1728485893.416694) vcan0 143#6B6B00FF
(1728485893.418578) vcan0 095#800007F400000026
(1728485893.420620) vcan0 5A1#960000000000622F
(1728485893.422519) vcan0 166#D0320036
(1728485893.422528) vcan0 158#0000000000000037
(1728485893.423544) vcan0 161#000005500108003A
(1728485893.423551) vcan0 191#010090A1410021
(1728485893.423553) vcan0 133#0000000089
(1728485893.423555) vcan0 136#000200000000000C
(1728485893.424461) vcan0 244#00000001E3
(1728485893.424956) vcan0 13A#000000000000000A
(1728485893.424963) vcan0 13F#0000000500000000
(1728485893.424966) vcan0 164#0000C01AA8000022
(1728485893.424968) vcan0 17C#0000000010000003
(1728485893.424970) vcan0 18E#00004D
(1728485893.424972) vcan0 1CF#80050000002D
(1728485893.424976) vcan0 1DC#0200002A
(1728485893.426456) vcan0 183#0000000500001006
(1728485893.427532) vcan0 143#6B6B00C2
(1728485893.427540) vcan0 039#002A
(1728485893.429297) vcan0 095#800007F400000035
(1728485893.429306) vcan0 1A4#0000000800000001
(1728485893.431423) vcan0 1AA#7FFF000000006801
(1728485893.431430) vcan0 1B0#000F0000000148
(1728485893.431432) vcan0 1D0#000000000000000A
(1728485893.431435) vcan0 166#D0320009
(1728485893.433279) vcan0 158#000000000000000A
(1728485893.433291) vcan0 161#000005500108000D
(1728485893.433293) vcan0 191#010090A1410030
(1728485893.433295) vcan0 133#0000000098
(1728485893.434380) vcan0 136#000200000000001B
(1728485893.434389) vcan0 13A#0000000000000019
(1728485893.434391) vcan0 13F#000000050000001F
(1728485893.434394) vcan0 164#0000C01AA8000031
(1728485893.434396) vcan0 17C#0000000010000012
(1728485893.436275) vcan0 18E#00005C
(1728485893.436292) vcan0 183#0000000B0000101F
(1728485893.436319) vcan0 244#00000001D6
(1728485893.438235) vcan0 143#6B6B00D1
(1728485893.440130) vcan0 095#800007F400000008
(1728485893.440138) vcan0 039#0039
(1728485893.442049) vcan0 166#D0320018
(1728485893.443167) vcan0 158#0000000000000019
(1728485893.443181) vcan0 161#000005500108001C
(1728485893.443184) vcan0 191#010090A1410003
(1728485893.443188) vcan0 133#00000000A7
(1728485893.445028) vcan0 136#000200000000002A
(1728485893.445036) vcan0 13A#0000000000000028
(1728485893.445038) vcan0 13F#000000050000002E
(1728485893.445040) vcan0 164#0000C01AA8000004
(1728485893.445043) vcan0 17C#0000000010000021
(1728485893.445045) vcan0 18E#00006B
(1728485893.445048) vcan0 1CF#80050000003C
(1728485893.445050) vcan0 1DC#02000039
(1728485893.446983) vcan0 183#0000000800001021
(1728485893.446994) vcan0 143#6B6B00E0
(1728485893.448896) vcan0 333#0000000000000F
(1728485893.448904) vcan0 095#800007F400000017
(1728485893.449941) vcan0 244#00000001CB
(1728485893.450199) vcan0 1A4#0000000800000010
(1728485893.450336) vcan0 1AA#7FFF000000006810
(1728485893.450341) vcan0 1B0#000F0000000157
(1728485893.450352) vcan0 1D0#000000000000000A
(1728485893.451383) vcan0 166#D0320027
(1728485893.452816) vcan0 158#0000000000000028
(1728485893.452829) vcan0 161#000005500108002B
(1728485893.454470) vcan0 191#010090A1410012
(1728485893.454479) vcan0 133#00000000B6
(1728485893.454482) vcan0 136#0002000000000039
(1728485893.454484) vcan0 13A#0000000000000037
(1728485893.454487) vcan0 13F#000000050000003D
(1728485893.454489) vcan0 164#0000C01AA8000013
(1728485893.454491) vcan0 17C#0000000010000030
(1728485893.455674) vcan0 18E#00007A
(1728485893.455691) vcan0 294#040B0002CF5A002C
(1728485893.455694) vcan0 21E#03E8374522062F
(1728485893.457635) vcan0 183#0000000D0000103B
(1728485893.457644) vcan0 143#6B6B00FF
(1728485893.459636) vcan0 095#800007F400000026
(1728485893.461361) vcan0 039#000C
(1728485893.461371) vcan0 166#D0320036
(1728485893.462543) vcan0 158#0000000000000037
(1728485893.463683) vcan0 161#000005500108003A
(1728485893.463692) vcan0 191#010090A1410021
(1728485893.463695) vcan0 133#0000000089
(1728485893.463697) vcan0 136#000200000000000C
(1728485893.463699) vcan0 13A#000000000000000A
(1728485893.465006) vcan0 13F#0000000500000000
(1728485893.465017) vcan0 164#0000C01AA8000022
(1728485893.465019) vcan0 17C#0000000010000003
(1728485893.465021) vcan0 18E#00004D
(1728485893.465024) vcan0 1CF#80050000000F
(1728485893.465026) vcan0 1DC#0200000C
(1728485893.465632) vcan0 244#0000000155
(1728485893.466123) vcan0 320#000003
(1728485893.466129) vcan0 324#7465000000000E0B
(1728485893.466131) vcan0 37C#FD00FD00097F000B
(1728485893.466134) vcan0 183#0000000900001002
(1728485893.466136) vcan0 40C#033133383439000D
(1728485893.467249) vcan0 454#23EF09
(1728485893.467267) vcan0 143#6B6B00C2
(1728485893.470358) vcan0 095#800007F400000035
(1728485893.470375) vcan0 1A4#000000080000002F
(1728485893.470378) vcan0 1AA#7FFF000000006720
(1728485893.470380) vcan0 1B0#000F0000000166
(1728485893.470382) vcan0 1D0#000000000000000A
(1728485893.473241) vcan0 166#D0320009
(1728485893.473251) vcan0 158#000000000000000A
(1728485893.473254) vcan0 161#000005500108000D
(1728485893.473256) vcan0 191#010090A1410030
(1728485893.473259) vcan0 18E#00005C
(1728485893.474371) vcan0 133#0000000098
(1728485893.474379) vcan0 136#000200000000001B
(1728485893.474382) vcan0 13A#0000000000000019
(1728485893.474384) vcan0 039#001B
(1728485893.474386) vcan0 13F#000000050000001F
(1728485893.475608) vcan0 164#0000C01AA8000031
(1728485893.475618) vcan0 17C#0000000010000012
(1728485893.477086) vcan0 183#0000000600001014
(1728485893.477095) vcan0 143#6B6B00D1
(1728485893.477191) vcan0 244#0000000135
(1728485893.479121) vcan0 095#800007F400000008
(1728485893.481767) vcan0 166#D0320018
(1728485893.482789) vcan0 158#0000000000000019
(1728485893.482798) vcan0 161#000005500108001C
(1728485893.483889) vcan0 191#010090A1410003
(1728485893.483896) vcan0 164#0000C01AA8000004
(1728485893.483898) vcan0 133#00000000A7
(1728485893.483900) vcan0 136#000200000000002A
(1728485893.483903) vcan0 13A#0000000000000028
(1728485893.484945) vcan0 13F#000000050000002E
(1728485893.484952) vcan0 17C#0000000010000021
(1728485893.484954) vcan0 18E#00006B
(1728485893.484956) vcan0 1CF#80050000001E
(1728485893.484959) vcan0 1DC#0200001B
(1728485893.485975) vcan0 183#0000000C0000102D
(1728485893.487033) vcan0 143#6B6B00E0
(1728485893.487797) vcan0 244#0000000129
(1728485893.488469) vcan0 095#800007F400000017
(1728485893.489523) vcan0 039#002A
(1728485893.489543) vcan0 1A4#000000080000003E
(1728485893.489550) vcan0 1AA#7FFF00000000673F
(1728485893.490706) vcan0 1B0#000F0000000175
(1728485893.490722) vcan0 1D0#000000000000000A
(1728485893.491739) vcan0 166#D0320027
(1728485893.492754) vcan0 158#0000000000000028
(1728485893.492763) vcan0 161#000005500108002B
(1728485893.494587) vcan0 191#010090A1410012
(1728485893.494596) vcan0 133#00000000B6
(1728485893.494602) vcan0 136#0002000000000039
(1728485893.494608) vcan0 13A#0000000000000037
(1728485893.494621) vcan0 13F#000000050000003D
(1728485893.494626) vcan0 164#0000C01AA8000013
(1728485893.494633) vcan0 17C#0000000010000030
(1728485893.494638) vcan0 18E#00007A
(1728485893.496224) vcan0 294#040B0002CF5A003B
(1728485893.496236) vcan0 21E#03E8374522063E
(1728485893.496238) vcan0 309#0000000000000093
(1728485893.496241) vcan0 428#01040000521C10
(1728485893.496243) vcan0 405#000004000000001A
(1728485893.496248) vcan0 183#000000090000103F
(1728485893.497602) vcan0 143#6B6B00FF
(1728485893.498629) vcan0 095#800007F400000026
(1728485893.499617) vcan0 244#0000000160
(1728485893.501391) vcan0 166#D0320036
(1728485893.502481) vcan0 158#0000000000000037
(1728485893.503576) vcan0 161#000005500108003A
(1728485893.503587) vcan0 191#010090A1410021
(1728485893.503589) vcan0 039#0039
(1728485893.503591) vcan0 133#0000000089
(1728485893.503593) vcan0 136#000200000000000C
(1728485893.504611) vcan0 13A#000000000000000A
(1728485893.504618) vcan0 13F#0000000500000000
(1728485893.504627) vcan0 164#0000C01AA8000022
(1728485893.504629) vcan0 17C#0000000010000003
(1728485893.504631) vcan0 18E#00004D
(1728485893.506287) vcan0 1CF#80050000002D
(1728485893.506293) vcan0 1DC#0200002A
(1728485893.506295) vcan0 183#0000000E0000100D
(1728485893.507306) vcan0 143#6B6B00C2
(1728485893.509396) vcan0 095#800007F400000035
(1728485893.509406) vcan0 1A4#0000000800000001
(1728485893.509986) vcan0 244#000000013A
(1728485893.510431) vcan0 1AA#7FFF000000006801
(1728485893.510442) vcan0 1B0#000F0000000148
(1728485893.510445) vcan0 1D0#000000000000000A
(1728485893.512142) vcan0 166#D0320009
(1728485893.513163) vcan0 158#000000000000000A
(1728485893.513170) vcan0 161#000005500108000D
(1728485893.513172) vcan0 191#010090A1410030
(1728485893.513174) vcan0 133#0000000098
(1728485893.514191) vcan0 136#000200000000001B
(1728485893.514197) vcan0 13A#0000000000000019
(1728485893.514199) vcan0 13F#000000050000001F
(1728485893.514201) vcan0 164#0000C01AA8000031
(1728485893.515210) vcan0 17C#0000000010000012
(1728485893.515217) vcan0 18E#00005C
(1728485893.516237) vcan0 183#0000000A00001010
(1728485893.517260) vcan0 039#000C
(1728485893.517271) vcan0 143#6B6B00D1
(1728485893.517274) vcan0 305#8017
(1728485893.518972) vcan0 095#800007F400000008
(1728485893.520998) vcan0 244#000000018E
(1728485893.521541) vcan0 166#D0320018
(1728485893.522874) vcan0 158#0000000000000019
(1728485893.522886) vcan0 161#000005500108001C
(1728485893.522888) vcan0 191#010090A1410003
(1728485893.523902) vcan0 133#00000000A7
(1728485893.523914) vcan0 136#000200000000002A
(1728485893.523917) vcan0 13A#0000000000000028
(1728485893.523919) vcan0 13F#000000050000002E
(1728485893.525759) vcan0 164#0000C01AA8000004
(1728485893.525770) vcan0 17C#0000000010000021
(1728485893.525772) vcan0 18E#00006B
(1728485893.525774) vcan0 1CF#80050000003C
(1728485893.525777) vcan0 1DC#02000039
(1728485893.525779) vcan0 183#0000000700001022
(1728485893.527693) vcan0 143#6B6B00E0
(1728485893.529690) vcan0 095#800007F400000017
(1728485893.529703) vcan0 1A4#0000000800000010
(1728485893.529706) vcan0 1AA#7FFF000000006810
(1728485893.529708) vcan0 1B0#000F0000000157
(1728485893.530750) vcan0 1D0#000000000000000A
(1728485893.531769) vcan0 166#D0320027
(1728485893.532637) vcan0 244#00000001A1
(1728485893.533351) vcan0 158#0000000000000028
(1728485893.533364) vcan0 161#000005500108002B
(1728485893.533367) vcan0 191#010090A1410012
(1728485893.533369) vcan0 133#00000000B6
(1728485893.534615) vcan0 136#0002000000000039
(1728485893.534632) vcan0 039#001B
(1728485893.534638) vcan0 13A#0000000000000037
(1728485893.534646) vcan0 13F#000000050000003D
(1728485893.534651) vcan0 164#0000C01AA8000013
(1728485893.534656) vcan0 17C#0000000010000030
(1728485893.534685) vcan0 18E#00007A
(1728485893.535839) vcan0 294#040B0002CF5A000E
(1728485893.535851) vcan0 21E#03E83745220601
(1728485893.536936) vcan0 183#0000000D0000103B
(1728485893.536958) vcan0 143#6B6B00FF
(1728485893.540365) vcan0 095#800007F400000026
(1728485893.542304) vcan0 166#D0320036
(1728485893.543692) vcan0 158#0000000000000037
(1728485893.543714) vcan0 161#000005500108003A
(1728485893.543725) vcan0 191#010090A1410021
(1728485893.543744) vcan0 164#0000C01AA8000022
(1728485893.543753) vcan0 133#0000000089
(1728485893.543762) vcan0 136#000200000000000C
(1728485893.544417) vcan0 244#0000000116
(1728485893.544858) vcan0 13A#000000000000000A
(1728485893.544872) vcan0 13F#0000000500000000
(1728485893.544877) vcan0 17C#0000000010000003
(1728485893.544882) vcan0 18E#00004D
(1728485893.544887) vcan0 1CF#80050000000F
(1728485893.544893) vcan0 1DC#0200000C
(1728485893.546256) vcan0 183#0000000900001002
(1728485893.546273) vcan0 039#002A
(1728485893.548159) vcan0 143#6B6B00C2
(1728485893.548174) vcan0 333#0000000000001E
(1728485893.550110) vcan0 095#800007F400000035
(1728485893.550120) vcan0 1A4#000000080000002F
(1728485893.550127) vcan0 1AA#7FFF000000006720
(1728485893.550133) vcan0 1B0#000F0000000166
(1728485893.550138) vcan0 1D0#000000000000000A
(1728485893.551299) vcan0 166#D0320009
(1728485893.553073) vcan0 158#000000000000000A
(1728485893.553084) vcan0 161#000005500108000D
(1728485893.553087) vcan0 191#010090A1410030
(1728485893.554961) vcan0 133#0000000098
(1728485893.554971) vcan0 136#000200000000001B
(1728485893.554974) vcan0 13A#0000000000000019
(1728485893.554976) vcan0 13F#000000050000001F
(1728485893.554984) vcan0 164#0000C01AA8000031
(1728485893.554986) vcan0 17C#0000000010000012
(1728485893.554989) vcan0 18E#00005C
(1728485893.556040) vcan0 183#0000000600001014
(1728485893.556912) vcan0 244#0000000196
(1728485893.557832) vcan0 143#6B6B00D1
(1728485893.558932) vcan0 095#800007F400000008
(1728485893.562798) vcan0 166#D0320018
(1728485893.562810) vcan0 158#0000000000000019
(1728485893.562812) vcan0 161#000005500108001C
(1728485893.564701) vcan0 191#010090A1410003
(1728485893.564713) vcan0 164#0000C01AA8000004
(1728485893.564715) vcan0 133#00000000A7
(1728485893.564718) vcan0 136#000200000000002A
(1728485893.564730) vcan0 13A#0000000000000028
(1728485893.564732) vcan0 13F#000000050000002E
(1728485893.564734) vcan0 17C#0000000010000021
(1728485893.564738) vcan0 18E#00006B
(1728485893.564740) vcan0 1CF#80050000001E
(1728485893.565841) vcan0 1DC#0200001B
(1728485893.565863) vcan0 320#000012
(1728485893.565879) vcan0 324#7465000000000E1A
(1728485893.565886) vcan0 37C#FD00FD00097F001A
(1728485893.565891) vcan0 039#0039
(1728485893.567648) vcan0 183#0000000C0000102D
(1728485893.567664) vcan0 143#6B6B00E0
(1728485893.567817) vcan0 244#00000001BB
(1728485893.568685) vcan0 095#800007F400000017
(1728485893.569747) vcan0 1A4#000000080000003E
(1728485893.569771) vcan0 1AA#7FFF00000000673F
(1728485893.569778) vcan0 1B0#000F0000000175
(1728485893.571578) vcan0 1D0#000000000000000A
(1728485893.571596) vcan0 166#D0320027
(1728485893.572650) vcan0 158#0000000000000028
(1728485893.572669) vcan0 161#000005500108002B
(1728485893.574448) vcan0 191#010090A1410012
(1728485893.574467) vcan0 133#00000000B6
(1728485893.574473) vcan0 136#0002000000000039
(1728485893.574479) vcan0 13A#0000000000000037
(1728485893.574484) vcan0 13F#000000050000003D
(1728485893.574490) vcan0 164#0000C01AA9000012
(1728485893.574496) vcan0 17C#0000000010000030
(1728485893.574501) vcan0 18E#00007A
(1728485893.576433) vcan0 294#040B0002CF5A001D
(1728485893.576452) vcan0 21E#03E83745220610
(1728485893.576458) vcan0 183#000000090000103F
(1728485893.577510) vcan0 143#6B6B00FF
(1728485893.579254) vcan0 039#000C
(1728485893.579268) vcan0 095#800007F400000026
(1728485893.582277) vcan0 166#D0320036
(1728485893.583330) vcan0 158#0000000000000037
(1728485893.583333) vcan0 244#00000001D6
(1728485893.583349) vcan0 161#000005500108003A
(1728485893.583357) vcan0 191#010090A1410021
(1728485893.583362) vcan0 164#0000C01AA9000021
(1728485893.583788) vcan0 133#0000000089
(1728485893.583799) vcan0 136#000200000000000C
(1728485893.583808) vcan0 13A#000000000000000A
(1728485893.585161) vcan0 13F#0000000500000000
(1728485893.585184) vcan0 17C#0000000010000003
(1728485893.585190) vcan0 18E#00004D
(1728485893.585195) vcan0 1CF#80050000002D
(1728485893.585205) vcan0 1DC#0200002A
(1728485893.587146) vcan0 183#0000000E0000100D
(1728485893.587167) vcan0 143#6B6B00C2
(1728485893.589027) vcan0 095#800007F400000035
(1728485893.589072) vcan0 188#00000000
(1728485893.590987) vcan0 1A4#0000000800000001
(1728485893.591004) vcan0 1AA#7FFF000000006801
(1728485893.591010) vcan0 1B0#000F0000000148
(1728485893.591019) vcan0 1D0#000000000000000A
(1728485893.592222) vcan0 166#D0320009
(1728485893.593847) vcan0 158#000000000000000A
(1728485893.593858) vcan0 161#000005500108000D
(1728485893.593860) vcan0 191#010090A1410030
(1728485893.593862) vcan0 039#001B
(1728485893.593865) vcan0 133#0000000098
(1728485893.593867) vcan0 136#000200000000001B
(1728485893.593869) vcan0 13A#0000000000000019
(1728485893.594824) vcan0 244#00000001D7
(1728485893.594954) vcan0 13F#000000050000001F
(1728485893.594964) vcan0 164#0000C01AA8000031
(1728485893.594967) vcan0 17C#0000000010000012
(1728485893.594969) vcan0 18E#00005C
(1728485893.594972) vcan0 309#00000000000000A2
(1728485893.596768) vcan0 183#0000000A00001010
(1728485893.596779) vcan0 143#6B6B00D1
(1728485893.599034) vcan0 095#800007F400000008
(1728485893.602610) vcan0 166#D0320018
(1728485893.602624) vcan0 158#0000000000000019
(1728485893.604516) vcan0 161#000005500108001C
(1728485893.604522) vcan0 191#010090A1410003
(1728485893.604525) vcan0 133#00000000A7
(1728485893.604527) vcan0 136#000200000000002A
(1728485893.604529) vcan0 13A#0000000000000028
(1728485893.604532) vcan0 13F#000000050000002E
(1728485893.604534) vcan0 164#0000C01AA8000004
(1728485893.604536) vcan0 17C#0000000010000021
(1728485893.604540) vcan0 18E#00006B
(1728485893.605570) vcan0 1CF#80050000003C
(1728485893.605579) vcan0 1DC#02000039
(1728485893.606618) vcan0 244#000000018C
(1728485893.606684) vcan0 183#0000000700001022
(1728485893.606688) vcan0 143#6B6B00E0
(1728485893.608510) vcan0 039#002A
(1728485893.608519) vcan0 095#800007F400000017
(1728485893.610402) vcan0 1A4#0000000800000010
(1728485893.610410) vcan0 1AA#7FFF000000006810
(1728485893.610412) vcan0 1B0#000F0000000157
(1728485893.610415) vcan0 1D0#000000000000000A
(1728485893.612314) vcan0 166#D0320027
(1728485893.613400) vcan0 158#0000000000000028
(1728485893.613407) vcan0 161#000005500108002B
(1728485893.613409) vcan0 191#010090A1410012
(1728485893.613411) vcan0 133#00000000B6
(1728485893.613414) vcan0 136#0002000000000039
(1728485893.615384) vcan0 13A#0000000000000037
(1728485893.615402) vcan0 13F#000000050000003D
(1728485893.615408) vcan0 164#0000C01AA8000013
(1728485893.615413) vcan0 17C#0000000010000030
(1728485893.615418) vcan0 18E#00007A
(1728485893.615423) vcan0 294#040B0002CF5A002C
(1728485893.615429) vcan0 21E#03E8374522062F
(1728485893.617249) vcan0 183#0000000500001033
(1728485893.617264) vcan0 143#6B6B00FF
(1728485893.618488) vcan0 095#800007F400000026
(1728485893.620803) vcan0 244#000000012A
(1728485893.623042) vcan0 166#D0320036
(1728485893.623082) vcan0 039#0039
(1728485893.623086) vcan0 158#0000000000000037
(1728485893.623089) vcan0 161#000005500108003A
(1728485893.623091) vcan0 191#010090A1410021
(1728485893.623093) vcan0 305#8026
(1728485893.624402) vcan0 133#0000000089
(1728485893.624411) vcan0 136#000200000000000C
(1728485893.624413) vcan0 13A#000000000000000A
(1728485893.624415) vcan0 13F#0000000500000000
(1728485893.624418) vcan0 164#0000C01AA8000022
(1728485893.625429) vcan0 17C#0000000010000003
(1728485893.625439) vcan0 18E#00004D
(1728485893.625441) vcan0 1CF#80050000000F
(1728485893.625444) vcan0 1DC#0200000C
(1728485893.626487) vcan0 183#0000000300001008
(1728485893.626597) vcan0 143#6B6B00C2
(1728485893.628853) vcan0 095#800007F400000035
(1728485893.629882) vcan0 1A4#000000080000002F
(1728485893.629892) vcan0 1AA#7FFF000000006720
(1728485893.629894) vcan0 1B0#000F0000000166
(1728485893.630904) vcan0 1D0#000000000000000A
(1728485893.632747) vcan0 244#0000000194
(1728485893.632762) vcan0 166#D0320009
(1728485893.632766) vcan0 158#000000000000000A
(1728485893.632769) vcan0 161#000005500108000D
(1728485893.633789) vcan0 191#010090A1410030
(1728485893.633801) vcan0 133#0000000098
(1728485893.633804) vcan0 136#000200000000001B
(1728485893.633807) vcan0 13A#0000000000000019
(1728485893.635155) vcan0 13F#000000050000001F
(1728485893.635164) vcan0 164#0000C01AA8000031
(1728485893.635166) vcan0 17C#0000000010000012
(1728485893.635169) vcan0 18E#00005C
(1728485893.636656) vcan0 039#000C
(1728485893.636675) vcan0 183#0000000A00001010
(1728485893.636678) vcan0 143#6B6B00D1
(1728485893.638631) vcan0 095#800007F400000008
(1728485893.641251) vcan0 166#D0320018
(1728485893.642477) vcan0 158#0000000000000019
(1728485893.643540) vcan0 161#000005500108001C
(1728485893.643548) vcan0 191#010090A1410003
(1728485893.643551) vcan0 133#00000000A7
(1728485893.643553) vcan0 136#000200000000002A
(1728485893.643661) vcan0 244#0000000168
(1728485893.644565) vcan0 13A#0000000000000028
(1728485893.644574) vcan0 13F#000000050000002E
(1728485893.644576) vcan0 164#0000C01AA8000004
(1728485893.644579) vcan0 17C#0000000010000021
(1728485893.644581) vcan0 18E#00006B
(1728485893.645603) vcan0 1CF#80050000001E
(1728485893.645612) vcan0 1DC#0200001B
(1728485893.646629) vcan0 183#0000000700001022
(1728485893.646636) vcan0 143#6B6B00E0
(1728485893.648309) vcan0 333#0000000000002D
(1728485893.649323) vcan0 095#800007F400000017
(1728485893.649331) vcan0 1A4#000000080000003E
(1728485893.650350) vcan0 1AA#7FFF00000000673F
(1728485893.650362) vcan0 1B0#000F0000000175
