(1728486099.432331) vcan0 183#0000000400001016
(1728486099.432349) vcan0 143#6B6B00D1
(1728486099.435246) vcan0 095#800007F400000008
(1728486099.436209) vcan0 244#000000017A
(1728486099.436339) vcan0 305#8026
(1728486099.437392) vcan0 166#D0320018
(1728486099.439114) vcan0 158#0000000000000019
(1728486099.439123) vcan0 161#000005500108001C
(1728486099.439125) vcan0 191#010090A1410003
(1728486099.439127) vcan0 133#00000000A7
(1728486099.439130) vcan0 136#000200000000002A
(1728486099.439133) vcan0 13A#0000000000000028
(1728486099.441143) vcan0 13F#000000050000002E
(1728486099.441155) vcan0 164#0000C01AA8000004
(1728486099.441157) vcan0 17C#0000000010000021
(1728486099.441159) vcan0 18E#00006B
(1728486099.441162) vcan0 1CF#80050000001E
(1728486099.441166) vcan0 1DC#0200001B
(1728486099.443229) vcan0 183#0000000300001026
(1728486099.443239) vcan0 143#6B6B00E0
(1728486099.443241) vcan0 039#0039
(1728486099.443244) vcan0 333#0000000000002D
(1728486099.445283) vcan0 095#800007F400000017
(1728486099.445299) vcan0 1A4#000000080000003E
(1728486099.445301) vcan0 1AA#7FFF00000000683E
(1728486099.445304) vcan0 1B0#000F0000000175
(1728486099.446318) vcan0 1D0#000000000000000A
(1728486099.447099) vcan0 244#0000000104
(1728486099.447356) vcan0 166#D0320027
(1728486099.448374) vcan0 158#0000000000000028
(1728486099.448381) vcan0 161#000005500108002B
(1728486099.449393) vcan0 191#010090A1410012
(1728486099.449399) vcan0 133#00000000B6
(1728486099.449401) vcan0 136#0002000000000039
(1728486099.449403) vcan0 13A#0000000000000037
(1728486099.449405) vcan0 13F#000000050000003D
(1728486099.450415) vcan0 164#0000C01AA8000013
(1728486099.450421) vcan0 17C#0000000010000030
(1728486099.450423) vcan0 18E#00007A
(1728486099.450425) vcan0 294#040B0002CF5A001D
(1728486099.451876) vcan0 21E#03E83745220610
(1728486099.451882) vcan0 183#0000000A0000103E
(1728486099.452894) vcan0 143#6B6B00FF
(1728486099.454924) vcan0 095#800007F400000026
(1728486099.456949) vcan0 166#D0320036
(1728486099.458977) vcan0 158#0000000000000037
(1728486099.458988) vcan0 161#000005500108003A
(1728486099.458990) vcan0 191#010090A1410021
(1728486099.458993) vcan0 133#0000000089
(1728486099.458995) vcan0 136#000200000000000C
(1728486099.460018) vcan0 13A#000000000000000A
(1728486099.460034) vcan0 13F#0000000500000000
(1728486099.460036) vcan0 164#0000C01AA8000022
(1728486099.460039) vcan0 17C#0000000010000003
(1728486099.460041) vcan0 18E#00004D
(1728486099.461081) vcan0 1CF#80050000002D
(1728486099.461092) vcan0 1DC#0200002A
(1728486099.461094) vcan0 320#000021
(1728486099.461097) vcan0 324#7465000000000E29
(1728486099.461099) vcan0 37C#FD00FD00097F0029
(1728486099.462596) vcan0 244#0000000171
(1728486099.462605) vcan0 40C#014A484D46413325
(1728486099.462608) vcan0 183#0000000700001004
(1728486099.462610) vcan0 454#23EF27
(1728486099.462612) vcan0 143#6B6B00C2
(1728486099.464636) vcan0 095#800007F400000035
(1728486099.464644) vcan0 039#000C
(1728486099.465652) vcan0 1A4#0000000800000001
(1728486099.465658) vcan0 1AA#7FFF000000006801
(1728486099.465660) vcan0 1B0#000F0000000148
(1728486099.465662) vcan0 1D0#000000000000000A
(1728486099.467676) vcan0 166#D0320009
(1728486099.468690) vcan0 158#000000000000000A
(1728486099.468698) vcan0 161#000005500108000D
(1728486099.468700) vcan0 191#010090A1410030
(1728486099.468702) vcan0 133#0000000098
(1728486099.469713) vcan0 136#000200000000001B
(1728486099.469719) vcan0 13A#0000000000000019
(1728486099.469721) vcan0 13F#000000050000001F
(1728486099.469723) vcan0 164#0000C01AA8000031
(1728486099.470734) vcan0 17C#0000000010000012
(1728486099.470741) vcan0 18E#00005C
(1728486099.472333) vcan0 183#0000000D0000101D
(1728486099.472340) vcan0 143#6B6B00D1
(1728486099.473306) vcan0 244#00000001FD
(1728486099.475369) vcan0 095#800007F400000008
(1728486099.476819) vcan0 166#D0320018
(1728486099.478867) vcan0 158#0000000000000019
(1728486099.478894) vcan0 161#000005500108001C
(1728486099.478897) vcan0 191#010090A1410003
(1728486099.478899) vcan0 133#00000000A7
(1728486099.478902) vcan0 136#000200000000002A
(1728486099.480113) vcan0 13A#0000000000000028
(1728486099.480125) vcan0 13F#000000050000002E
(1728486099.480127) vcan0 164#0000C01AA8000004
(1728486099.480130) vcan0 17C#0000000010000021
(1728486099.480132) vcan0 18E#00006B
(1728486099.481144) vcan0 1CF#80050000003C
(1728486099.481152) vcan0 1DC#02000039
(1728486099.483058) vcan0 183#0000001100001027
(1728486099.483071) vcan0 143#6B6B00E0
(1728486099.484084) vcan0 039#001B
(1728486099.485103) vcan0 095#800007F400000017
(1728486099.485109) vcan0 1A4#0000000800000010
(1728486099.485111) vcan0 1AA#7FFF000000006810
(1728486099.486119) vcan0 1B0#000F0000000157
(1728486099.486125) vcan0 1D0#000000000000000A
(1728486099.488861) vcan0 244#000000013A
(1728486099.488869) vcan0 166#D0320027
(1728486099.488872) vcan0 158#0000000000000028
(1728486099.488874) vcan0 161#000005500108002B
(1728486099.488876) vcan0 191#010090A1410012
(1728486099.488878) vcan0 133#00000000B6
(1728486099.488881) vcan0 136#0002000000000039
(1728486099.489900) vcan0 13A#0000000000000037
(1728486099.489916) vcan0 13F#000000050000003D
(1728486099.489919) vcan0 164#0000C01AA8000013
(1728486099.489921) vcan0 17C#0000000010000030
(1728486099.491788) vcan0 18E#00007A
(1728486099.491798) vcan0 294#040B0002CF5A002C
(1728486099.491801) vcan0 21E#03E8374522062F
(1728486099.491803) vcan0 309#00000000000000B1
(1728486099.491805) vcan0 428#01040000521C3E
(1728486099.491807) vcan0 405#0000040000000038
(1728486099.491810) vcan0 183#0000000C0000103C
(1728486099.492821) vcan0 143#6B6B00FF
(1728486099.494873) vcan0 095#800007F400000026
(1728486099.497652) vcan0 166#D0320036
(1728486099.497673) vcan0 039#002A
(1728486099.498685) vcan0 158#0000000000000037
(1728486099.498691) vcan0 161#000005500108003A
(1728486099.498694) vcan0 191#010090A1410021
(1728486099.498696) vcan0 133#0000000089
(1728486099.499709) vcan0 136#000200000000000C
(1728486099.499715) vcan0 13A#000000000000000A
(1728486099.499718) vcan0 13F#0000000500000000
(1728486099.499720) vcan0 164#0000C01AA8000022
(1728486099.500757) vcan0 17C#0000000010000003
(1728486099.500763) vcan0 18E#00004D
(1728486099.500766) vcan0 1CF#80050000000F
(1728486099.500773) vcan0 1DC#0200000C
(1728486099.502535) vcan0 183#000000100000100A
(1728486099.502545) vcan0 143#6B6B00C2
(1728486099.504434) vcan0 244#000000013D
(1728486099.504594) vcan0 095#800007F400000035
(1728486099.505617) vcan0 1A4#000000080000002F
(1728486099.505628) vcan0 1AA#7FFF000000006720
(1728486099.505630) vcan0 1B0#000F0000000166
(1728486099.505633) vcan0 1D0#000000000000000A
(1728486099.507346) vcan0 166#D0320009
(1728486099.508369) vcan0 158#000000000000000A
(1728486099.508376) vcan0 161#000005500108000D
(1728486099.509398) vcan0 191#010090A1410030
(1728486099.509404) vcan0 133#0000000098
(1728486099.509406) vcan0 136#000200000000001B
(1728486099.509408) vcan0 13A#0000000000000019
(1728486099.509410) vcan0 13F#000000050000001F
(1728486099.511235) vcan0 164#0000C01AA9000030
(1728486099.511246) vcan0 17C#0000000010000012
(1728486099.511248) vcan0 18E#00005C
(1728486099.512261) vcan0 039#0039
(1728486099.512270) vcan0 183#0000000C0000101E
(1728486099.512272) vcan0 143#6B6B00D1
(1728486099.515174) vcan0 244#0000000142
(1728486099.515231) vcan0 095#800007F400000008
(1728486099.517252) vcan0 166#D0320018
(1728486099.518274) vcan0 158#0000000000000019
(1728486099.518280) vcan0 161#000005500108001C
(1728486099.519292) vcan0 191#010090A1410003
(1728486099.519298) vcan0 133#00000000A7
(1728486099.519301) vcan0 136#000200000000002A
(1728486099.519303) vcan0 13A#0000000000000028
(1728486099.520312) vcan0 13F#000000050000002E
(1728486099.520318) vcan0 164#0000C01AA8000004
(1728486099.520320) vcan0 17C#0000000010000021
(1728486099.520322) vcan0 18E#00006B
(1728486099.520324) vcan0 1CF#80050000001E
(1728486099.521337) vcan0 1DC#0200001B
(1728486099.521343) vcan0 183#0000001000001028
(1728486099.522358) vcan0 143#6B6B00E0
(1728486099.524872) vcan0 095#800007F400000017
(1728486099.524880) vcan0 1A4#000000080000003E
(1728486099.525895) vcan0 1AA#7FFF00000000683E
(1728486099.525904) vcan0 1B0#000F0000000175
(1728486099.525907) vcan0 1D0#000000000000000A
(1728486099.526925) vcan0 039#000C
(1728486099.526935) vcan0 166#D0320027
(1728486099.528958) vcan0 158#0000000000000028
(1728486099.528965) vcan0 161#000005500108002B
(1728486099.528967) vcan0 191#010090A1410012
(1728486099.528969) vcan0 133#00000000B6
(1728486099.528971) vcan0 136#0002000000000039
(1728486099.529983) vcan0 13A#0000000000000037
(1728486099.529988) vcan0 13F#000000050000003D
(1728486099.529991) vcan0 164#0000C01AA8000013
(1728486099.529993) vcan0 17C#0000000010000030
(1728486099.529995) vcan0 18E#00007A
(1728486099.530246) vcan0 244#00000001BA
(1728486099.531007) vcan0 294#040B0002CF5A003B
(1728486099.531016) vcan0 21E#03E8374522063E
(1728486099.532028) vcan0 183#0000001300001034
(1728486099.532034) vcan0 143#6B6B00FF
(1728486099.535071) vcan0 095#800007F800000022
(1728486099.537542) vcan0 166#D0320036
(1728486099.538558) vcan0 158#0000000000000037
(1728486099.538565) vcan0 161#000005500108003A
(1728486099.538567) vcan0 191#010090A1410021
(1728486099.540440) vcan0 133#0000000089
(1728486099.540446) vcan0 136#000200000000000C
(1728486099.540449) vcan0 13A#000000000000000A
(1728486099.540451) vcan0 13F#0000000500000000
(1728486099.540453) vcan0 164#0000C01AA8000022
(1728486099.540455) vcan0 17C#0000000010000003
(1728486099.540458) vcan0 18E#00004D
(1728486099.540460) vcan0 1CF#80050000002D
(1728486099.540462) vcan0 1DC#0200002A
(1728486099.541473) vcan0 305#8035
(1728486099.541479) vcan0 183#0000000E0000100D
(1728486099.542492) vcan0 143#6B6B00C2
(1728486099.543516) vcan0 333#0000000000003C
(1728486099.544537) vcan0 095#800007F800000031
(1728486099.545467) vcan0 244#000000012E
(1728486099.545631) vcan0 1A4#0000000800000001
(1728486099.545636) vcan0 1AA#7FFF000000006801
(1728486099.545638) vcan0 1B0#000F0000000148
(1728486099.545640) vcan0 1D0#000000000000000A
(1728486099.547328) vcan0 039#001B
(1728486099.547335) vcan0 166#D0320009
(1728486099.549199) vcan0 158#000000000000000A
(1728486099.549206) vcan0 161#000005500108000D
(1728486099.549209) vcan0 191#010090A1410030
(1728486099.549211) vcan0 133#0000000098
(1728486099.549213) vcan0 136#000200000000001B
(1728486099.549215) vcan0 13A#0000000000000019
(1728486099.550224) vcan0 13F#000000050000001F
(1728486099.550231) vcan0 164#0000C01AA8000031
(1728486099.550233) vcan0 17C#0000000010000012
(1728486099.550235) vcan0 18E#00005C
(1728486099.552256) vcan0 183#0000000A00001010
(1728486099.552264) vcan0 143#6B6B00D1
(1728486099.554280) vcan0 095#800007F800000004
(1728486099.555995) vcan0 244#00000001CD
(1728486099.557013) vcan0 166#D0320018
(1728486099.558028) vcan0 158#0000000000000019
(1728486099.559044) vcan0 161#000005500108001C
(1728486099.559052) vcan0 191#010090A1410003
(1728486099.559054) vcan0 133#00000000A7
(1728486099.559057) vcan0 136#000200000000002A
(1728486099.560074) vcan0 13A#0000000000000028
(1728486099.560082) vcan0 13F#000000050000002E
(1728486099.560084) vcan0 164#0000C01AA8000004
(1728486099.560086) vcan0 039#002A
(1728486099.560089) vcan0 17C#0000000010000021
(1728486099.561103) vcan0 18E#00006B
(1728486099.561110) vcan0 1CF#80050000003C
(1728486099.561112) vcan0 1DC#02000039
(1728486099.561114) vcan0 320#000030
(1728486099.561116) vcan0 324#7465000000000E38
(1728486099.562800) vcan0 37C#FD00FD00097F0038
(1728486099.562807) vcan0 183#0000000700001022
(1728486099.562809) vcan0 143#6B6B00E0
(1728486099.565735) vcan0 095#800007F800000013
(1728486099.565744) vcan0 1A4#0000000800000010
(1728486099.565746) vcan0 1AA#7FFF000000006810
(1728486099.565749) vcan0 1B0#000F0000000157
(1728486099.565751) vcan0 1D0#000000000000000A
(1728486099.566707) vcan0 244#000000015C
(1728486099.566763) vcan0 166#D0320027
(1728486099.568792) vcan0 158#0000000000000028
(1728486099.568800) vcan0 161#000005500108002B
(1728486099.568802) vcan0 191#010090A1410012
(1728486099.568805) vcan0 133#00000000B6
(1728486099.569815) vcan0 136#0002000000000039
(1728486099.569822) vcan0 13A#0000000000000037
(1728486099.569824) vcan0 13F#000000050000003D
(1728486099.569826) vcan0 164#0000C01AA8000013
(1728486099.570843) vcan0 17C#0000000010000030
(1728486099.570852) vcan0 18E#00007A
(1728486099.570855) vcan0 294#040B0002CF5A000E
(1728486099.570857) vcan0 21E#03E83745220601
(1728486099.572532) vcan0 183#0000000500001033
(1728486099.572539) vcan0 143#6B6B00FF
(1728486099.573552) vcan0 039#0039
(1728486099.574568) vcan0 095#800007F800000022
(1728486099.577556) vcan0 244#000000010D
(1728486099.577712) vcan0 166#D0320036
(1728486099.578731) vcan0 158#0000000000000037
(1728486099.578738) vcan0 161#000005500108003A
(1728486099.578740) vcan0 191#010090A1410021
(1728486099.578742) vcan0 164#0000C01AA8000022
(1728486099.580282) vcan0 133#0000000089
(1728486099.580291) vcan0 136#000200000000000C
(1728486099.580293) vcan0 13A#000000000000000A
(1728486099.580295) vcan0 13F#0000000500000000
(1728486099.580297) vcan0 17C#0000000010000003
(1728486099.580300) vcan0 18E#00004D
(1728486099.580303) vcan0 1CF#80050000000F
(1728486099.581312) vcan0 1DC#0200000C
(1728486099.581319) vcan0 183#0000000B00001000
(1728486099.582332) vcan0 143#6B6B00C2
(1728486099.584359) vcan0 095#800007F800000031
(1728486099.585497) vcan0 1A4#000000080000002F
(1728486099.585504) vcan0 1AA#7FFF000000006720
(1728486099.585506) vcan0 1B0#000F0000000166
(1728486099.585508) vcan0 1D0#000000000000000A
(1728486099.587126) vcan0 166#D0320009
(1728486099.588144) vcan0 158#000000000000000A
(1728486099.589162) vcan0 161#000005500108000D
(1728486099.589169) vcan0 191#010090A1410030
(1728486099.589172) vcan0 039#000C
(1728486099.589174) vcan0 133#0000000098
(1728486099.589176) vcan0 136#000200000000001B
(1728486099.591146) vcan0 13A#0000000000000019
(1728486099.591158) vcan0 13F#000000050000001F
(1728486099.591161) vcan0 164#0000C01AA8000031
(1728486099.591163) vcan0 17C#0000000010000012
(1728486099.591165) vcan0 18E#00005C
(1728486099.591167) vcan0 309#0000000000000084
(1728486099.592183) vcan0 183#0000000800001012
(1728486099.592192) vcan0 143#6B6B00D1
(1728486099.593134) vcan0 244#00000001D2
(1728486099.595221) vcan0 095#800007F800000004
(1728486099.596853) vcan0 166#D0320018
(1728486099.598807) vcan0 158#0000000000000019
(1728486099.598814) vcan0 161#000005500108001C
(1728486099.598817) vcan0 191#010090A1410003
(1728486099.598819) vcan0 133#00000000A7
(1728486099.600744) vcan0 136#000200000000002A
(1728486099.600751) vcan0 13A#0000000000000028
(1728486099.600753) vcan0 13F#000000050000002E
(1728486099.600755) vcan0 164#0000C01AA8000004
(1728486099.600757) vcan0 17C#0000000010000021
(1728486099.600760) vcan0 18E#00006B
(1728486099.600762) vcan0 1CF#80050000001E
(1728486099.600764) vcan0 1DC#0200001B
(1728486099.601776) vcan0 183#0000000D0000102C
(1728486099.602810) vcan0 143#6B6B00E0
(1728486099.602822) vcan0 039#001B
(1728486099.604643) vcan0 244#000000019D
(1728486099.604651) vcan0 095#800007F800000013
(1728486099.605667) vcan0 1A4#000000080000003E
(1728486099.605676) vcan0 1AA#7FFF00000000683E
(1728486099.605678) vcan0 1B0#000F0000000175
(1728486099.605680) vcan0 1D0#000000000000000A
(1728486099.608520) vcan0 166#D0320027
(1728486099.608529) vcan0 158#0000000000000028
(1728486099.608531) vcan0 161#000005500108002B
(1728486099.608533) vcan0 191#010090A1410012
(1728486099.609546) vcan0 133#00000000B6
(1728486099.609554) vcan0 136#0002000000000039
(1728486099.609557) vcan0 13A#0000000000000037
(1728486099.609559) vcan0 13F#000000050000003D
(1728486099.610593) vcan0 164#0000C01AA8000013
(1728486099.610599) vcan0 17C#0000000010000030
(1728486099.610601) vcan0 18E#00007A
(1728486099.610604) vcan0 294#040B0002CF5A001D
(1728486099.610606) vcan0 21E#03E83745220610
(1728486099.612700) vcan0 183#000000090000103F
(1728486099.612711) vcan0 143#6B6B00FF
(1728486099.614739) vcan0 095#800007F800000022
(1728486099.617317) vcan0 166#D0320036
(1728486099.618329) vcan0 039#002A
(1728486099.618337) vcan0 158#0000000000000037
(1728486099.618339) vcan0 161#000005500108003A
(1728486099.619351) vcan0 191#010090A1410021
(1728486099.619357) vcan0 164#0000C01AA8000022
(1728486099.619359) vcan0 133#0000000089
(1728486099.619361) vcan0 136#000200000000000C
(1728486099.619363) vcan0 13A#000000000000000A
(1728486099.620199) vcan0 244#000000015B
(1728486099.620429) vcan0 13F#0000000500000000
(1728486099.620433) vcan0 17C#0000000010000003
(1728486099.620435) vcan0 18E#00004D
(1728486099.620437) vcan0 1CF#80050000002D
(1728486099.620440) vcan0 1DC#0200002A
(1728486099.622144) vcan0 183#0000000600001005
(1728486099.622152) vcan0 143#6B6B00C2
(1728486099.625061) vcan0 095#800007F800000031
(1728486099.625069) vcan0 1A4#0000000800000001
(1728486099.625071) vcan0 1AA#7FFF000000006801
(1728486099.626086) vcan0 1B0#000F0000000148
(1728486099.626092) vcan0 1D0#000000000000000A
(1728486099.627109) vcan0 166#D0320009
(1728486099.628135) vcan0 158#000000000000000A
(1728486099.629150) vcan0 161#000005500108000D
(1728486099.629156) vcan0 191#010090A1410030
(1728486099.629159) vcan0 133#0000000098
(1728486099.629161) vcan0 136#000200000000001B
(1728486099.629163) vcan0 13A#0000000000000019
(1728486099.630908) vcan0 244#00000001FC
(1728486099.630916) vcan0 13F#000000050000001F
(1728486099.630919) vcan0 164#0000C01AA8000031
(1728486099.630921) vcan0 17C#0000000010000012
(1728486099.630924) vcan0 18E#00005C
(1728486099.631938) vcan0 183#0000000C0000101E
(1728486099.632955) vcan0 143#6B6B00D1
(1728486099.632961) vcan0 039#0039
(1728486099.634991) vcan0 095#800007F800000004
(1728486099.637015) vcan0 166#D0320018
(1728486099.638033) vcan0 158#0000000000000019
(1728486099.639048) vcan0 161#000005500108001C
(1728486099.639057) vcan0 191#010090A1410003
(1728486099.639060) vcan0 133#00000000A7
(1728486099.639062) vcan0 136#000200000000002A
(1728486099.640075) vcan0 13A#0000000000000028
(1728486099.640082) vcan0 13F#000000050000002E
(1728486099.640084) vcan0 164#0000C01AA8000004
(1728486099.640086) vcan0 17C#0000000010000021
(1728486099.640089) vcan0 18E#00006B
(1728486099.641096) vcan0 1CF#80050000003C
(1728486099.641103) vcan0 1DC#02000039
(1728486099.642609) vcan0 183#0000000900001020
(1728486099.642616) vcan0 143#6B6B00E0
(1728486099.643634) vcan0 333#0000000000000F
(1728486099.644654) vcan0 095#800007F800000013
(1728486099.644662) vcan0 1A4#0000000800000010
(1728486099.646480) vcan0 244#000000010F
(1728486099.646488) vcan0 1AA#7FFF000000006711
(1728486099.646490) vcan0 1B0#000F0000000157
(1728486099.646493) vcan0 1D0#000000000000000A
(1728486099.646495) vcan0 305#8008
(1728486099.647507) vcan0 166#D0320027
(1728486099.648519) vcan0 158#0000000000000028
(1728486099.648525) vcan0 161#000005500108002B
(1728486099.648528) vcan0 191#010090A1410012
(1728486099.649538) vcan0 133#00000000B6
(1728486099.649545) vcan0 136#0002000000000039
(1728486099.649547) vcan0 13A#0000000000000037
(1728486099.649549) vcan0 13F#000000050000003D
(1728486099.651327) vcan0 164#0000C01AA8000013
(1728486099.651332) vcan0 17C#0000000010000030
(1728486099.651334) vcan0 18E#00007A
(1728486099.651336) vcan0 294#040B0002CF5A002C
(1728486099.651339) vcan0 21E#03E8374522062F
(1728486099.652347) vcan0 183#0000000E0000103A
(1728486099.652352) vcan0 143#6B6B00FF
(1728486099.653366) vcan0 039#000C
(1728486099.654380) vcan0 095#800007F800000022
(1728486099.657176) vcan0 244#00000001C0
(1728486099.657185) vcan0 166#D0320036
(1728486099.658203) vcan0 158#0000000000000037
(1728486099.658211) vcan0 161#000005500108003A
(1728486099.659224) vcan0 191#010010A1410029
(1728486099.659234) vcan0 133#0000000089
(1728486099.659237) vcan0 136#000200000000000C
(1728486099.659239) vcan0 13A#000000000000000A
(1728486099.660256) vcan0 13F#0000000500000000
(1728486099.660265) vcan0 164#0000C01AA8000022
(1728486099.660267) vcan0 17C#0000000010000003
(1728486099.660269) vcan0 18E#00004D
(1728486099.660273) vcan0 1CF#80050000000F
(1728486099.662045) vcan0 1DC#0200000C
(1728486099.662052) vcan0 320#000003
(1728486099.662055) vcan0 324#7465000000000E0B
(1728486099.662057) vcan0 37C#FD00FD00097F000B
(1728486099.662059) vcan0 183#0000001200001008
(1728486099.663078) vcan0 143#6B6B00C2
(1728486099.665113) vcan0 095#800007F800000031
(1728486099.665122) vcan0 1A4#000000080000002F
(1728486099.665124) vcan0 039#001B
(1728486099.665127) vcan0 1AA#7FFF000000006720
(1728486099.666955) vcan0 1B0#000F0000000166
(1728486099.666962) vcan0 1D0#000000000000000A
(1728486099.666964) vcan0 166#D0320009
(1728486099.667979) vcan0 158#000000000000000A
(1728486099.668998) vcan0 161#000005500108000D
(1728486099.669005) vcan0 191#010010A1410038
(1728486099.669007) vcan0 133#0000000098
(1728486099.669010) vcan0 136#000200000000001B
(1728486099.670025) vcan0 13A#0000000000000019
(1728486099.670031) vcan0 13F#000000050000001F
(1728486099.670034) vcan0 164#0000C01AA8000031
(1728486099.670036) vcan0 17C#0000000010000012
(1728486099.670038) vcan0 18E#00005C
(1728486099.671761) vcan0 183#0000000D0000101D
(1728486099.672767) vcan0 244#00000001D7
(1728486099.672835) vcan0 143#6B6B00D1
(1728486099.674861) vcan0 095#800007F800000004
(1728486099.677637) vcan0 166#D0320018
(1728486099.678665) vcan0 158#0000000000000019
(1728486099.678673) vcan0 161#000005500108001C
(1728486099.678675) vcan0 191#010010A141000B
(1728486099.678677) vcan0 164#0000C01AA8000004
(1728486099.679691) vcan0 133#00000000A7
(1728486099.679697) vcan0 136#000200000000002A
(1728486099.679699) vcan0 13A#0000000000000028
(1728486099.679701) vcan0 13F#000000050000002E
(1728486099.679703) vcan0 039#002A
(1728486099.681505) vcan0 17C#0000000010000021
(1728486099.681512) vcan0 18E#00006B
(1728486099.681515) vcan0 1CF#80050000001E
(1728486099.681517) vcan0 1DC#0200001B
(1728486099.681519) vcan0 183#0000000900001020
(1728486099.682532) vcan0 143#6B6B00E0
(1728486099.685377) vcan0 095#800007F400000017
(1728486099.685385) vcan0 1A4#000000080000003E
(1728486099.685387) vcan0 1AA#7FFF00000000683E
(1728486099.685389) vcan0 1B0#000F0000000175
(1728486099.686397) vcan0 1D0#000000000000000A
(1728486099.687413) vcan0 166#D0320027
(1728486099.688305) vcan0 244#00000001C8
(1728486099.688492) vcan0 158#0000000000000028
(1728486099.688497) vcan0 161#000005500108002B
(1728486099.688499) vcan0 191#010010A141001A
(1728486099.689512) vcan0 133#00000000B6
(1728486099.689517) vcan0 136#0002000000000039
(1728486099.689519) vcan0 13A#0000000000000037
(1728486099.689521) vcan0 13F#000000050000003D
(1728486099.691217) vcan0 164#0000C01AA8000013
(1728486099.691223) vcan0 17C#0000000010000030
(1728486099.691225) vcan0 18E#00007A
(1728486099.691227) vcan0 294#040B0002CF5A003B
(1728486099.691229) vcan0 21E#03E8374522063E
(1728486099.691232) vcan0 309#0000000000000093
(1728486099.692240) vcan0 183#0000000600001032
(1728486099.692245) vcan0 143#6B6B00FF
(1728486099.694141) vcan0 039#0039
(1728486099.695162) vcan0 095#800007F400000026
(1728486099.697188) vcan0 166#D0320036
(1728486099.698206) vcan0 158#0000000000000037
(1728486099.698211) vcan0 161#000005500108003A
(1728486099.699151) vcan0 244#0000000156
(1728486099.699224) vcan0 191#010010A1410029
(1728486099.699228) vcan0 133#0000000089
(1728486099.699230) vcan0 136#000200000000000C
(1728486099.699232) vcan0 13A#000000000000000A
(1728486099.700918) vcan0 13F#0000000500000000
(1728486099.700927) vcan0 164#0000C01AA8000022
(1728486099.700929) vcan0 17C#0000000010000003
(1728486099.700931) vcan0 18E#00004D
(1728486099.700934) vcan0 1CF#80050000002D
(1728486099.700936) vcan0 1DC#0200002A
(1728486099.701947) vcan0 183#0000000C0000100F
(1728486099.702967) vcan0 143#6B6B00C2
(1728486099.704992) vcan0 095#800007F400000035
(1728486099.705004) vcan0 1A4#0000000800000001
(1728486099.705006) vcan0 1AA#7FFF000000006801
(1728486099.706746) vcan0 1B0#000F0000000148
(1728486099.706750) vcan0 1D0#000000000000000A
(1728486099.706752) vcan0 166#D0320009
(1728486099.707762) vcan0 039#000C
(1728486099.708783) vcan0 158#000000000000000A
(1728486099.708792) vcan0 161#000005500108000D
(1728486099.708794) vcan0 191#010010A1410038
(1728486099.708796) vcan0 133#0000000098
(1728486099.709712) vcan0 244#0000000156
(1728486099.709803) vcan0 136#000200000000001B
(1728486099.709809) vcan0 13A#0000000000000019
(1728486099.709811) vcan0 13F#000000050000001F
(1728486099.709813) vcan0 164#0000C01AA8000031
(1728486099.710833) vcan0 17C#0000000010000012
(1728486099.710844) vcan0 18E#00005C
(1728486099.711855) vcan0 183#0000001000001019
(1728486099.713581) vcan0 143#6B6B00D1
(1728486099.714628) vcan0 095#800007F400000008
(1728486099.717525) vcan0 166#D0320018
(1728486099.719429) vcan0 158#0000000000000019
(1728486099.719434) vcan0 161#000005500108001C
(1728486099.719436) vcan0 191#010010A141000B
(1728486099.719439) vcan0 133#00000000A7
(1728486099.719441) vcan0 136#000200000000002A
(1728486099.719443) vcan0 13A#0000000000000028
(1728486099.719445) vcan0 13F#000000050000002E
(1728486099.720457) vcan0 164#0000C01AA8000004
(1728486099.720462) vcan0 17C#0000000010000021
(1728486099.720464) vcan0 18E#00006B
(1728486099.720467) vcan0 1CF#80050000003C
(1728486099.720469) vcan0 1DC#02000039
(1728486099.721482) vcan0 183#0000000C0000102D
(1728486099.723353) vcan0 143#6B6B00E0
(1728486099.723358) vcan0 039#001B
(1728486099.724367) vcan0 095#800007F400000017
(1728486099.725272) vcan0 244#0000000169
(1728486099.725437) vcan0 1A4#0000000800000010
(1728486099.725442) vcan0 1AA#7FFF000000006711
(1728486099.725444) vcan0 1B0#000F0000000157
(1728486099.725446) vcan0 1D0#000000000000000A
(1728486099.727476) vcan0 166#D0320027
(1728486099.728604) vcan0 158#0000000000000028
(1728486099.728611) vcan0 161#000005500108002B
(1728486099.728614) vcan0 191#010010A141001A
(1728486099.728616) vcan0 133#00000000B6
(1728486099.730131) vcan0 136#0002000000000039
(1728486099.730135) vcan0 13A#0000000000000037
(1728486099.730139) vcan0 13F#000000050000003D
(1728486099.730141) vcan0 164#0000C01AA8000013
(1728486099.730143) vcan0 17C#0000000010000030
(1728486099.730145) vcan0 18E#00007A
(1728486099.731156) vcan0 294#040B0002CF5A000E
(1728486099.731160) vcan0 21E#03E83745220601
(1728486099.732177) vcan0 183#0000001000001037
(1728486099.732182) vcan0 143#6B6B00FF
(1728486099.735040) vcan0 095#800007F400000026
(1728486099.736064) vcan0 039#002A
(1728486099.737079) vcan0 166#D0320036
(1728486099.738849) vcan0 158#0000000000000037
(1728486099.738854) vcan0 161#000005500108003A
(1728486099.738856) vcan0 191#010010A1410029
(1728486099.738859) vcan0 133#0000000089
(1728486099.738861) vcan0 136#000200000000000C
(1728486099.740834) vcan0 244#00000001C7
(1728486099.740839) vcan0 13A#000000000000000A
(1728486099.740843) vcan0 13F#0000000500000000
(1728486099.740845) vcan0 164#0000C01AA8000022
(1728486099.740847) vcan0 17C#0000000010000003
(1728486099.740849) vcan0 18E#00004D
(1728486099.740851) vcan0 1CF#80050000000F
(1728486099.740854) vcan0 1DC#0200000C
(1728486099.741871) vcan0 183#0000000C0000100F
(1728486099.742886) vcan0 143#6B6B00C2
(1728486099.742891) vcan0 333#0000000000001E
(1728486099.744911) vcan0 095#800007F400000035
(1728486099.744923) vcan0 1A4#000000080000002F
(1728486099.744926) vcan0 1AA#7FFF000000006720
(1728486099.745941) vcan0 1B0#000F0000000166
(1728486099.745950) vcan0 1D0#000000000000000A
(1728486099.746968) vcan0 166#D0320009
(1728486099.748624) vcan0 305#8017
(1728486099.748628) vcan0 158#000000000000000A
(1728486099.748631) vcan0 161#000005500108000D
(1728486099.748633) vcan0 191#010010A1410038
(1728486099.748635) vcan0 133#0000000098
(1728486099.749644) vcan0 136#000200000000001B
(1728486099.749648) vcan0 13A#0000000000000019
(1728486099.749650) vcan0 13F#000000050000001F
(1728486099.749652) vcan0 164#0000C01AA8000031
(1728486099.750738) vcan0 17C#0000000010000012
(1728486099.750743) vcan0 18E#00005C
(1728486099.752499) vcan0 183#0000000900001011
(1728486099.752503) vcan0 143#6B6B00D1
(1728486099.754455) vcan0 095#800007F400000008
(1728486099.755471) vcan0 039#0039
(1728486099.756411) vcan0 244#000000011E
(1728486099.757495) vcan0 166#D0320018
(1728486099.758520) vcan0 158#0000000000000019
(1728486099.758526) vcan0 161#000005500108001C
(1728486099.758528) vcan0 191#010010A141000B
(1728486099.759544) vcan0 133#00000000A7
(1728486099.759554) vcan0 136#000200000000002A
(1728486099.759556) vcan0 13A#0000000000000028
(1728486099.759558) vcan0 13F#000000050000002E
(1728486099.760574) vcan0 164#0000C01AA8000004
(1728486099.760581) vcan0 17C#0000000010000021
(1728486099.760583) vcan0 18E#00006B
(1728486099.760585) vcan0 1CF#80050000001E
(1728486099.760587) vcan0 1DC#0200001B
(1728486099.760589) vcan0 320#000012
(1728486099.761604) vcan0 324#7465000000000E1A
(1728486099.761608) vcan0 37C#FD00FD00097F001A
(1728486099.761610) vcan0 40C#0236323239533039
(1728486099.761612) vcan0 183#0000000E0000102B
(1728486099.761614) vcan0 454#23EF36
(1728486099.763225) vcan0 143#6B6B00E0
(1728486099.765147) vcan0 095#800007F400000017
(1728486099.765152) vcan0 1A4#000000080000003E
(1728486099.765154) vcan0 1AA#7FFF00000000683E
(1728486099.766164) vcan0 1B0#000F0000000175
(1728486099.766168) vcan0 1D0#000000000000000A
(1728486099.766464) vcan0 244#000000012F
(1728486099.767180) vcan0 166#D0320027
(1728486099.768196) vcan0 158#0000000000000028
(1728486099.768201) vcan0 039#000C
(1728486099.769211) vcan0 161#000005500108002B
(1728486099.769216) vcan0 191#010010A141001A
(1728486099.769218) vcan0 133#00000000B6
(1728486099.769220) vcan0 136#0002000000000039
(1728486099.770230) vcan0 13A#0000000000000037
(1728486099.770235) vcan0 13F#000000050000003D
(1728486099.770238) vcan0 164#0000C01AA8000013
(1728486099.770240) vcan0 17C#0000000010000030
(1728486099.770242) vcan0 18E#00007A
(1728486099.771255) vcan0 294#040B0002CF5A001D
(1728486099.771259) vcan0 21E#03E83745220610
(1728486099.772277) vcan0 183#0000000A0000103E
(1728486099.772285) vcan0 143#6B6B00FF
(1728486099.774889) vcan0 095#800007F400000026
(1728486099.777804) vcan0 166#D0320036
(1728486099.778836) vcan0 158#0000000000000037
(1728486099.778844) vcan0 161#000005500108003A
(1728486099.778846) vcan0 191#010010A1410029
(1728486099.778850) vcan0 133#0000000089
(1728486099.778853) vcan0 136#000200000000000C
(1728486099.780712) vcan0 13A#000000000000000A
(1728486099.780719) vcan0 13F#0000000500000000
(1728486099.780722) vcan0 164#0000C01AA8000022
(1728486099.780724) vcan0 17C#0000000010000003
(1728486099.780726) vcan0 18E#00004D
(1728486099.780728) vcan0 1CF#80050000002D
(1728486099.780730) vcan0 1DC#0200002A
(1728486099.781694) vcan0 244#00000001D0
(1728486099.781756) vcan0 183#0000000700001004
(1728486099.782773) vcan0 143#6B6B00C2
(1728486099.784607) vcan0 095#800007F400000035
(1728486099.784614) vcan0 039#001B
(1728486099.785622) vcan0 1A4#0000000800000001
(1728486099.785626) vcan0 1AA#7FFF000000006801
(1728486099.785629) vcan0 1B0#000F0000000148
(1728486099.785631) vcan0 1D0#000000000000000A
(1728486099.788503) vcan0 166#D0320009
(1728486099.788510) vcan0 158#000000000000000A
(1728486099.788512) vcan0 161#000005500108000D
(1728486099.788514) vcan0 191#010010A1410038
(1728486099.789529) vcan0 133#0000000098
(1728486099.789533) vcan0 136#000200000000001B
(1728486099.789535) vcan0 13A#0000000000000019
(1728486099.789537) vcan0 13F#000000050000001F
(1728486099.790548) vcan0 164#0000C01AA8000031
(1728486099.790553) vcan0 17C#0000000010000012
(1728486099.790555) vcan0 18E#00005C
(1728486099.790557) vcan0 309#00000000000000A2
(1728486099.790559) vcan0 428#01040000521C01
(1728486099.792476) vcan0 244#000000013A
(1728486099.792487) vcan0 405#000004000000000B
(1728486099.792492) vcan0 183#0000000D0000101D
(1728486099.792494) vcan0 143#6B6B00D1
(1728486099.794524) vcan0 095#800007F400000008
(1728486099.798263) vcan0 166#D0320018
(1728486099.798271) vcan0 158#0000000000000019
(1728486099.798273) vcan0 161#000005500108001C
(1728486099.799288) vcan0 191#010010A141000B
(1728486099.799292) vcan0 039#002A
(1728486099.799295) vcan0 133#00000000A7
(1728486099.799297) vcan0 136#000200000000002A
(1728486099.799299) vcan0 13A#0000000000000028
(1728486099.801238) vcan0 13F#000000050000002E
(1728486099.801248) vcan0 164#0000C01AA8000004
(1728486099.801250) vcan0 17C#0000000010000021
(1728486099.801254) vcan0 18E#00006B
(1728486099.801256) vcan0 1CF#80050000003C
(1728486099.801258) vcan0 1DC#02000039
(1728486099.802270) vcan0 183#0000000900001020
(1728486099.802280) vcan0 143#6B6B00E0
(1728486099.804079) vcan0 244#0000000138
(1728486099.805095) vcan0 095#800007F400000017
(1728486099.805101) vcan0 1A4#0000000800000010
(1728486099.805104) vcan0 1AA#7FFF000000006711
(1728486099.805106) vcan0 1B0#000F0000000157
(1728486099.806120) vcan0 1D0#000000000000000A
(1728486099.807150) vcan0 166#D0320027
(1728486099.808165) vcan0 158#0000000000000028
(1728486099.809906) vcan0 161#000005500108002B
(1728486099.809914) vcan0 191#010010A141001A
(1728486099.809918) vcan0 133#00000000B6
(1728486099.809920) vcan0 136#0002000000000039
(1728486099.809922) vcan0 13A#0000000000000037
(1728486099.809924) vcan0 13F#000000050000003D
(1728486099.809927) vcan0 164#0000C01AA8000013
(1728486099.809929) vcan0 17C#0000000010000030
(1728486099.810946) vcan0 18E#00007A
(1728486099.810952) vcan0 294#040B0002CF5A002C
(1728486099.810955) vcan0 21E#03E8374522062F
(1728486099.811965) vcan0 183#0000000E0000103A
(1728486099.812985) vcan0 143#6B6B00FF
(1728486099.815831) vcan0 244#0000000158
(1728486099.815838) vcan0 095#800007F400000026
(1728486099.815841) vcan0 5A1#960000000000623E
(1728486099.816855) vcan0 166#D0320036
(1728486099.818876) vcan0 158#0000000000000037
(1728486099.818882) vcan0 161#000005500108003A
(1728486099.818884) vcan0 191#010010A1410029
(1728486099.818886) vcan0 133#0000000089
(1728486099.818888) vcan0 039#0039
(1728486099.820632) vcan0 136#000200000000000C
(1728486099.820639) vcan0 13A#000000000000000A
(1728486099.820641) vcan0 13F#0000000500000000
(1728486099.820644) vcan0 164#0000C01AA8000022
(1728486099.820647) vcan0 17C#0000000010000003
(1728486099.820649) vcan0 18E#00004D
(1728486099.820651) vcan0 1CF#80050000000F
(1728486099.820653) vcan0 1DC#0200000C
(1728486099.821672) vcan0 183#0000000A00001001
(1728486099.823581) vcan0 143#6B6B00C2
(1728486099.824618) vcan0 095#800007F400000035
(1728486099.824625) vcan0 1A4#000000080000002F
(1728486099.825716) vcan0 1AA#7FFF000000006720
(1728486099.825725) vcan0 1B0#000F0000000166
(1728486099.825727) vcan0 1D0#000000000000000A
(1728486099.826798) vcan0 166#D0320009
(1728486099.828401) vcan0 158#000000000000000A
(1728486099.828409) vcan0 161#000005500108000D
(1728486099.830394) vcan0 191#010010A1410038
(1728486099.830404) vcan0 133#0000000098
(1728486099.830407) vcan0 136#000200000000001B
(1728486099.830409) vcan0 13A#0000000000000019
(1728486099.830411) vcan0 13F#000000050000001F
(1728486099.830413) vcan0 164#0000C01AA8000031
(1728486099.830416) vcan0 17C#0000000010000012
(1728486099.830418) vcan0 18E#00005C
(1728486099.831314) vcan0 244#0000000133
(1728486099.833325) vcan0 183#0000000700001013
(1728486099.833335) vcan0 143#6B6B00D1
(1728486099.835219) vcan0 039#000C
(1728486099.835228) vcan0 095#800007F400000008
(1728486099.838086) vcan0 166#D0320018
(1728486099.838094) vcan0 158#0000000000000019
(1728486099.839337) vcan0 161#000005500108001C
(1728486099.839343) vcan0 191#010010A141000B
(1728486099.839346) vcan0 133#00000000A7
(1728486099.839348) vcan0 136#000200000000002A
(1728486099.839350) vcan0 13A#0000000000000028
(1728486099.839352) vcan0 13F#000000050000002E
(1728486099.841046) vcan0 164#0000C01AA8000004
(1728486099.841052) vcan0 17C#0000000010000021
(1728486099.841055) vcan0 18E#00006B
(1728486099.841057) vcan0 1CF#80050000001E
(1728486099.841059) vcan0 1DC#0200001B
(1728486099.842058) vcan0 244#00000001CE
(1728486099.842459) vcan0 183#0000000500001024
(1728486099.842466) vcan0 143#6B6B00E0
(1728486099.843607) vcan0 333#0000000000002D
(1728486099.844899) vcan0 095#800007F400000017
(1728486099.844907) vcan0 1A4#000000080000003E
(1728486099.846900) vcan0 1AA#7FFF00000000683E
(1728486099.846906) vcan0 1B0#000F0000000175
(1728486099.846909) vcan0 1D0#000000000000000A
(1728486099.846911) vcan0 039#001B
(1728486099.846913) vcan0 166#D0320027
(1728486099.848832) vcan0 158#0000000000000028
(1728486099.848839) vcan0 161#000005500108002B
(1728486099.848841) vcan0 191#010010A141001A
(1728486099.848843) vcan0 133#00000000B6
(1728486099.848846) vcan0 136#0002000000000039
(1728486099.850850) vcan0 13A#0000000000000037
(1728486099.850861) vcan0 13F#000000050000003D
(1728486099.850864) vcan0 164#0000C01AA8000013
(1728486099.850866) vcan0 17C#0000000010000030
(1728486099.850868) vcan0 18E#00007A
(1728486099.850870) vcan0 294#040B0002CF5A003B
(1728486099.850873) vcan0 21E#03E8374522063E
(1728486099.852739) vcan0 244#00000001F9
(1728486099.852765) vcan0 183#0000000300001035
(1728486099.852774) vcan0 143#6B6B00FF
(1728486099.854664) vcan0 305#8026
(1728486099.854672) vcan0 095#800007F400000026
(1728486099.856807) vcan0 166#D0320036
(1728486099.858615) vcan0 158#0000000000000037
(1728486099.858623) vcan0 161#000005500108003A
(1728486099.858625) vcan0 191#010010A1410029
(1728486099.858627) vcan0 133#0000000089
(1728486099.860556) vcan0 136#000200000000000C
(1728486099.860562) vcan0 13A#000000000000000A
(1728486099.860564) vcan0 13F#0000000500000000
(1728486099.860567) vcan0 164#0000C01AA8000022
(1728486099.860569) vcan0 039#002A
(1728486099.860571) vcan0 17C#0000000010000003
(1728486099.860573) vcan0 18E#00004D
(1728486099.860575) vcan0 1CF#80050000002D
(1728486099.860579) vcan0 1DC#0200002A
(1728486099.862171) vcan0 320#000021
(1728486099.862182) vcan0 324#7465000000000E29
(1728486099.862184) vcan0 37C#FD00FD00097F0029
(1728486099.862187) vcan0 183#0000000A00001001
(1728486099.862189) vcan0 143#6B6B00C2
(1728486099.864470) vcan0 244#0000000141
(1728486099.864762) vcan0 095#800007F400000035
(1728486099.864791) vcan0 1A4#0000000800000001
(1728486099.866526) vcan0 1AA#7FFF000000006801
(1728486099.866537) vcan0 1B0#000F0000000148
(1728486099.866540) vcan0 1D0#000000000000000A
(1728486099.868498) vcan0 166#D0320009
(1728486099.868509) vcan0 158#000000000000000A
(1728486099.868512) vcan0 161#000005500108000D
(1728486099.868514) vcan0 191#010010A1410038
(1728486099.869555) vcan0 133#0000000098
(1728486099.869567) vcan0 136#000200000000001B
(1728486099.869569) vcan0 13A#0000000000000019
(1728486099.869572) vcan0 13F#000000050000001F
(1728486099.871292) vcan0 164#0000C01AA8000031
(1728486099.871302) vcan0 17C#0000000010000012
(1728486099.871305) vcan0 18E#00005C
(1728486099.873331) vcan0 183#0000000700001013
(1728486099.873343) vcan0 143#6B6B00D1
(1728486099.875160) vcan0 095#800007F400000008
(1728486099.876151) vcan0 244#0000000168
(1728486099.878205) vcan0 166#D0320018
(1728486099.878231) vcan0 158#0000000000000019
(1728486099.878233) vcan0 161#000005500108001C
(1728486099.880128) vcan0 191#010010A141000B
(1728486099.880142) vcan0 133#00000000A7
(1728486099.880145) vcan0 136#000200000000002A
(1728486099.880148) vcan0 13A#0000000000000028
(1728486099.880150) vcan0 13F#000000050000002E
(1728486099.880153) vcan0 164#0000C01AA8000004
(1728486099.880155) vcan0 039#0039
(1728486099.880158) vcan0 17C#0000000010000021
(1728486099.880160) vcan0 18E#00006B
(1728486099.881172) vcan0 1CF#80050000003C
(1728486099.881180) vcan0 1DC#02000039
(1728486099.883057) vcan0 183#0000000500001024
(1728486099.883068) vcan0 143#6B6B00E0
(1728486099.884878) vcan0 095#800007F400000017
(1728486099.884885) vcan0 1A4#0000000800000010
(1728486099.884888) vcan0 1AA#7FFF000000006711
(1728486099.886858) vcan0 1B0#000F0000000157
(1728486099.886865) vcan0 1D0#000000000000000A
(1728486099.886867) vcan0 166#D0320027
(1728486099.888803) vcan0 244#000000014F
(1728486099.889797) vcan0 158#0000000000000028
(1728486099.889804) vcan0 161#000005500108002B
(1728486099.889806) vcan0 191#010010A141001A
(1728486099.889809) vcan0 133#00000000B6
(1728486099.889811) vcan0 136#0002000000000039
(1728486099.889813) vcan0 13A#0000000000000037
(1728486099.889815) vcan0 13F#000000050000003D
(1728486099.889817) vcan0 164#0000C01AA8000013
(1728486099.891695) vcan0 17C#0000000010000030
(1728486099.891702) vcan0 18E#00007A
(1728486099.891705) vcan0 294#040B0002CF5A000E
(1728486099.891707) vcan0 21E#03E83745220601
(1728486099.891709) vcan0 309#00000000000000B1
(1728486099.892824) vcan0 183#0000000B0000103D
(1728486099.892836) vcan0 143#6B6B00FF
(1728486099.894226) vcan0 039#000C
(1728486099.895721) vcan0 095#800007F400000026
(1728486099.897657) vcan0 166#D0320036
(1728486099.899531) vcan0 158#0000000000000037
(1728486099.899539) vcan0 161#000005500108003A
(1728486099.899541) vcan0 191#010010A1410029
(1728486099.899544) vcan0 133#0000000089
(1728486099.899546) vcan0 136#000200000000000C
(1728486099.899548) vcan0 13A#000000000000000A
(1728486099.899550) vcan0 13F#0000000500000000
(1728486099.901460) vcan0 164#0000C01AA8000022
(1728486099.901460) vcan0 244#000000011B
(1728486099.901466) vcan0 17C#0000000010000003
(1728486099.901469) vcan0 18E#00004D
(1728486099.901471) vcan0 1CF#80050000000F
(1728486099.901473) vcan0 1DC#0200000C
(1728486099.901475) vcan0 183#0000000800001003
(1728486099.903410) vcan0 143#6B6B00C2
(1728486099.905389) vcan0 095#800007F400000035
(1728486099.905400) vcan0 1A4#000000080000002F
(1728486099.905403) vcan0 1AA#7FFF000000006720
(1728486099.905405) vcan0 1B0#000F0000000166
(1728486099.905407) vcan0 1D0#000000000000000A
(1728486099.908351) vcan0 166#D0320009
(1728486099.908371) vcan0 039#001B
(1728486099.908374) vcan0 158#000000000000000A
(1728486099.908376) vcan0 161#000005500108000D
(1728486099.909395) vcan0 191#010010A1410038
(1728486099.909406) vcan0 133#0000000098
(1728486099.909409) vcan0 136#000200000000001B
(1728486099.909411) vcan0 13A#0000000000000019
(1728486099.909413) vcan0 13F#000000050000001F
(1728486099.911210) vcan0 164#0000C01AA8000031
(1728486099.911222) vcan0 17C#0000000010000012
(1728486099.911224) vcan0 18E#00005C
(1728486099.913121) vcan0 244#00000001C6
(1728486099.913243) vcan0 183#0000000600001014
(1728486099.913253) vcan0 143#6B6B00D1
(1728486099.915091) vcan0 095#800007F400000008
(1728486099.917114) vcan0 166#D0320018
(1728486099.919062) vcan0 158#0000000000000019
(1728486099.919074) vcan0 161#000005500108001C
(1728486099.919076) vcan0 191#010010A141000B
(1728486099.919079) vcan0 133#00000000A7
(1728486099.919081) vcan0 136#000200000000002A
(1728486099.921000) vcan0 13A#0000000000000028
(1728486099.921012) vcan0 13F#000000050000002E
(1728486099.921014) vcan0 164#0000C01AA8000004
(1728486099.921016) vcan0 17C#0000000010000021
(1728486099.921018) vcan0 18E#00006B
(1728486099.921021) vcan0 1CF#80050000001E
(1728486099.921023) vcan0 1DC#0200001B
(1728486099.922973) vcan0 183#0000000C0000102D
(1728486099.922999) vcan0 143#6B6B00E0
(1728486099.923016) vcan0 039#002A
(1728486099.924813) vcan0 244#00000001A6
(1728486099.924878) vcan0 095#800007F400000017
(1728486099.924888) vcan0 1A4#000000080000003E
(1728486099.925917) vcan0 1AA#7FFF00000000683E
(1728486099.925931) vcan0 1B0#000F0000000175
(1728486099.925934) vcan0 1D0#000000000000000A
(1728486099.926991) vcan0 166#D0320027
(1728486099.928273) vcan0 158#0000000000000028
(1728486099.928284) vcan0 161#000005500108002B
(1728486099.929371) vcan0 191#010010A141001A
(1728486099.929381) vcan0 133#00000000B6
(1728486099.929383) vcan0 136#0002000000000039
(1728486099.929385) vcan0 13A#0000000000000037
(1728486099.929387) vcan0 13F#000000050000003D
(1728486099.929938) vcan0 188#00000000
(1728486099.930481) vcan0 164#0000C01AA8000013
(1728486099.930489) vcan0 17C#0000000010000030
(1728486099.930492) vcan0 18E#00007A
(1728486099.930494) vcan0 294#040B0002CF5A001D
(1728486099.930496) vcan0 21E#03E83745220610
(1728486099.932711) vcan0 183#000000090000103F
(1728486099.932725) vcan0 143#6B6B00FF
(1728486099.935539) vcan0 244#0000000166
(1728486099.935545) vcan0 095#800007F400000026
(1728486099.939416) vcan0 166#D0320036
(1728486099.939436) vcan0 158#0000000000000037
(1728486099.939438) vcan0 161#000005500108003A
(1728486099.939440) vcan0 191#010010A1410029
(1728486099.939443) vcan0 133#0000000089
(1728486099.939445) vcan0 136#000200000000000C
(1728486099.939447) vcan0 13A#000000000000000A
(1728486099.939451) vcan0 13F#0000000500000000
(1728486099.940620) vcan0 164#0000C01AA8000022
(1728486099.940631) vcan0 17C#0000000010000003
(1728486099.940634) vcan0 18E#00004D
(1728486099.940636) vcan0 1CF#80050000002D
(1728486099.940639) vcan0 1DC#0200002A
(1728486099.942425) vcan0 183#0000000E0000100D
(1728486099.942436) vcan0 143#6B6B00C2
(1728486099.943647) vcan0 039#0039
(1728486099.943655) vcan0 333#0000000000003C
(1728486099.945253) vcan0 095#800007F400000035
(1728486099.945264) vcan0 1A4#0000000800000001
(1728486099.945266) vcan0 1AA#7FFF000000006801
(1728486099.945268) vcan0 1B0#000F0000000148
(1728486099.947143) vcan0 1D0#000000000000000A
(1728486099.947151) vcan0 166#D0320009
(1728486099.949243) vcan0 158#000000000000000A
(1728486099.949253) vcan0 161#000005500108000D
(1728486099.949255) vcan0 191#010010A1410038
(1728486099.949258) vcan0 133#0000000098
(1728486099.949260) vcan0 136#000200000000001B
(1728486099.949263) vcan0 13A#0000000000000019
(1728486099.951072) vcan0 13F#000000050000001F
(1728486099.951079) vcan0 164#0000C01AA8000031
(1728486099.951081) vcan0 17C#0000000010000012
(1728486099.951083) vcan0 18E#00005C
(1728486099.952050) vcan0 244#000000012F
(1728486099.952575) vcan0 183#0000000A00001010
(1728486099.952581) vcan0 143#6B6B00D1
(1728486099.955051) vcan0 095#800007F400000008
(1728486099.956912) vcan0 305#8035
(1728486099.956925) vcan0 166#D0320018
(1728486099.958981) vcan0 158#0000000000000019
(1728486099.959013) vcan0 161#000005500108001C
(1728486099.959033) vcan0 191#010090A1410003
(1728486099.959035) vcan0 133#00000000A7
(1728486099.959038) vcan0 136#000200000000002A
(1728486099.960119) vcan0 13A#0000000000000028
(1728486099.960127) vcan0 13F#000000050000002E
(1728486099.960130) vcan0 164#0000C01AA8000004
(1728486099.960132) vcan0 17C#0000000010000021
(1728486099.960134) vcan0 18E#00006B
(1728486099.961395) vcan0 1CF#80050000003C
(1728486099.961411) vcan0 1DC#02000039
(1728486099.961415) vcan0 320#000030
(1728486099.961417) vcan0 324#7465000000000E38
(1728486099.961419) vcan0 37C#FD00FD00097F0038
(1728486099.962820) vcan0 183#0000000F0000102A
(1728486099.962830) vcan0 143#6B6B00E0
(1728486099.963885) vcan0 244#000000011E
(1728486099.963898) vcan0 039#000C
(1728486099.965645) vcan0 095#800007F400000017
(1728486099.965655) vcan0 1A4#0000000800000010
(1728486099.965657) vcan0 1AA#7FFF000000006711
(1728486099.965660) vcan0 1B0#000F0000000157
(1728486099.965662) vcan0 1D0#000000000000000A
(1728486099.967680) vcan0 166#D0320027
(1728486099.968700) vcan0 158#0000000000000028
(1728486099.968709) vcan0 161#000005500108002B
(1728486099.968711) vcan0 191#010090A1410012
(1728486099.968714) vcan0 133#00000000B6
(1728486099.969727) vcan0 136#0002000000000039
(1728486099.969735) vcan0 13A#0000000000000037
(1728486099.969737) vcan0 13F#000000050000003D
(1728486099.969739) vcan0 164#0000C01AA8000013
(1728486099.970747) vcan0 17C#0000000010000030
(1728486099.970754) vcan0 18E#00007A
(1728486099.970756) vcan0 294#040B0002CF5A002C
(1728486099.970758) vcan0 21E#03E8374522062F
(1728486099.972453) vcan0 183#0000001300001034
(1728486099.972461) vcan0 143#6B6B00FF
(1728486099.974406) vcan0 244#000000018F
(1728486099.974481) vcan0 095#800007F400000026
(1728486099.977519) vcan0 166#D0320036
(1728486099.977537) vcan0 039#001B
(1728486099.978547) vcan0 158#0000000000000037
(1728486099.978557) vcan0 161#000005500108003A
(1728486099.978559) vcan0 191#010090A1410021
(1728486099.980260) vcan0 133#0000000089
(1728486099.980268) vcan0 136#000200000000000C
(1728486099.980270) vcan0 13A#000000000000000A
(1728486099.980273) vcan0 13F#0000000500000000
(1728486099.980275) vcan0 164#0000C01AA8000022
(1728486099.980277) vcan0 17C#0000000010000003
(1728486099.980279) vcan0 18E#00004D
(1728486099.980281) vcan0 1CF#80050000000F
(1728486099.981294) vcan0 1DC#0200000C
(1728486099.982313) vcan0 183#0000000E0000100D
(1728486099.982323) vcan0 143#6B6B00C2
(1728486099.984344) vcan0 095#800007F400000035
(1728486099.985364) vcan0 1A4#000000080000002F
(1728486099.985371) vcan0 1AA#7FFF000000006720
(1728486099.985373) vcan0 1B0#000F0000000166
(1728486099.985375) vcan0 1D0#000000000000000A
(1728486099.988019) vcan0 166#D0320009
(1728486099.988027) vcan0 158#000000000000000A
(1728486099.989038) vcan0 161#000005500108000D
(1728486099.989046) vcan0 191#010090A1410030
(1728486099.989048) vcan0 133#0000000098
(1728486099.989050) vcan0 136#000200000000001B
(1728486099.990118) vcan0 13A#0000000000000019
(1728486099.990126) vcan0 13F#000000050000001F
(1728486099.990128) vcan0 164#0000C01AA8000031
(1728486099.990131) vcan0 17C#0000000010000012
(1728486099.990133) vcan0 18E#00005C
(1728486099.990302) vcan0 244#000000011D
(1728486099.991163) vcan0 309#0000000000000084
(1728486099.991175) vcan0 039#002A
(1728486099.992185) vcan0 183#0000000A00001010
(1728486099.992193) vcan0 143#6B6B00D1
(1728486099.994831) vcan0 095#800007F400000008
(1728486099.996864) vcan0 166#D0320018
(1728486099.998738) vcan0 158#0000000000000019
(1728486099.998746) vcan0 161#000005500108001C
(1728486099.998748) vcan0 191#010090A1410003
(1728486099.998750) vcan0 133#00000000A7
(1728486100.000675) vcan0 136#000200000000002A
(1728486100.000683) vcan0 13A#0000000000000028
(1728486100.000685) vcan0 13F#000000050000002E
(1728486100.000687) vcan0 164#0000C01AA8000004
(1728486100.000690) vcan0 17C#0000000010000021
(1728486100.000692) vcan0 18E#00006B
(1728486100.000694) vcan0 1CF#80050000001E
(1728486100.000696) vcan0 1DC#0200001B
(1728486100.000829) vcan0 244#0000000157
(1728486100.001709) vcan0 183#0000000700001022
(1728486100.003411) vcan0 143#6B6B00E0
(1728486100.004433) vcan0 095#800007F400000017
(1728486100.005538) vcan0 1A4#000000080000003E
(1728486100.005545) vcan0 1AA#7FFF00000000683E
(1728486100.005552) vcan0 039#0039
(1728486100.005554) vcan0 1B0#000F0000000175
(1728486100.006570) vcan0 1D0#000000000000000A
(1728486100.008448) vcan0 166#D0320027
(1728486100.008454) vcan0 158#0000000000000028
(1728486100.008456) vcan0 161#000005500108002B
(1728486100.008458) vcan0 191#010090A1410012
(1728486100.009474) vcan0 133#00000000B6
(1728486100.009485) vcan0 136#0002000000000039
(1728486100.009488) vcan0 13A#0000000000000037
(1728486100.009490) vcan0 13F#000000050000003D
(1728486100.010631) vcan0 164#0000C01AA8000013
(1728486100.010643) vcan0 17C#0000000010000030
(1728486100.010645) vcan0 18E#00007A
(1728486100.010647) vcan0 294#040B0002CF5A003B
(1728486100.010649) vcan0 21E#03E8374522063E
(1728486100.011580) vcan0 244#0000000187
(1728486100.013343) vcan0 183#0000000D0000103B
(1728486100.013355) vcan0 143#6B6B00FF
(1728486100.015265) vcan0 095#800007F400000026
(1728486100.017231) vcan0 166#D0320036
(1728486100.018270) vcan0 158#0000000000000037
(1728486100.018280) vcan0 161#000005500108003A
(1728486100.019290) vcan0 191#010090A1410021
(1728486100.019296) vcan0 133#0000000089
(1728486100.019299) vcan0 136#000200000000000C
(1728486100.019301) vcan0 13A#000000000000000A
(1728486100.020308) vcan0 13F#0000000500000000
(1728486100.020315) vcan0 039#000C
(1728486100.020318) vcan0 164#0000C01AA8000022
(1728486100.020320) vcan0 17C#0000000010000003
(1728486100.020322) vcan0 18E#00004D
(1728486100.020324) vcan0 1CF#80050000002D
(1728486100.021337) vcan0 1DC#0200002A
(1728486100.023047) vcan0 244#00000001B6
(1728486100.023056) vcan0 183#0000001100001009
(1728486100.023058) vcan0 143#6B6B00C2
(1728486100.025171) vcan0 095#800007F400000035
(1728486100.025185) vcan0 1A4#0000000800000001
(1728486100.025187) vcan0 1AA#7FFF000000006801
(1728486100.025190) vcan0 1B0#000F0000000148
(1728486100.026208) vcan0 1D0#000000000000000A
(1728486100.027229) vcan0 166#D0320009
(1728486100.028250) vcan0 158#000000000000000A
(1728486100.028258) vcan0 161#000005500108000D
(1728486100.029844) vcan0 191#010090A1410030
(1728486100.029851) vcan0 133#0000000098
(1728486100.029854) vcan0 136#000200000000001B
(1728486100.029856) vcan0 13A#0000000000000019
(1728486100.029858) vcan0 13F#000000050000001F
(1728486100.029861) vcan0 164#0000C01AA8000031
(1728486100.029863) vcan0 17C#0000000010000012
(1728486100.030878) vcan0 18E#00005C
(1728486100.031919) vcan0 183#0000000C0000101E
(1728486100.032945) vcan0 143#6B6B00D1
(1728486100.034715) vcan0 039#001B
(1728486100.034723) vcan0 095#800007F400000008
(1728486100.036742) vcan0 166#D0320018
(1728486100.038163) vcan0 244#0000000184
(1728486100.038779) vcan0 158#0000000000000019
(1728486100.038790) vcan0 161#000005500108001C
(1728486100.038792) vcan0 191#010090A1410003
(1728486100.038794) vcan0 133#00000000A7
(1728486100.039810) vcan0 136#000200000000002A
(1728486100.039819) vcan0 13A#0000000000000028
(1728486100.039821) vcan0 13F#000000050000002E
(1728486100.039824) vcan0 164#0000C01AA8000004
(1728486100.039826) vcan0 17C#0000000010000021
(1728486100.041535) vcan0 18E#00006B
(1728486100.041543) vcan0 1CF#80050000003C
(1728486100.041545) vcan0 1DC#02000039
(1728486100.041548) vcan0 183#0000001000001028
(1728486100.043496) vcan0 143#6B6B00E0
(1728486100.043503) vcan0 333#0000000000000F
(1728486100.045003) vcan0 095#800007F400000017
(1728486100.045016) vcan0 1A4#0000000800000010
(1728486100.045018) vcan0 1AA#7FFF000000006711
(1728486100.046044) vcan0 1B0#000F0000000157
(1728486100.046053) vcan0 1D0#000000000000000A
(1728486100.048344) vcan0 039#002A
(1728486100.048353) vcan0 166#D0320027
(1728486100.048355) vcan0 158#0000000000000028
(1728486100.048359) vcan0 161#000005500108002B
(1728486100.048533) vcan0 244#00000001E3
(1728486100.049373) vcan0 191#010090A1410012
(1728486100.049381) vcan0 133#00000000B6
(1728486100.049383) vcan0 136#0002000000000039
(1728486100.049385) vcan0 13A#0000000000000037
(1728486100.049387) vcan0 13F#000000050000003D
(1728486100.050396) vcan0 164#0000C01AA8000013
(1728486100.050403) vcan0 17C#0000000010000030
(1728486100.050406) vcan0 18E#00007A
(1728486100.050408) vcan0 294#040B0002CF5A000E
(1728486100.051772) vcan0 21E#03E83745220601
(1728486100.053220) vcan0 183#0000000C0000103C
(1728486100.053230) vcan0 143#6B6B00FF
(1728486100.056150) vcan0 095#800007F400000026
(1728486100.058092) vcan0 166#D0320036
(1728486100.058109) vcan0 158#0000000000000037
(1728486100.059221) vcan0 161#000005500108003A
(1728486100.059246) vcan0 191#010090A1410021
(1728486100.059248) vcan0 133#0000000089
(1728486100.059252) vcan0 136#000200000000000C
(1728486100.059254) vcan0 13A#000000000000000A
(1728486100.059257) vcan0 039#0039
(1728486100.059342) vcan0 244#00000001A9
(1728486100.060466) vcan0 13F#0000000500000000
(1728486100.060481) vcan0 164#0000C01AA8000022
(1728486100.060483) vcan0 17C#0000000010000003
(1728486100.060486) vcan0 18E#00004D
(1728486100.060488) vcan0 1CF#80050000000F
(1728486100.060490) vcan0 1DC#0200000C
(1728486100.062058) vcan0 305#8008
(1728486100.062070) vcan0 320#000003
(1728486100.062073) vcan0 324#7465000000000E0B
(1728486100.062075) vcan0 37C#FD00FD00097F000B
(1728486100.062078) vcan0 183#0000000900001002
(1728486100.062080) vcan0 40C#033133383439000D
(1728486100.062083) vcan0 454#23EF09
(1728486100.062087) vcan0 143#6B6B00C2
(1728486100.065583) vcan0 095#800007F400000035
(1728486100.065595) vcan0 1A4#000000080000002F
(1728486100.065597) vcan0 1AA#7FFF000000006720
(1728486100.065600) vcan0 1B0#000F0000000166
(1728486100.065602) vcan0 1D0#000000000000000A
(1728486100.066844) vcan0 166#D0320009
(1728486100.068799) vcan0 158#000000000000000A
(1728486100.068806) vcan0 161#000005500108000D
(1728486100.068808) vcan0 191#010090A1410030
(1728486100.068810) vcan0 133#0000000098
(1728486100.070751) vcan0 136#000200000000001B
(1728486100.070757) vcan0 13A#0000000000000019
(1728486100.070759) vcan0 13F#000000050000001F
(1728486100.070761) vcan0 164#0000C01AA8000031
(1728486100.070764) vcan0 17C#0000000010000012
(1728486100.070766) vcan0 18E#00005C
(1728486100.072288) vcan0 244#0000000168
(1728486100.072323) vcan0 183#0000000E0000101C
(1728486100.072328) vcan0 143#6B6B00D1
(1728486100.074607) vcan0 039#000C
(1728486100.074619) vcan0 095#800007F400000008
(1728486100.077786) vcan0 166#D0320018
(1728486100.079249) vcan0 158#0000000000000019
(1728486100.079264) vcan0 161#000005500108001C
(1728486100.079267) vcan0 191#010090A1410003
(1728486100.079269) vcan0 133#00000000A7
(1728486100.079271) vcan0 136#000200000000002A
(1728486100.079273) vcan0 13A#0000000000000028
(1728486100.080288) vcan0 13F#000000050000002E
(1728486100.080297) vcan0 164#0000C01AA8000004
(1728486100.080300) vcan0 17C#0000000010000021
(1728486100.080302) vcan0 18E#00006B
(1728486100.080304) vcan0 1CF#80050000001E
(1728486100.081410) vcan0 1DC#0200001B
(1728486100.081417) vcan0 183#0000000A0000102F
(1728486100.083393) vcan0 244#00000001D6
(1728486100.083400) vcan0 143#6B6B00E0
(1728486100.084414) vcan0 095#800007F400000017
(1728486100.085733) vcan0 1A4#000000080000003E
(1728486100.085762) vcan0 1AA#7FFF00000000683E
(1728486100.085765) vcan0 1B0#000F0000000175
(1728486100.085768) vcan0 1D0#000000000000000A
(1728486100.086785) vcan0 166#D0320027
(1728486100.088236) vcan0 158#0000000000000028
(1728486100.088249) vcan0 161#000005500108002B
(1728486100.090194) vcan0 191#010090A1410012
(1728486100.090201) vcan0 133#00000000B6
(1728486100.090203) vcan0 136#0002000000000039
(1728486100.090205) vcan0 13A#0000000000000037
(1728486100.090208) vcan0 039#001B
(1728486100.090210) vcan0 13F#000000050000003D
(1728486100.090212) vcan0 164#0000C01AA8000013
(1728486100.090214) vcan0 17C#0000000010000030
(1728486100.090216) vcan0 18E#00007A
(1728486100.091234) vcan0 294#040B0002CF5A001D
(1728486100.091244) vcan0 21E#03E83745220610
(1728486100.091247) vcan0 309#0000000000000093
(1728486100.091249) vcan0 428#01040000521C10
(1728486100.092796) vcan0 405#000004000000001A
(1728486100.092812) vcan0 183#0000000700001031
(1728486100.092815) vcan0 143#6B6B00FF
(1728486100.096112) vcan0 095#800007F400000026
(1728486100.097140) vcan0 166#D0320036
(1728486100.098951) vcan0 158#0000000000000037
(1728486100.098957) vcan0 161#000005500108003A
(1728486100.098961) vcan0 191#010090A1410021
(1728486100.098963) vcan0 133#0000000089
(1728486100.098965) vcan0 136#000200000000000C
(1728486100.099677) vcan0 244#000000019C
(1728486100.100476) vcan0 13A#000000000000000A
(1728486100.100485) vcan0 13F#0000000500000000
(1728486100.100487) vcan0 164#0000C01AA8000022
(1728486100.100489) vcan0 17C#0000000010000003
(1728486100.100492) vcan0 18E#00004D
(1728486100.100494) vcan0 1CF#80050000002D
(1728486100.100496) vcan0 1DC#0200002A
(1728486100.101874) vcan0 183#0000000D0000100E
(1728486100.102955) vcan0 143#6B6B00C2
(1728486100.104879) vcan0 039#002A
(1728486100.104890) vcan0 095#800007F400000035
(1728486100.104892) vcan0 1A4#0000000800000001
(1728486100.104895) vcan0 1AA#7FFF000000006801
(1728486100.106652) vcan0 1B0#000F0000000148
(1728486100.106660) vcan0 1D0#000000000000000A
(1728486100.107710) vcan0 166#D0320009
(1728486100.109782) vcan0 158#000000000000000A
(1728486100.109790) vcan0 161#000005500108000D
(1728486100.109793) vcan0 191#010090A1410030
(1728486100.109795) vcan0 133#0000000098
(1728486100.109797) vcan0 136#000200000000001B
(1728486100.109799) vcan0 13A#0000000000000019
(1728486100.109802) vcan0 13F#000000050000001F
(1728486100.109804) vcan0 164#0000C01AA9000030
(1728486100.110780) vcan0 244#00000001ED
(1728486100.110837) vcan0 17C#0000000010000012
(1728486100.110843) vcan0 18E#00005C
(1728486100.112607) vcan0 183#0000000900001011
(1728486100.112618) vcan0 143#6B6B00D1
(1728486100.115572) vcan0 095#800007F400000008
(1728486100.118414) vcan0 166#D0320018
(1728486100.118422) vcan0 158#0000000000000019
(1728486100.118425) vcan0 161#000005500108001C
(1728486100.118427) vcan0 191#010090A1410003
(1728486100.119508) vcan0 133#00000000A7
(1728486100.119516) vcan0 136#000200000000002A
(1728486100.119519) vcan0 13A#0000000000000028
(1728486100.119521) vcan0 13F#000000050000002E
(1728486100.121135) vcan0 164#0000C01AA8000004
(1728486100.121149) vcan0 17C#0000000010000021
(1728486100.121152) vcan0 18E#00006B
(1728486100.121154) vcan0 1CF#80050000003C
(1728486100.121157) vcan0 1DC#02000039
(1728486100.122338) vcan0 244#00000001B9
(1728486100.122486) vcan0 183#0000000E0000102B
(1728486100.122493) vcan0 143#6B6B00E0
(1728486100.124301) vcan0 039#0039
(1728486100.125358) vcan0 095#800007F400000017
(1728486100.125366) vcan0 1A4#0000000800000010
(1728486100.125368) vcan0 1AA#7FFF000000006711
(1728486100.125370) vcan0 1B0#000F0000000157
(1728486100.125373) vcan0 1D0#000000000000000A
(1728486100.127517) vcan0 166#D0320027
(1728486100.128649) vcan0 158#0000000000000028
(1728486100.128662) vcan0 161#000005500108002B
(1728486100.128665) vcan0 191#010090A1410012
(1728486100.128667) vcan0 133#00000000B6
(1728486100.130102) vcan0 136#0002000000000039
(1728486100.130110) vcan0 13A#0000000000000037
(1728486100.130113) vcan0 13F#000000050000003D
(1728486100.130115) vcan0 164#0000C01AA8000013
(1728486100.130120) vcan0 17C#0000000010000030
(1728486100.130122) vcan0 18E#00007A
(1728486100.131999) vcan0 294#040B0002CF5A002C
(1728486100.132012) vcan0 21E#03E8374522062F
(1728486100.132014) vcan0 183#0000000A0000103E
(1728486100.133933) vcan0 143#6B6B00FF
(1728486100.134260) vcan0 244#00000001D6
(1728486100.134984) vcan0 095#800007F400000026
(1728486100.136894) vcan0 039#000C
(1728486100.136904) vcan0 166#D0320036
(1728486100.138829) vcan0 158#0000000000000037
(1728486100.138835) vcan0 161#000005500108003A
(1728486100.138837) vcan0 191#010090A1410021
(1728486100.138839) vcan0 133#0000000089
(1728486100.140762) vcan0 136#000200000000000C
(1728486100.140786) vcan0 13A#000000000000000A
(1728486100.140788) vcan0 13F#0000000500000000
(1728486100.140791) vcan0 164#0000C01AA8000022
(1728486100.140794) vcan0 17C#0000000010000003
(1728486100.140797) vcan0 18E#00004D
(1728486100.140799) vcan0 1CF#80050000000F
(1728486100.140802) vcan0 1DC#0200000C
(1728486100.141827) vcan0 183#0000000700001004
(1728486100.143701) vcan0 143#6B6B00C2
(1728486100.143709) vcan0 333#0000000000001E
(1728486100.145665) vcan0 095#800007F400000035
(1728486100.145677) vcan0 1A4#000000080000002F
(1728486100.145680) vcan0 1AA#7FFF000000006720
(1728486100.145682) vcan0 1B0#000F0000000166
(1728486100.145684) vcan0 1D0#000000000000000A
(1728486100.147560) vcan0 166#D0320009
(1728486100.148440) vcan0 244#0000000138
(1728486100.148742) vcan0 158#000000000000000A
(1728486100.148753) vcan0 161#000005500108000D
(1728486100.148756) vcan0 191#010090A1410030
(1728486100.148758) vcan0 133#0000000098
(1728486100.150513) vcan0 136#000200000000001B
(1728486100.150522) vcan0 13A#0000000000000019
(1728486100.150525) vcan0 13F#000000050000001F
(1728486100.150527) vcan0 164#0000C01AA8000031
(1728486100.150529) vcan0 039#001B
(1728486100.150532) vcan0 17C#0000000010000012
(1728486100.150534) vcan0 18E#00005C
(1728486100.152475) vcan0 183#0000000D0000101D
(1728486100.152483) vcan0 143#6B6B00D1
(1728486100.154906) vcan0 095#800007F400000008
(1728486100.158290) vcan0 166#D0320018
(1728486100.158304) vcan0 158#0000000000000019
(1728486100.158307) vcan0 161#000005500108001C
(1728486100.160243) vcan0 191#010090A1410003
(1728486100.160250) vcan0 133#00000000A7
(1728486100.160253) vcan0 136#000200000000002A
(1728486100.160255) vcan0 13A#0000000000000028
(1728486100.160257) vcan0 13F#000000050000002E
(1728486100.160260) vcan0 164#0000C01AA8000004
(1728486100.160262) vcan0 17C#0000000010000021
(1728486100.160264) vcan0 18E#00006B
(1728486100.160267) vcan0 1CF#80050000001E
(1728486100.161676) vcan0 244#0000000126
(1728486100.161790) vcan0 1DC#0200001B
(1728486100.161796) vcan0 320#000012
(1728486100.161798) vcan0 324#7465000000000E1A
(1728486100.161800) vcan0 37C#FD00FD00097F001A
(1728486100.161803) vcan0 183#0000000900001020
(1728486100.162997) vcan0 143#6B6B00E0
(1728486100.163007) vcan0 039#002A
(1728486100.164089) vcan0 305#8017
(1728486100.166082) vcan0 095#800007F400000017
(1728486100.166090) vcan0 1A4#000000080000003E
(1728486100.166092) vcan0 1AA#7FFF00000000683E
(1728486100.166095) vcan0 1B0#000F0000000175
(1728486100.166097) vcan0 1D0#000000000000000A
(1728486100.167164) vcan0 166#D0320027
(1728486100.168519) vcan0 158#0000000000000028
(1728486100.168539) vcan0 161#000005500108002B
(1728486100.168542) vcan0 191#010090A1410012
(1728486100.169977) vcan0 133#00000000B6
(1728486100.169989) vcan0 136#0002000000000039
(1728486100.169991) vcan0 13A#0000000000000037
(1728486100.169993) vcan0 13F#000000050000003D
(1728486100.169995) vcan0 164#0000C01AA8000013
(1728486100.169997) vcan0 17C#0000000010000030
(1728486100.170000) vcan0 18E#00007A
(1728486100.171935) vcan0 294#040B0002CF5A003B
(1728486100.171945) vcan0 21E#03E8374522063E
(1728486100.171948) vcan0 183#0000000E0000103A
(1728486100.173850) vcan0 143#6B6B00FF
(1728486100.173880) vcan0 244#000000012D
(1728486100.175345) vcan0 095#800007F400000026
(1728486100.177761) vcan0 166#D0320036
(1728486100.178790) vcan0 158#0000000000000037
(1728486100.178795) vcan0 161#000005500108003A
(1728486100.178798) vcan0 191#010090A1410021
(1728486100.178801) vcan0 039#0039
(1728486100.178803) vcan0 133#0000000089
(1728486100.180664) vcan0 136#000200000000000C
(1728486100.180671) vcan0 13A#000000000000000A
(1728486100.180673) vcan0 13F#0000000500000000
(1728486100.180675) vcan0 164#0000C01AA8000022
(1728486100.180677) vcan0 17C#0000000010000003
(1728486100.180680) vcan0 18E#00004D
(1728486100.180682) vcan0 1CF#80050000002D
(1728486100.180684) vcan0 1DC#0200002A
(1728486100.182242) vcan0 183#0000000A00001001
(1728486100.182254) vcan0 143#6B6B00C2
(1728486100.184642) vcan0 095#800007F400000035
(1728486100.184655) vcan0 1A4#0000000800000001
(1728486100.186518) vcan0 1AA#7FFF000000006801
(1728486100.186528) vcan0 1B0#000F0000000148
(1728486100.186530) vcan0 1D0#000000000000000A
(1728486100.188437) vcan0 166#D0320009
(1728486100.188443) vcan0 158#000000000000000A
(1728486100.188446) vcan0 161#000005500108000D
(1728486100.188448) vcan0 191#010090A1410030
(1728486100.189691) vcan0 133#0000000098
(1728486100.189702) vcan0 136#000200000000001B
(1728486100.189705) vcan0 13A#0000000000000019
(1728486100.189707) vcan0 13F#000000050000001F
(1728486100.189709) vcan0 164#0000C01AA8000031
(1728486100.190556) vcan0 244#000000010D
(1728486100.190869) vcan0 17C#0000000010000012
(1728486100.190894) vcan0 18E#00005C
(1728486100.190896) vcan0 309#00000000000000A2
(1728486100.192342) vcan0 183#0000000700001013
(1728486100.192350) vcan0 143#6B6B00D1
(1728486100.194279) vcan0 039#000C
(1728486100.196161) vcan0 095#800007F400000008
(1728486100.197224) vcan0 166#D0320018
(1728486100.198247) vcan0 158#0000000000000019
(1728486100.198272) vcan0 161#000005500108001C
(1728486100.200129) vcan0 191#010090A1410003
(1728486100.200136) vcan0 133#00000000A7
(1728486100.200138) vcan0 136#000200000000002A
(1728486100.200141) vcan0 13A#0000000000000028
(1728486100.200143) vcan0 13F#000000050000002E
(1728486100.200145) vcan0 164#0000C01AA8000004
(1728486100.200148) vcan0 17C#0000000010000021
(1728486100.200150) vcan0 18E#00006B
(1728486100.202019) vcan0 1CF#80050000003C
(1728486100.202025) vcan0 1DC#02000039
(1728486100.202028) vcan0 183#0000000500001024
(1728486100.202030) vcan0 143#6B6B00E0
(1728486100.202824) vcan0 244#000000019B
(1728486100.205947) vcan0 095#800007F400000017
(1728486100.205962) vcan0 1A4#0000000800000010
(1728486100.205969) vcan0 1AA#7FFF000000006711
(1728486100.205972) vcan0 1B0#000F0000000157
(1728486100.205974) vcan0 1D0#000000000000000A
(1728486100.205977) vcan0 039#001B
(1728486100.206997) vcan0 166#D0320027
(1728486100.208015) vcan0 158#0000000000000028
(1728486100.209725) vcan0 161#000005500108002B
(1728486100.209736) vcan0 191#010090A1410012
(1728486100.209739) vcan0 133#00000000B6
(1728486100.209741) vcan0 136#0002000000000039
(1728486100.209746) vcan0 13A#0000000000000037
(1728486100.209748) vcan0 13F#000000050000003D
(1728486100.209751) vcan0 164#0000C01AA8000013
(1728486100.210955) vcan0 17C#0000000010000030
(1728486100.210991) vcan0 18E#00007A
(1728486100.210994) vcan0 294#040B0002CF5A000E
(1728486100.210996) vcan0 21E#03E83745220601
(1728486100.212007) vcan0 183#0000000300001035
(1728486100.213028) vcan0 143#6B6B00FF
(1728486100.214700) vcan0 095#800007F400000026
(1728486100.216750) vcan0 166#D0320036
(1728486100.217990) vcan0 244#00000001FD
(1728486100.219566) vcan0 158#0000000000000037
(1728486100.219579) vcan0 161#000005500108003A
(1728486100.219582) vcan0 191#010090A1410021
(1728486100.219584) vcan0 133#0000000089
(1728486100.219587) vcan0 136#000200000000000C
(1728486100.219590) vcan0 13A#000000000000000A
(1728486100.219593) vcan0 13F#0000000500000000
(1728486100.219595) vcan0 164#0000C01AA8000022
(1728486100.220604) vcan0 17C#0000000010000003
(1728486100.220613) vcan0 18E#00004D
(1728486100.220615) vcan0 1CF#80050000000F
(1728486100.220617) vcan0 1DC#0200000C
(1728486100.221626) vcan0 183#0000000A00001001
(1728486100.221635) vcan0 039#002A
(1728486100.223435) vcan0 143#6B6B00C2
(1728486100.224472) vcan0 095#800007F400000035
(1728486100.226377) vcan0 1A4#000000080000002F
(1728486100.226390) vcan0 1AA#7FFF000000006720
(1728486100.226393) vcan0 1B0#000F0000000166
(1728486100.226395) vcan0 1D0#000000000000000A
(1728486100.227915) vcan0 166#D0320009
(1728486100.228472) vcan0 244#0000000178
(1728486100.229016) vcan0 158#000000000000000A
(1728486100.229023) vcan0 161#000005500108000D
(1728486100.229026) vcan0 191#010090A1410030
(1728486100.229028) vcan0 133#0000000098
(1728486100.229030) vcan0 136#000200000000001B
(1728486100.230255) vcan0 13A#0000000000000019
(1728486100.230278) vcan0 13F#000000050000001F
(1728486100.230280) vcan0 164#0000C01AA8000031
(1728486100.230282) vcan0 17C#0000000010000012
(1728486100.230285) vcan0 18E#00005C
(1728486100.232194) vcan0 183#0000000700001013
(1728486100.232210) vcan0 143#6B6B00D1
(1728486100.236124) vcan0 095#800007F400000008
(1728486100.236135) vcan0 039#0039
(1728486100.237334) vcan0 166#D0320018
(1728486100.239026) vcan0 158#0000000000000019
(1728486100.239058) vcan0 161#000005500108001C
(1728486100.239060) vcan0 191#010090A1410003
(1728486100.239064) vcan0 133#00000000A7
(1728486100.239085) vcan0 136#000200000000002A
(1728486100.240020) vcan0 244#00000001B0
(1728486100.240226) vcan0 13A#0000000000000028
(1728486100.240232) vcan0 13F#000000050000002E
(1728486100.240235) vcan0 164#0000C01AA8000004
(1728486100.240237) vcan0 17C#0000000010000021
(1728486100.240240) vcan0 18E#00006B
(1728486100.240242) vcan0 1CF#80050000001E
(1728486100.241966) vcan0 1DC#0200001B
(1728486100.241978) vcan0 183#0000000500001024
(1728486100.241980) vcan0 143#6B6B00E0
(1728486100.243180) vcan0 333#0000000000002D
(1728486100.244882) vcan0 095#800007F400000017
(1728486100.244893) vcan0 1A4#000000080000003E
(1728486100.246826) vcan0 1AA#7FFF00000000683E
(1728486100.246838) vcan0 1B0#000F0000000175
(1728486100.246840) vcan0 1D0#000000000000000A
(1728486100.246843) vcan0 166#D0320027
(1728486100.248765) vcan0 158#0000000000000028
(1728486100.248772) vcan0 161#000005500108002B
(1728486100.248774) vcan0 191#010090A1410012
(1728486100.248777) vcan0 133#00000000B6
(1728486100.250710) vcan0 136#0002000000000039
(1728486100.250718) vcan0 13A#0000000000000037
(1728486100.250720) vcan0 13F#000000050000003D
(1728486100.250722) vcan0 164#0000C01AA8000013
(1728486100.250724) vcan0 17C#0000000010000030
(1728486100.250727) vcan0 18E#00007A
(1728486100.250727) vcan0 244#000000015A
(1728486100.250729) vcan0 294#040B0002CF5A001D
(1728486100.250731) vcan0 21E#03E83745220610
(1728486100.252632) vcan0 183#0000000B0000103D
(1728486100.252641) vcan0 143#6B6B00FF
(1728486100.254619) vcan0 095#800007F400000026
(1728486100.256655) vcan0 039#000C
(1728486100.258509) vcan0 166#D0320036
(1728486100.258517) vcan0 158#0000000000000037
(1728486100.258520) vcan0 161#000005500108003A
(1728486100.258522) vcan0 191#010010A1410029
(1728486100.259757) vcan0 133#0000000089
(1728486100.259764) vcan0 136#000200000000000C
(1728486100.259766) vcan0 13A#000000000000000A
(1728486100.259769) vcan0 13F#0000000500000000
(1728486100.259771) vcan0 164#0000C01AA8000022
(1728486100.261417) vcan0 17C#0000000010000003
(1728486100.261428) vcan0 18E#00004D
(1728486100.261430) vcan0 1CF#80050000002D
(1728486100.261432) vcan0 1DC#0200002A
(1728486100.261434) vcan0 320#000021
(1728486100.261437) vcan0 324#7465000000000E29
(1728486100.261439) vcan0 37C#FD00FD00097F0029
(1728486100.262435) vcan0 244#00000001FB
(1728486100.262512) vcan0 183#0000000800001003
(1728486100.262518) vcan0 143#6B6B00C2
(1728486100.264392) vcan0 095#800007F400000035
(1728486100.265432) vcan0 1A4#0000000800000001
(1728486100.265441) vcan0 1AA#7FFF000000006801
(1728486100.265444) vcan0 1B0#000F0000000148
(1728486100.265446) vcan0 1D0#000000000000000A
(1728486100.267435) vcan0 166#D0320009
(1728486100.269537) vcan0 158#000000000000000A
(1728486100.269547) vcan0 161#000005500108000D
(1728486100.269550) vcan0 039#001B
(1728486100.269552) vcan0 191#010010A1410038
(1728486100.269554) vcan0 133#0000000098
(1728486100.269557) vcan0 136#000200000000001B
(1728486100.269561) vcan0 13A#0000000000000019
(1728486100.269563) vcan0 13F#000000050000001F
(1728486100.271198) vcan0 164#0000C01AA8000031
(1728486100.271207) vcan0 17C#0000000010000012
(1728486100.271209) vcan0 18E#00005C
(1728486100.271211) vcan0 305#8026
(1728486100.272309) vcan0 183#0000000600001014
(1728486100.272316) vcan0 143#6B6B00D1
(1728486100.274333) vcan0 244#000000019C
(1728486100.274506) vcan0 095#800007F400000008
(1728486100.277976) vcan0 166#D0320018
(1728486100.277989) vcan0 158#0000000000000019
(1728486100.279027) vcan0 161#000005500108001C
(1728486100.279033) vcan0 191#010010A141000B
(1728486100.279035) vcan0 133#00000000A7
(1728486100.279038) vcan0 136#000200000000002A
(1728486100.280927) vcan0 13A#0000000000000028
(1728486100.280936) vcan0 13F#000000050000002E
(1728486100.280938) vcan0 164#0000C01AA8000004
(1728486100.280941) vcan0 17C#0000000010000021
(1728486100.280943) vcan0 18E#00006B
(1728486100.280945) vcan0 1CF#80050000003C
(1728486100.280948) vcan0 1DC#02000039
(1728486100.282959) vcan0 183#0000000C0000102D
(1728486100.282969) vcan0 143#6B6B00E0
(1728486100.282972) vcan0 039#002A
(1728486100.284836) vcan0 095#800007F400000017
(1728486100.284843) vcan0 1A4#0000000800000010
(1728486100.286776) vcan0 1AA#7FFF000000006711
(1728486100.286782) vcan0 1B0#000F0000000157
(1728486100.286785) vcan0 1D0#000000000000000A
(1728486100.286787) vcan0 166#D0320027
(1728486100.287735) vcan0 244#0000000193
(1728486100.288383) vcan0 158#0000000000000028
(1728486100.288389) vcan0 161#000005500108002B
(1728486100.289704) vcan0 191#010010A141001A
(1728486100.289712) vcan0 133#00000000B6
(1728486100.289715) vcan0 136#0002000000000039
(1728486100.289717) vcan0 13A#0000000000000037
(1728486100.289719) vcan0 13F#000000050000003D
(1728486100.289721) vcan0 164#0000C01AA8000013
(1728486100.291631) vcan0 17C#0000000010000030
(1728486100.291636) vcan0 18E#00007A
(1728486100.291639) vcan0 294#040B0002CF5A002C
(1728486100.291641) vcan0 21E#03E8374522062F
(1728486100.291645) vcan0 309#00000000000000B1
(1728486100.292822) vcan0 183#000000090000103F
(1728486100.292830) vcan0 143#6B6B00FF
(1728486100.294603) vcan0 095#800007F400000026
(1728486100.298448) vcan0 166#D0320036
(1728486100.298456) vcan0 158#0000000000000037
(1728486100.298459) vcan0 161#000005500108003A
(1728486100.298461) vcan0 191#010010A1410029
(1728486100.299429) vcan0 244#00000001DD
(1728486100.299589) vcan0 039#0039
(1728486100.299595) vcan0 133#0000000089
(1728486100.299597) vcan0 136#000200000000000C
(1728486100.299599) vcan0 13A#000000000000000A
(1728486100.299601) vcan0 13F#0000000500000000
(1728486100.301321) vcan0 164#0000C01AA8000022
(1728486100.301329) vcan0 17C#0000000010000003
(1728486100.301331) vcan0 18E#00004D
(1728486100.301333) vcan0 1CF#80050000000F
(1728486100.301335) vcan0 1DC#0200000C
(1728486100.303372) vcan0 183#0000000E0000100D
(1728486100.303383) vcan0 143#6B6B00C2
(1728486100.304397) vcan0 095#800007F400000035
(1728486100.306237) vcan0 1A4#000000080000002F
(1728486100.306247) vcan0 1AA#7FFF000000006720
(1728486100.306250) vcan0 1B0#000F0000000166
(1728486100.306252) vcan0 1D0#000000000000000A
(1728486100.307294) vcan0 166#D0320009
(1728486100.309149) vcan0 158#000000000000000A
(1728486100.309158) vcan0 161#000005500108000D
(1728486100.309161) vcan0 191#010010A1410038
(1728486100.309163) vcan0 133#0000000098
(1728486100.309165) vcan0 136#000200000000001B
(1728486100.309167) vcan0 13A#0000000000000019
(1728486100.310292) vcan0 13F#000000050000001F
(1728486100.310304) vcan0 164#0000C01AA8000031
(1728486100.310306) vcan0 17C#0000000010000012
(1728486100.310309) vcan0 18E#00005C
(1728486100.312190) vcan0 039#000C
(1728486100.312201) vcan0 183#0000000A00001010
(1728486100.312203) vcan0 143#6B6B00D1
(1728486100.315959) vcan0 244#00000001DE
(1728486100.316146) vcan0 095#800007F800000004
(1728486100.317994) vcan0 166#D0320018
(1728486100.318006) vcan0 158#0000000000000019
(1728486100.319930) vcan0 161#000005500108001C
(1728486100.319950) vcan0 191#010010A141000B
(1728486100.319955) vcan0 133#00000000A7
(1728486100.319957) vcan0 136#000200000000002A
(1728486100.319959) vcan0 13A#0000000000000028
(1728486100.319962) vcan0 13F#000000050000002E
(1728486100.319964) vcan0 164#0000C01AA8000004
(1728486100.319966) vcan0 17C#0000000010000021
(1728486100.319973) vcan0 18E#00006B
(1728486100.320998) vcan0 1CF#80050000001E
(1728486100.321009) vcan0 1DC#0200001B
(1728486100.322804) vcan0 183#0000000700001022
(1728486100.322816) vcan0 143#6B6B00E0
(1728486100.324802) vcan0 095#800007F800000013
(1728486100.324814) vcan0 1A4#000000080000003E
(1728486100.325991) vcan0 1AA#7FFF00000000683E
(1728486100.326000) vcan0 1B0#000F0000000175
(1728486100.326002) vcan0 1D0#000000000000000A
(1728486100.326772) vcan0 244#0000000114
(1728486100.327074) vcan0 166#D0320027
(1728486100.328615) vcan0 039#001B
(1728486100.328623) vcan0 158#0000000000000028
(1728486100.328625) vcan0 161#000005500108002B
(1728486100.328627) vcan0 191#010010A141001A
(1728486100.328630) vcan0 133#00000000B6
(1728486100.330572) vcan0 136#0002000000000039
(1728486100.330580) vcan0 13A#0000000000000037
(1728486100.330583) vcan0 13F#000000050000003D
(1728486100.330585) vcan0 164#0000C01AA8000013
(1728486100.330587) vcan0 17C#0000000010000030
(1728486100.330589) vcan0 18E#00007A
(1728486100.330592) vcan0 294#040B0002CF5A003B
(1728486100.330594) vcan0 21E#03E8374522063E
(1728486100.332536) vcan0 183#0000000D0000103B
(1728486100.332548) vcan0 143#6B6B00FF
(1728486100.336114) vcan0 095#800007F800000022
(1728486100.337360) vcan0 166#D0320036
(1728486100.339299) vcan0 244#0000000128
(1728486100.339319) vcan0 158#0000000000000037
(1728486100.339325) vcan0 161#000005500108003A
(1728486100.339327) vcan0 191#010010A1410029
(1728486100.339330) vcan0 133#0000000089
(1728486100.339332) vcan0 136#000200000000000C
(1728486100.339336) vcan0 13A#000000000000000A
(1728486100.341254) vcan0 13F#0000000500000000
(1728486100.341262) vcan0 164#0000C01AA8000022
(1728486100.341266) vcan0 17C#0000000010000003
(1728486100.341268) vcan0 18E#00004D
(1728486100.341270) vcan0 1CF#80050000002D
(1728486100.341273) vcan0 1DC#0200002A
(1728486100.341275) vcan0 039#002A
(1728486100.343276) vcan0 183#0000000900001002
(1728486100.343289) vcan0 143#6B6B00C2
(1728486100.343291) vcan0 333#0000000000003C
(1728486100.344308) vcan0 095#800007F800000031
(1728486100.346110) vcan0 1A4#0000000800000001
(1728486100.346118) vcan0 1AA#7FFF000000006801
(1728486100.346120) vcan0 1B0#000F0000000148
(1728486100.346122) vcan0 1D0#000000000000000A
(1728486100.348066) vcan0 166#D0320009
(1728486100.348073) vcan0 158#000000000000000A
(1728486100.350000) vcan0 161#000005500108000D
(1728486100.350008) vcan0 191#010010A1410038
(1728486100.350011) vcan0 133#0000000098
(1728486100.350013) vcan0 136#000200000000001B
(1728486100.350015) vcan0 13A#0000000000000019
(1728486100.350017) vcan0 13F#000000050000001F
(1728486100.350019) vcan0 164#0000C01AA8000031
(1728486100.350022) vcan0 17C#0000000010000012
(1728486100.350024) vcan0 18E#00005C
(1728486100.350996) vcan0 244#0000000118
(1728486100.352934) vcan0 183#0000000E0000101C
(1728486100.352943) vcan0 143#6B6B00D1
(1728486100.354887) vcan0 095#800007F800000004
(1728486100.356793) vcan0 166#D0320018
(1728486100.358972) vcan0 158#0000000000000019
(1728486100.358991) vcan0 161#000005500108001C
(1728486100.358996) vcan0 191#010010A141000B
(1728486100.359005) vcan0 133#00000000A7
(1728486100.359008) vcan0 136#000200000000002A
(1728486100.360859) vcan0 13A#0000000000000028
(1728486100.360872) vcan0 13F#000000050000002E
(1728486100.360874) vcan0 164#0000C01AA8000004
(1728486100.360876) vcan0 17C#0000000010000021
(1728486100.360879) vcan0 18E#00006B
(1728486100.360881) vcan0 1CF#80050000003C
(1728486100.360883) vcan0 039#0039
(1728486100.360886) vcan0 1DC#02000039
(1728486100.360889) vcan0 320#000030
(1728486100.360893) vcan0 324#7465000000000E38
(1728486100.361921) vcan0 37C#FD00FD00097F0038
(1728486100.361933) vcan0 40C#0000000004000013
(1728486100.361935) vcan0 183#0000000A0000102F
(1728486100.361938) vcan0 454#23EF18
(1728486100.362018) vcan0 244#0000000140
(1728486100.363786) vcan0 143#6B6B00E0
(1728486100.365625) vcan0 095#800007F800000013
(1728486100.365634) vcan0 1A4#0000000800000010
(1728486100.365636) vcan0 1AA#7FFF000000006711
(1728486100.365638) vcan0 1B0#000F0000000157
(1728486100.365640) vcan0 1D0#000000000000000A
(1728486100.367606) vcan0 166#D0320027
(1728486100.369540) vcan0 158#0000000000000028
(1728486100.369547) vcan0 161#000005500108002B
(1728486100.369550) vcan0 191#010010A141001A
(1728486100.369552) vcan0 133#00000000B6
(1728486100.369554) vcan0 136#0002000000000039
(1728486100.369556) vcan0 13A#0000000000000037
(1728486100.369558) vcan0 13F#000000050000003D
(1728486100.370612) vcan0 164#0000C01AA8000013
(1728486100.370623) vcan0 17C#0000000010000030
(1728486100.370625) vcan0 18E#00007A
(1728486100.370627) vcan0 294#040B0002CF5A000E
(1728486100.370630) vcan0 21E#03E83745220601
(1728486100.372545) vcan0 183#0000000700001031
(1728486100.372556) vcan0 143#6B6B00FF
(1728486100.373424) vcan0 244#00000001E2
(1728486100.373829) vcan0 039#000C
(1728486100.375465) vcan0 305#8035
(1728486100.375475) vcan0 095#800007F800000022
(1728486100.377640) vcan0 166#D0320036
(1728486100.379353) vcan0 158#0000000000000037
(1728486100.379363) vcan0 161#000005500108003A
(1728486100.379366) vcan0 191#010010A1410029
(1728486100.379368) vcan0 133#0000000089
(1728486100.379371) vcan0 136#000200000000000C
(1728486100.379373) vcan0 13A#000000000000000A
(1728486100.379377) vcan0 13F#0000000500000000
(1728486100.381284) vcan0 164#0000C01AA8000022
(1728486100.381295) vcan0 17C#0000000010000003
(1728486100.381297) vcan0 18E#00004D
(1728486100.381299) vcan0 1CF#80050000000F
(1728486100.381302) vcan0 1DC#0200000C
(1728486100.382381) vcan0 183#0000000D0000100E
(1728486100.382390) vcan0 143#6B6B00C2
(1728486100.384306) vcan0 095#800007F800000031
(1728486100.386107) vcan0 1A4#000000080000002F
(1728486100.386115) vcan0 1AA#7FFF000000006720
(1728486100.386117) vcan0 1B0#000F0000000166
(1728486100.386119) vcan0 1D0#000000000000000A
(1728486100.388038) vcan0 166#D0320009
(1728486100.388045) vcan0 158#000000000000000A
(1728486100.389971) vcan0 161#000005500108000D
(1728486100.389980) vcan0 039#001B
(1728486100.389982) vcan0 191#010010A1410038
(1728486100.389984) vcan0 133#0000000098
(1728486100.389986) vcan0 136#000200000000001B
(1728486100.389988) vcan0 13A#0000000000000019
(1728486100.389990) vcan0 13F#000000050000001F
(1728486100.389993) vcan0 164#0000C01AA8000031
(1728486100.389995) vcan0 17C#0000000010000012
(1728486100.390941) vcan0 244#000000018C
(1728486100.391497) vcan0 18E#00005C
(1728486100.391509) vcan0 309#0000000000000084
(1728486100.391512) vcan0 428#01040000521C2F
(1728486100.391514) vcan0 405#0000040000000029
(1728486100.392973) vcan0 183#0000000900001011
(1728486100.392987) vcan0 143#6B6B00D1
(1728486100.395891) vcan0 095#800007F800000004
(1728486100.397842) vcan0 166#D0320018
(1728486100.399990) vcan0 158#0000000000000019
(1728486100.400001) vcan0 161#000005500108001C
(1728486100.400003) vcan0 191#010010A141000B
(1728486100.400005) vcan0 133#00000000A7
(1728486100.400008) vcan0 136#000200000000002A
(1728486100.400010) vcan0 13A#0000000000000028
(1728486100.400012) vcan0 13F#000000050000002E
(1728486100.400015) vcan0 164#0000C01AA8000004
(1728486100.400017) vcan0 17C#0000000010000021
(1728486100.400021) vcan0 18E#00006B
(1728486100.401770) vcan0 1CF#80050000001E
(1728486100.401779) vcan0 1DC#0200001B
(1728486100.401781) vcan0 183#0000000600001023
(1728486100.402753) vcan0 244#0000000164
(1728486100.403355) vcan0 143#6B6B00E0
(1728486100.403361) vcan0 039#002A
(1728486100.404749) vcan0 095#800007F800000013
(1728486100.404764) vcan0 1A4#000000080000003E
(1728486100.408648) vcan0 166#D0320009
(1728486100.408657) vcan0 158#000000000000000A
(1728486100.408660) vcan0 161#000005500108000D
(1728486100.408662) vcan0 191#010090A1410030
(1728486100.410525) vcan0 18E#00005C
(1728486100.410532) vcan0 133#0000000098
(1728486100.410535) vcan0 136#000200000000001B
(1728486100.410537) vcan0 13A#0000000000000019
(1728486100.410539) vcan0 13F#000000050000001F
(1728486100.410541) vcan0 164#0000C01AA8000031
(1728486100.410543) vcan0 17C#0000000010000012
(1728486100.412432) vcan0 183#0000000E0000101C
(1728486100.412446) vcan0 039#000C
(1728486100.412448) vcan0 143#6B6B00D1
(1728486100.414416) vcan0 095#800007F400000008
(1728486100.417345) vcan0 244#00000001B4
(1728486100.417852) vcan0 166#D0320018
(1728486100.419322) vcan0 158#0000000000000019
(1728486100.419333) vcan0 161#000005500108001C
(1728486100.419335) vcan0 191#010090A1410003
(1728486100.419339) vcan0 164#0000C01AA8000004
(1728486100.419342) vcan0 133#00000000A7
(1728486100.419344) vcan0 136#000200000000002A
(1728486100.419348) vcan0 13A#0000000000000028
(1728486100.420396) vcan0 13F#000000050000002E
(1728486100.420405) vcan0 17C#0000000010000021
(1728486100.420408) vcan0 18E#00006B
(1728486100.420410) vcan0 1CF#80050000003C
(1728486100.420412) vcan0 1DC#02000039
(1728486100.422197) vcan0 320#000030
(1728486100.422204) vcan0 324#7465000000000E38
(1728486100.422207) vcan0 183#0000000A0000102F
(1728486100.422209) vcan0 37C#FD00FD00097F0038
(1728486100.424149) vcan0 143#6B6B00E0
(1728486100.424178) vcan0 095#800007F400000017
(1728486100.426146) vcan0 1A4#0000000800000010
(1728486100.426157) vcan0 1AA#7FFF000000006810
(1728486100.426159) vcan0 1B0#000F0000000157
(1728486100.426162) vcan0 1D0#000000000000000A
(1728486100.426164) vcan0 039#001B
(1728486100.427292) vcan0 166#D0320027
(1728486100.428210) vcan0 244#00000001AC
(1728486100.428337) vcan0 158#0000000000000028
(1728486100.428349) vcan0 161#000005500108002B
(1728486100.429972) vcan0 191#010090A1410012
(1728486100.429981) vcan0 164#0000C01AA8000013
(1728486100.429983) vcan0 133#00000000B6
(1728486100.429985) vcan0 136#0002000000000039
(1728486100.429988) vcan0 13A#0000000000000037
(1728486100.429990) vcan0 13F#000000050000003D
(1728486100.429992) vcan0 17C#0000000010000030
(1728486100.432048) vcan0 18E#00007A
(1728486100.432062) vcan0 294#040B0002CF5A000E
(1728486100.432064) vcan0 21E#03E83745220601
(1728486100.432067) vcan0 183#0000000F00001039
(1728486100.433844) vcan0 143#6B6B00FF
(1728486100.433864) vcan0 095#800007F400000026
(1728486100.434065) vcan0 188#00000000
(1728486100.437779) vcan0 166#D0320036
(1728486100.439715) vcan0 244#0000000164
(1728486100.439743) vcan0 158#0000000000000037
(1728486100.439778) vcan0 161#000005500108003A
(1728486100.439783) vcan0 164#0000C01AA8000022
(1728486100.439785) vcan0 191#010090A1410021
(1728486100.439788) vcan0 133#0000000089
(1728486100.439790) vcan0 136#000200000000000C
(1728486100.439792) vcan0 13A#000000000000000A
(1728486100.439794) vcan0 13F#0000000500000000
(1728486100.439798) vcan0 17C#0000000010000003
(1728486100.440882) vcan0 18E#00004D
(1728486100.440894) vcan0 1CF#80050000000F
(1728486100.440897) vcan0 1DC#0200000C
(1728486100.440900) vcan0 183#0000000B00001000
(1728486100.442752) vcan0 143#6B6B00C2
(1728486100.443845) vcan0 095#800007F400000035
(1728486100.445596) vcan0 1A4#000000080000002F
(1728486100.445606) vcan0 1AA#7FFF00000000682F
(1728486100.445608) vcan0 1B0#000F0000000166
(1728486100.445610) vcan0 1D0#000000000000000A
(1728486100.446683) vcan0 166#D0320009
(1728486100.448471) vcan0 158#000000000000000A
(1728486100.448479) vcan0 161#000005500108000D
(1728486100.448481) vcan0 191#010090A1410030
(1728486100.450402) vcan0 164#0000C01AA8000031
(1728486100.450408) vcan0 133#0000000098
(1728486100.450410) vcan0 136#000200000000001B
(1728486100.450412) vcan0 039#002A
(1728486100.450415) vcan0 13A#0000000000000019
(1728486100.450417) vcan0 13F#000000050000001F
(1728486100.450420) vcan0 17C#0000000010000012
(1728486100.450422) vcan0 18E#00005C
(1728486100.450427) vcan0 309#0000000000000084
(1728486100.451394) vcan0 244#00000001F9
(1728486100.451553) vcan0 183#0000000800001012
(1728486100.453313) vcan0 143#6B6B00D1
(1728486100.455357) vcan0 095#800007F400000008
(1728486100.458196) vcan0 166#D0320018
(1728486100.458205) vcan0 158#0000000000000019
(1728486100.458207) vcan0 161#000005500108001C
(1728486100.460236) vcan0 191#010090A1410003
(1728486100.460248) vcan0 164#0000C01AA8000004
(1728486100.460251) vcan0 133#00000000A7
(1728486100.460253) vcan0 136#000200000000002A
(1728486100.460255) vcan0 13A#0000000000000028
(1728486100.460264) vcan0 13F#000000050000002E
(1728486100.460267) vcan0 17C#0000000010000021
(1728486100.460269) vcan0 18E#00006B
(1728486100.460272) vcan0 1CF#80050000001E
(1728486100.461578) vcan0 1DC#0200001B
(1728486100.461591) vcan0 183#0000000600001023
(1728486100.463148) vcan0 143#6B6B00E0
(1728486100.463161) vcan0 039#0039
(1728486100.465054) vcan0 095#800007F400000017
(1728486100.465065) vcan0 1A4#000000080000003E
(1728486100.465068) vcan0 1AA#7FFF00000000673F
(1728486100.466955) vcan0 1B0#000F0000000175
(1728486100.466964) vcan0 1D0#000000000000000A
(1728486100.466967) vcan0 166#D0320027
(1728486100.467910) vcan0 244#0000000130
(1728486100.468201) vcan0 158#0000000000000028
(1728486100.468209) vcan0 161#000005500108002B
(1728486100.469869) vcan0 191#010090A1410012
(1728486100.469877) vcan0 164#0000C01AA8000013
(1728486100.469879) vcan0 133#00000000B6
(1728486100.469882) vcan0 136#0002000000000039
(1728486100.469884) vcan0 13A#0000000000000037
(1728486100.469886) vcan0 13F#000000050000003D
(1728486100.472848) vcan0 17C#0000000010000030
(1728486100.472859) vcan0 18E#00007A
(1728486100.472862) vcan0 294#040B0002CF5A001D
(1728486100.472864) vcan0 21E#03E83745220610
(1728486100.472866) vcan0 183#0000000400001034
(1728486100.472868) vcan0 143#6B6B00FF
(1728486100.474838) vcan0 095#800007F400000026
(1728486100.477664) vcan0 166#D0320036
(1728486100.477678) vcan0 039#000C
(1728486100.478645) vcan0 244#0000000155
(1728486100.479204) vcan0 158#0000000000000037
(1728486100.479226) vcan0 161#000005500108003A
(1728486100.479231) vcan0 164#0000C01AA8000022
(1728486100.479234) vcan0 191#010090A1410021
(1728486100.479236) vcan0 133#0000000089
(1728486100.479238) vcan0 136#000200000000000C
(1728486100.480588) vcan0 13A#000000000000000A
(1728486100.480596) vcan0 13F#0000000500000000
(1728486100.480598) vcan0 17C#0000000010000003
(1728486100.480601) vcan0 18E#00004D
(1728486100.480603) vcan0 1CF#80050000002D
(1728486100.480605) vcan0 1DC#0200002A
(1728486100.481675) vcan0 183#0000000A00001001
(1728486100.482761) vcan0 143#6B6B00C2
(1728486100.484506) vcan0 095#800007F400000035
(1728486100.486467) vcan0 1A4#0000000800000001
(1728486100.486478) vcan0 1AA#7FFF000000006702
(1728486100.486480) vcan0 1B0#000F0000000148
(1728486100.486483) vcan0 1D0#000000000000000A
(1728486100.488467) vcan0 166#D0320009
(1728486100.488476) vcan0 158#000000000000000A
(1728486100.488478) vcan0 161#000005500108000D
(1728486100.488480) vcan0 191#010090A1410030
(1728486100.490354) vcan0 164#0000C01AA8000031
(1728486100.490365) vcan0 133#0000000098
(1728486100.490367) vcan0 136#000200000000001B
(1728486100.490370) vcan0 13A#0000000000000019
(1728486100.490372) vcan0 13F#000000050000001F
(1728486100.490374) vcan0 17C#0000000010000012
(1728486100.490376) vcan0 18E#00005C
(1728486100.491262) vcan0 244#00000001B1
(1728486100.491837) vcan0 039#001B
(1728486100.491843) vcan0 183#0000000700001013
(1728486100.493217) vcan0 143#6B6B00D1
(1728486100.495162) vcan0 095#800007F400000008
(1728486100.498077) vcan0 166#D0320018
(1728486100.498094) vcan0 158#0000000000000019
(1728486100.499151) vcan0 161#000005500108001C
(1728486100.499163) vcan0 191#010090A1410003
(1728486100.499165) vcan0 164#0000C01AA8000004
(1728486100.499168) vcan0 133#00000000A7
(1728486100.499170) vcan0 136#000200000000002A
(1728486100.501041) vcan0 13A#0000000000000028
(1728486100.501052) vcan0 13F#000000050000002E
(1728486100.501054) vcan0 17C#0000000010000021
(1728486100.501057) vcan0 18E#00006B
(1728486100.501059) vcan0 1CF#80050000003C
(1728486100.501063) vcan0 1DC#02000039
(1728486100.501065) vcan0 183#0000000500001024
(1728486100.502083) vcan0 244#00000001BA
(1728486100.503478) vcan0 143#6B6B00E0
(1728486100.503492) vcan0 333#0000000000000F
(1728486100.504898) vcan0 095#800007F400000017
(1728486100.504912) vcan0 039#002A
(1728486100.504918) vcan0 1A4#0000000800000010
(1728486100.504923) vcan0 305#8017
(1728486100.506856) vcan0 1AA#7FFF000000006810
(1728486100.506867) vcan0 1B0#000F0000000157
(1728486100.506872) vcan0 1D0#000000000000000A
(1728486100.506877) vcan0 166#D0320027
(1728486100.508758) vcan0 158#0000000000000028
(1728486100.508779) vcan0 161#000005500108002B
(1728486100.508785) vcan0 191#010090A1410012
(1728486100.508792) vcan0 18E#00007A
(1728486100.509926) vcan0 133#00000000B6
(1728486100.510375) vcan0 136#0002000000000039
(1728486100.510390) vcan0 13A#0000000000000037
(1728486100.510396) vcan0 13F#000000050000003D
(1728486100.510401) vcan0 164#0000C01AA8000013
(1728486100.510407) vcan0 17C#0000000010000030
(1728486100.510426) vcan0 294#040B0002CF5A002C
(1728486100.511709) vcan0 21E#03E8374522062F
(1728486100.511723) vcan0 183#0000000B0000103D
(1728486100.512804) vcan0 143#6B6B00FF
(1728486100.513774) vcan0 244#00000001AC
(1728486100.513985) vcan0 095#800007F400000026
(1728486100.516667) vcan0 039#0039
(1728486100.516688) vcan0 166#D0320036
(1728486100.518525) vcan0 158#0000000000000037
(1728486100.518541) vcan0 161#000005500108003A
(1728486100.518547) vcan0 191#010010A1410029
(1728486100.521487) vcan0 164#0000C01AA8000022
(1728486100.521503) vcan0 133#0000000089
(1728486100.521509) vcan0 136#000200000000000C
(1728486100.521514) vcan0 13A#000000000000000A
(1728486100.521519) vcan0 13F#0000000500000000
(1728486100.521524) vcan0 17C#0000000010000003
(1728486100.521531) vcan0 18E#00004D
(1728486100.521536) vcan0 1CF#80050000000F
(1728486100.521541) vcan0 1DC#0200000C
(1728486100.521547) vcan0 320#000003
(1728486100.521552) vcan0 183#0000000800001003
(1728486100.521558) vcan0 324#7465000000000E0B
(1728486100.521563) vcan0 37C#FD00FD00097F000B
(1728486100.523206) vcan0 143#6B6B00C2
(1728486100.524305) vcan0 095#800007F400000035
(1728486100.525343) vcan0 244#00000001A4
(1728486100.525836) vcan0 1A4#000000080000002F
(1728486100.525846) vcan0 1AA#7FFF00000000682F
(1728486100.525848) vcan0 1B0#000F0000000166
(1728486100.525850) vcan0 1D0#000000000000000A
(1728486100.527263) vcan0 166#D0320009
(1728486100.529157) vcan0 158#000000000000000A
(1728486100.529166) vcan0 161#000005500108000D
(1728486100.529168) vcan0 191#010010A1410038
(1728486100.529171) vcan0 18E#00005C
(1728486100.529173) vcan0 133#0000000098
(1728486100.529175) vcan0 136#000200000000001B
(1728486100.530204) vcan0 13A#0000000000000019
(1728486100.530226) vcan0 13F#000000050000001F
(1728486100.530229) vcan0 164#0000C01AA8000031
(1728486100.530231) vcan0 17C#0000000010000012
(1728486100.531325) vcan0 183#0000000600001014
(1728486100.531338) vcan0 039#000C
(1728486100.533098) vcan0 143#6B6B00D1
(1728486100.535090) vcan0 095#800007F400000008
(1728486100.537077) vcan0 244#000000018F
(1728486100.537088) vcan0 166#D0320018
(1728486100.538207) vcan0 158#0000000000000019
(1728486100.538222) vcan0 161#000005500108001C
(1728486100.539232) vcan0 191#010010A141000B
(1728486100.539239) vcan0 164#0000C01AA8000004
(1728486100.539241) vcan0 133#00000000A7
(1728486100.539244) vcan0 136#000200000000002A
(1728486100.540876) vcan0 13A#0000000000000028
(1728486100.540881) vcan0 13F#000000050000002E
(1728486100.540883) vcan0 17C#0000000010000021
(1728486100.540885) vcan0 18E#00006B
(1728486100.540887) vcan0 1CF#80050000001E
(1728486100.540889) vcan0 1DC#0200001B
(1728486100.540892) vcan0 183#0000000400001025
(1728486100.542967) vcan0 143#6B6B00E0
(1728486100.544313) vcan0 095#800007F400000017
(1728486100.545741) vcan0 1A4#000000080000003E
(1728486100.545752) vcan0 039#001B
(1728486100.545755) vcan0 1AA#7FFF00000000673F
(1728486100.545757) vcan0 1B0#000F0000000175
(1728486100.545760) vcan0 1D0#000000000000000A
(1728486100.546781) vcan0 166#D0320027
(1728486100.548708) vcan0 158#0000000000000028
(1728486100.548715) vcan0 161#000005500108002B
(1728486100.548717) vcan0 191#010010A141001A
(1728486100.548720) vcan0 164#0000C01AA8000013
(1728486100.549759) vcan0 133#00000000B6
(1728486100.549772) vcan0 136#0002000000000039
(1728486100.549774) vcan0 13A#0000000000000037
(1728486100.549777) vcan0 13F#000000050000003D
(1728486100.550142) vcan0 244#00000001EE
(1728486100.550968) vcan0 17C#0000000010000030
(1728486100.550983) vcan0 18E#00007A
(1728486100.550986) vcan0 294#040B0002CF5A003B
(1728486100.550989) vcan0 21E#03E8374522063E
(1728486100.550992) vcan0 309#0000000000000093
(1728486100.552652) vcan0 183#0000000300001035
(1728486100.552668) vcan0 143#6B6B00FF
(1728486100.554586) vcan0 095#800007F400000026
(1728486100.557539) vcan0 166#D0320036
(1728486100.559455) vcan0 158#0000000000000037
(1728486100.559467) vcan0 161#000005500108003A
(1728486100.559469) vcan0 039#002A
(1728486100.559476) vcan0 191#010010A1410029
(1728486100.559479) vcan0 164#0000C01AA8000022
(1728486100.559481) vcan0 133#0000000089
(1728486100.559483) vcan0 136#000200000000000C
(1728486100.559487) vcan0 13A#000000000000000A
(1728486100.561285) vcan0 13F#0000000500000000
(1728486100.561299) vcan0 17C#0000000010000003
(1728486100.561302) vcan0 18E#00004D
(1728486100.561304) vcan0 1CF#80050000002D
(1728486100.561306) vcan0 1DC#0200002A
(1728486100.561308) vcan0 183#0000000A00001001
(1728486100.563382) vcan0 143#6B6B00C2
(1728486100.564587) vcan0 095#800007F400000035
(1728486100.566200) vcan0 1A4#0000000800000001
(1728486100.566213) vcan0 1AA#7FFF000000006702
(1728486100.566215) vcan0 1B0#000F0000000148
(1728486100.566218) vcan0 1D0#000000000000000A
(1728486100.566246) vcan0 244#000000016E
(1728486100.568122) vcan0 166#D0320009
(1728486100.568131) vcan0 158#000000000000000A
(1728486100.570051) vcan0 161#000005500108000D
(1728486100.570057) vcan0 191#010010A1410038
(1728486100.570060) vcan0 18E#00005C
(1728486100.570062) vcan0 133#0000000098
(1728486100.570064) vcan0 136#000200000000001B
(1728486100.570067) vcan0 13A#0000000000000019
(1728486100.570069) vcan0 13F#000000050000001F
(1728486100.570071) vcan0 164#0000C01AA8000031
(1728486100.571118) vcan0 17C#0000000010000012
(1728486100.573041) vcan0 183#0000000700001013
(1728486100.573055) vcan0 143#6B6B00D1
(1728486100.574998) vcan0 095#800007F400000008
(1728486100.575009) vcan0 039#0039
(1728486100.576890) vcan0 166#D0320018
(1728486100.578182) vcan0 244#00000001B9
(1728486100.578620) vcan0 158#0000000000000019
(1728486100.578632) vcan0 161#000005500108001C
(1728486100.578635) vcan0 191#010010A141000B
(1728486100.578637) vcan0 164#0000C01AA8000004
(1728486100.579763) vcan0 133#00000000A7
(1728486100.579795) vcan0 136#000200000000002A
(1728486100.579797) vcan0 13A#0000000000000028
(1728486100.579799) vcan0 13F#000000050000002E
(1728486100.580881) vcan0 17C#0000000010000021
(1728486100.580892) vcan0 18E#00006B
(1728486100.580894) vcan0 1CF#80050000003C
(1728486100.580897) vcan0 1DC#02000039
(1728486100.580899) vcan0 183#0000000500001024
(1728486100.582764) vcan0 143#6B6B00E0
(1728486100.584739) vcan0 095#800007F400000017
(1728486100.584750) vcan0 1A4#0000000800000010
