(1728486047.434232) vcan0 095#800007F800000004
(1728486047.436106) vcan0 166#D0320018
(1728486047.438060) vcan0 158#0000000000000019
(1728486047.438066) vcan0 161#000005500108001C
(1728486047.438068) vcan0 191#010090A1410003
(1728486047.438070) vcan0 133#00000000A7
(1728486047.440104) vcan0 136#000200000000002A
(1728486047.440116) vcan0 13A#0000000000000028
(1728486047.440118) vcan0 13F#000000050000002E
(1728486047.440121) vcan0 164#0000C01AA8000004
(1728486047.440123) vcan0 17C#0000000010000021
(1728486047.440125) vcan0 18E#00006B
(1728486047.440128) vcan0 1CF#80050000001E
(1728486047.440131) vcan0 1DC#0200001B
(1728486047.441948) vcan0 183#0000000D0000102C
(1728486047.441956) vcan0 143#6B6B00E0
(1728486047.441961) vcan0 039#001B
(1728486047.443118) vcan0 244#00000001E5
(1728486047.444096) vcan0 095#800007F800000013
(1728486047.444104) vcan0 1A4#000000080000003E
(1728486047.445578) vcan0 1AA#7FFF00000000683E
(1728486047.445591) vcan0 1B0#000F0000000175
(1728486047.445593) vcan0 1D0#000000000000000A
(1728486047.446755) vcan0 166#D0320027
(1728486047.447878) vcan0 158#0000000000000028
(1728486047.447888) vcan0 161#000005500108002B
(1728486047.447890) vcan0 191#010090A1410012
(1728486047.447892) vcan0 133#00000000B6
(1728486047.449789) vcan0 136#0002000000000039
(1728486047.449797) vcan0 13A#0000000000000037
(1728486047.449799) vcan0 13F#000000050000003D
(1728486047.449802) vcan0 164#0000C01AA8000013
(1728486047.449804) vcan0 17C#0000000010000030
(1728486047.449806) vcan0 18E#00007A
(1728486047.449808) vcan0 294#040B0002CF5A001D
(1728486047.449810) vcan0 21E#03E83745220610
(1728486047.452645) vcan0 183#000000090000103F
(1728486047.452651) vcan0 143#6B6B00FF
(1728486047.454636) vcan0 095#800007F800000022
(1728486047.455570) vcan0 244#00000001BB
(1728486047.457506) vcan0 166#D0320036
(1728486047.457514) vcan0 039#002A
(1728486047.457516) vcan0 158#0000000000000037
(1728486047.457518) vcan0 161#000005500108003A
(1728486047.459519) vcan0 191#010090A1410021
(1728486047.459529) vcan0 164#0000C01AA8000022
(1728486047.459531) vcan0 133#0000000089
(1728486047.459533) vcan0 136#000200000000000C
(1728486047.459538) vcan0 13A#000000000000000A
(1728486047.459540) vcan0 13F#0000000500000000
(1728486047.459542) vcan0 17C#0000000010000003
(1728486047.459545) vcan0 18E#00004D
(1728486047.459548) vcan0 1CF#80050000002D
(1728486047.461482) vcan0 1DC#0200002A
(1728486047.461493) vcan0 183#0000000600001005
(1728486047.461495) vcan0 143#6B6B00C2
(1728486047.463639) vcan0 095#800007F800000031
(1728486047.465352) vcan0 1A4#0000000800000001
(1728486047.465366) vcan0 1AA#7FFF000000006801
(1728486047.465369) vcan0 1B0#000F0000000148
(1728486047.465371) vcan0 1D0#000000000000000A
(1728486047.467199) vcan0 166#D0320009
(1728486047.467208) vcan0 158#000000000000000A
(1728486047.467342) vcan0 244#0000000137
(1728486047.469219) vcan0 161#000005500108000D
(1728486047.469230) vcan0 191#010090A1410030
(1728486047.469233) vcan0 133#0000000098
(1728486047.469235) vcan0 136#000200000000001B
(1728486047.469237) vcan0 13A#0000000000000019
(1728486047.469239) vcan0 13F#000000050000001F
(1728486047.469241) vcan0 164#0000C01AA8000031
(1728486047.469243) vcan0 17C#0000000010000012
(1728486047.469245) vcan0 18E#00005C
(1728486047.471136) vcan0 183#0000000C0000101E
(1728486047.472158) vcan0 143#6B6B00D1
(1728486047.472165) vcan0 039#0039
(1728486047.474190) vcan0 095#800007F800000004
(1728486047.476314) vcan0 166#D0320018
(1728486047.477922) vcan0 158#0000000000000019
(1728486047.477928) vcan0 161#000005500108001C
(1728486047.477930) vcan0 191#010090A1410003
(1728486047.477932) vcan0 133#00000000A7
(1728486047.479080) vcan0 244#00000001C3
(1728486047.479266) vcan0 136#000200000000002A
(1728486047.479275) vcan0 13A#0000000000000028
(1728486047.479277) vcan0 13F#000000050000002E
(1728486047.479279) vcan0 164#0000C01AA8000004
(1728486047.479281) vcan0 17C#0000000010000021
(1728486047.479284) vcan0 18E#00006B
(1728486047.480835) vcan0 1CF#80050000003C
(1728486047.480868) vcan0 1DC#02000039
(1728486047.480871) vcan0 183#0000000900001020
(1728486047.481975) vcan0 143#6B6B00E0
(1728486047.483700) vcan0 333#0000000000000F
(1728486047.483709) vcan0 095#800007F800000013
(1728486047.484859) vcan0 1A4#0000000800000010
(1728486047.484868) vcan0 1AA#7FFF000000006711
(1728486047.484870) vcan0 1B0#000F0000000157
(1728486047.484872) vcan0 1D0#000000000000000A
(1728486047.484874) vcan0 305#8008
(1728486047.486770) vcan0 166#D0320027
(1728486047.488622) vcan0 158#0000000000000028
(1728486047.488629) vcan0 161#000005500108002B
(1728486047.488631) vcan0 191#010090A1410012
(1728486047.488633) vcan0 133#00000000B6
(1728486047.488635) vcan0 136#0002000000000039
(1728486047.488637) vcan0 13A#0000000000000037
(1728486047.488639) vcan0 13F#000000050000003D
(1728486047.490586) vcan0 164#0000C01AA8000013
(1728486047.490592) vcan0 17C#0000000010000030
(1728486047.490594) vcan0 18E#00007A
(1728486047.490596) vcan0 294#040B0002CF5A002C
(1728486047.490598) vcan0 21E#03E8374522062F
(1728486047.491665) vcan0 244#0000000169
(1728486047.491691) vcan0 183#0000000E0000103A
(1728486047.491694) vcan0 143#6B6B00FF
(1728486047.491701) vcan0 039#000C
(1728486047.493500) vcan0 095#800007F800000022
(1728486047.496654) vcan0 166#D0320036
(1728486047.498449) vcan0 158#0000000000000037
(1728486047.498468) vcan0 161#000005500108003A
(1728486047.498471) vcan0 191#010010A1410029
(1728486047.498473) vcan0 133#0000000089
(1728486047.498475) vcan0 136#000200000000000C
(1728486047.498477) vcan0 13A#000000000000000A
(1728486047.500261) vcan0 13F#0000000500000000
(1728486047.500269) vcan0 164#0000C01AA8000022
(1728486047.500272) vcan0 17C#0000000010000003
(1728486047.500274) vcan0 18E#00004D
(1728486047.500276) vcan0 1CF#80050000000F
(1728486047.500278) vcan0 1DC#0200000C
(1728486047.500280) vcan0 320#000003
(1728486047.500282) vcan0 324#7465000000000E0B
(1728486047.500285) vcan0 37C#FD00FD00097F000B
(1728486047.501359) vcan0 183#0000001200001008
(1728486047.501374) vcan0 143#6B6B00C2
(1728486047.503355) vcan0 244#000000016D
(1728486047.505182) vcan0 095#800007F800000031
(1728486047.505193) vcan0 1A4#000000080000002F
(1728486047.505195) vcan0 039#001B
(1728486047.505197) vcan0 1AA#7FFF000000006720
(1728486047.505199) vcan0 1B0#000F0000000166
(1728486047.505201) vcan0 1D0#000000000000000A
(1728486047.507132) vcan0 166#D0320009
(1728486047.509127) vcan0 158#000000000000000A
(1728486047.509135) vcan0 161#000005500108000D
(1728486047.509138) vcan0 191#010010A1410038
(1728486047.509141) vcan0 133#0000000098
(1728486047.509143) vcan0 136#000200000000001B
(1728486047.509146) vcan0 13A#0000000000000019
(1728486047.509148) vcan0 13F#000000050000001F
(1728486047.509150) vcan0 164#0000C01AA8000031
(1728486047.509152) vcan0 17C#0000000010000012
(1728486047.510247) vcan0 18E#00005C
(1728486047.512049) vcan0 183#0000000D0000101D
(1728486047.512059) vcan0 143#6B6B00D1
(1728486047.514902) vcan0 095#800007F800000004
(1728486047.515975) vcan0 244#00000001D5
(1728486047.516003) vcan0 166#D0320018
(1728486047.517816) vcan0 158#0000000000000019
(1728486047.517824) vcan0 161#000005500108001C
(1728486047.517826) vcan0 191#010010A141000B
(1728486047.519507) vcan0 164#0000C01AA8000004
(1728486047.519517) vcan0 133#00000000A7
(1728486047.519519) vcan0 136#000200000000002A
(1728486047.519522) vcan0 13A#0000000000000028
(1728486047.519524) vcan0 13F#000000050000002E
(1728486047.519526) vcan0 039#002A
(1728486047.519528) vcan0 17C#0000000010000021
(1728486047.519530) vcan0 18E#00006B
(1728486047.520839) vcan0 1CF#80050000001E
(1728486047.520851) vcan0 1DC#0200001B
(1728486047.520854) vcan0 183#0000000900001020
(1728486047.523791) vcan0 143#6B6B00E0
(1728486047.523801) vcan0 095#800007F400000017
(1728486047.525778) vcan0 1A4#000000080000003E
(1728486047.525788) vcan0 1AA#7FFF00000000683E
(1728486047.525791) vcan0 1B0#000F0000000175
(1728486047.525793) vcan0 1D0#000000000000000A
(1728486047.527574) vcan0 244#0000000185
(1728486047.527635) vcan0 166#D0320027
(1728486047.527644) vcan0 158#0000000000000028
(1728486047.527647) vcan0 161#000005500108002B
(1728486047.529613) vcan0 191#010010A141001A
(1728486047.529626) vcan0 133#00000000B6
(1728486047.529628) vcan0 136#0002000000000039
(1728486047.529630) vcan0 13A#0000000000000037
(1728486047.529633) vcan0 13F#000000050000003D
(1728486047.529635) vcan0 164#0000C01AA8000013
(1728486047.529637) vcan0 17C#0000000010000030
(1728486047.529639) vcan0 18E#00007A
(1728486047.529642) vcan0 294#040B0002CF5A003B
(1728486047.530688) vcan0 21E#03E8374522063E
(1728486047.530697) vcan0 309#0000000000000093
(1728486047.532408) vcan0 183#0000000600001032
(1728486047.532414) vcan0 143#6B6B00FF
(1728486047.533485) vcan0 039#0039
(1728486047.533491) vcan0 095#800007F400000026
(1728486047.536317) vcan0 166#D0320036
(1728486047.538235) vcan0 158#0000000000000037
(1728486047.538242) vcan0 161#000005500108003A
(1728486047.538245) vcan0 191#010010A1410029
(1728486047.538247) vcan0 133#0000000089
(1728486047.538249) vcan0 136#000200000000000C
(1728486047.539313) vcan0 13A#000000000000000A
(1728486047.539322) vcan0 13F#0000000500000000
(1728486047.539325) vcan0 164#0000C01AA8000022
(1728486047.539327) vcan0 17C#0000000010000003
(1728486047.539329) vcan0 18E#00004D
(1728486047.540164) vcan0 244#00000001C6
(1728486047.540647) vcan0 1CF#80050000002D
(1728486047.540653) vcan0 1DC#0200002A
(1728486047.540656) vcan0 183#0000000C0000100F
(1728486047.542149) vcan0 143#6B6B00C2
(1728486047.545073) vcan0 095#800007F400000035
(1728486047.545084) vcan0 1A4#0000000800000001
(1728486047.545086) vcan0 1AA#7FFF000000006801
(1728486047.545088) vcan0 1B0#000F0000000148
(1728486047.545091) vcan0 1D0#000000000000000A
(1728486047.546758) vcan0 166#D0320009
(1728486047.546774) vcan0 039#000C
(1728486047.548055) vcan0 158#000000000000000A
(1728486047.548064) vcan0 161#000005500108000D
(1728486047.548066) vcan0 191#010010A1410038
(1728486047.548068) vcan0 133#0000000098
(1728486047.549164) vcan0 136#000200000000001B
(1728486047.549170) vcan0 13A#0000000000000019
(1728486047.549172) vcan0 13F#000000050000001F
(1728486047.549174) vcan0 164#0000C01AA8000031
(1728486047.549176) vcan0 17C#0000000010000012
(1728486047.550947) vcan0 18E#00005C
(1728486047.551994) vcan0 244#00000001D4
(1728486047.552075) vcan0 183#0000001000001019
(1728486047.552080) vcan0 143#6B6B00D1
(1728486047.553808) vcan0 095#800007F400000008
(1728486047.556781) vcan0 166#D0320018
(1728486047.558696) vcan0 158#0000000000000019
(1728486047.558703) vcan0 161#000005500108001C
(1728486047.558706) vcan0 191#010010A141000B
(1728486047.558708) vcan0 133#00000000A7
(1728486047.558710) vcan0 136#000200000000002A
(1728486047.558712) vcan0 13A#0000000000000028
(1728486047.558715) vcan0 13F#000000050000002E
(1728486047.560631) vcan0 164#0000C01AA8000004
(1728486047.560636) vcan0 17C#0000000010000021
(1728486047.560638) vcan0 18E#00006B
(1728486047.560640) vcan0 1CF#80050000003C
(1728486047.560642) vcan0 1DC#02000039
(1728486047.560644) vcan0 183#0000000C0000102D
(1728486047.561699) vcan0 143#6B6B00E0
(1728486047.563565) vcan0 244#00000001A0
(1728486047.563571) vcan0 188#00000000
(1728486047.563615) vcan0 039#001B
(1728486047.563619) vcan0 095#800007F400000017
(1728486047.564651) vcan0 1A4#0000000800000010
(1728486047.564662) vcan0 1AA#7FFF000000006711
(1728486047.564665) vcan0 1B0#000F0000000157
(1728486047.564667) vcan0 1D0#000000000000000A
(1728486047.566520) vcan0 166#D0320027
(1728486047.568416) vcan0 158#0000000000000028
(1728486047.568422) vcan0 161#000005500108002B
(1728486047.568424) vcan0 191#010010A141001A
(1728486047.568426) vcan0 133#00000000B6
(1728486047.568428) vcan0 136#0002000000000039
(1728486047.568430) vcan0 13A#0000000000000037
(1728486047.569470) vcan0 13F#000000050000003D
(1728486047.569476) vcan0 164#0000C01AA8000013
(1728486047.569478) vcan0 17C#0000000010000030
(1728486047.569480) vcan0 18E#00007A
(1728486047.569482) vcan0 294#040B0002CF5A000E
(1728486047.570568) vcan0 21E#03E83745220601
(1728486047.572343) vcan0 183#0000001000001037
(1728486047.572351) vcan0 143#6B6B00FF
(1728486047.574318) vcan0 095#800007F400000026
(1728486047.575221) vcan0 244#00000001F4
(1728486047.575607) vcan0 039#002A
(1728486047.577164) vcan0 166#D0320036
(1728486047.578876) vcan0 158#0000000000000037
(1728486047.578887) vcan0 161#000005500108003A
(1728486047.578891) vcan0 191#010010A1410029
(1728486047.578894) vcan0 133#0000000089
(1728486047.578896) vcan0 136#000200000000000C
(1728486047.578898) vcan0 13A#000000000000000A
(1728486047.578900) vcan0 13F#0000000500000000
(1728486047.578903) vcan0 164#0000C01AA8000022
(1728486047.580149) vcan0 17C#0000000010000003
(1728486047.580158) vcan0 18E#00004D
(1728486047.580160) vcan0 1CF#80050000000F
(1728486047.580162) vcan0 1DC#0200000C
(1728486047.582096) vcan0 183#0000000C0000100F
(1728486047.582106) vcan0 143#6B6B00C2
(1728486047.582109) vcan0 333#0000000000001E
(1728486047.583974) vcan0 095#800007F400000035
(1728486047.583982) vcan0 1A4#000000080000002F
(1728486047.585127) vcan0 1AA#7FFF000000006720
(1728486047.585134) vcan0 1B0#000F0000000166
(1728486047.585136) vcan0 1D0#000000000000000A
(1728486047.586985) vcan0 244#0000000171
(1728486047.586999) vcan0 166#D0320009
(1728486047.587003) vcan0 305#8017
(1728486047.588880) vcan0 158#000000000000000A
(1728486047.588890) vcan0 161#000005500108000D
(1728486047.588892) vcan0 191#010010A1410038
(1728486047.588895) vcan0 133#0000000098
(1728486047.588897) vcan0 136#000200000000001B
(1728486047.588899) vcan0 13A#0000000000000019
(1728486047.588901) vcan0 13F#000000050000001F
(1728486047.588905) vcan0 164#0000C01AA8000031
(1728486047.590784) vcan0 17C#0000000010000012
(1728486047.590792) vcan0 18E#00005C
(1728486047.592752) vcan0 183#0000000900001011
(1728486047.592761) vcan0 143#6B6B00D1
(1728486047.594760) vcan0 095#800007F400000008
(1728486047.594769) vcan0 039#0039
(1728486047.597606) vcan0 166#D0320018
(1728486047.597620) vcan0 158#0000000000000019
(1728486047.597623) vcan0 161#000005500108001C
(1728486047.598585) vcan0 244#0000000188
(1728486047.598722) vcan0 191#010010A141000B
(1728486047.598728) vcan0 133#00000000A7
(1728486047.598730) vcan0 136#000200000000002A
(1728486047.598732) vcan0 13A#0000000000000028
(1728486047.598734) vcan0 13F#000000050000002E
(1728486047.600530) vcan0 164#0000C01AA8000004
(1728486047.600539) vcan0 17C#0000000010000021
(1728486047.600541) vcan0 18E#00006B
(1728486047.600543) vcan0 1CF#80050000001E
(1728486047.600545) vcan0 1DC#0200001B
(1728486047.600548) vcan0 320#000012
(1728486047.600550) vcan0 324#7465000000000E1A
(1728486047.600552) vcan0 37C#FD00FD00097F001A
(1728486047.600556) vcan0 40C#0236323239533039
(1728486047.602473) vcan0 183#0000000E0000102B
(1728486047.602478) vcan0 454#23EF36
(1728486047.602480) vcan0 143#6B6B00E0
(1728486047.604420) vcan0 095#800007F400000017
(1728486047.604424) vcan0 1A4#000000080000003E
(1728486047.604426) vcan0 1AA#7FFF00000000683E
(1728486047.604428) vcan0 1B0#000F0000000175
(1728486047.606306) vcan0 1D0#000000000000000A
(1728486047.606314) vcan0 166#D0320027
(1728486047.607415) vcan0 158#0000000000000028
(1728486047.607424) vcan0 039#000C
(1728486047.609352) vcan0 161#000005500108002B
(1728486047.609358) vcan0 191#010010A141001A
(1728486047.609361) vcan0 133#00000000B6
(1728486047.609363) vcan0 136#0002000000000039
(1728486047.609365) vcan0 13A#0000000000000037
(1728486047.609369) vcan0 13F#000000050000003D
(1728486047.609371) vcan0 164#0000C01AA8000013
(1728486047.609373) vcan0 17C#0000000010000030
(1728486047.609376) vcan0 18E#00007A
(1728486047.610202) vcan0 244#0000000103
(1728486047.610408) vcan0 294#040B0002CF5A001D
(1728486047.610415) vcan0 21E#03E83745220610
(1728486047.612207) vcan0 183#0000000A0000103E
(1728486047.612219) vcan0 143#6B6B00FF
(1728486047.614134) vcan0 095#800007F400000026
(1728486047.616096) vcan0 166#D0320036
(1728486047.618029) vcan0 158#0000000000000037
(1728486047.618035) vcan0 161#000005500108003A
(1728486047.618037) vcan0 191#010010A1410029
(1728486047.618039) vcan0 133#0000000089
(1728486047.620014) vcan0 136#000200000000000C
(1728486047.620026) vcan0 13A#000000000000000A
(1728486047.620028) vcan0 13F#0000000500000000
(1728486047.620030) vcan0 164#0000C01AA8000022
(1728486047.620033) vcan0 17C#0000000010000003
(1728486047.620035) vcan0 18E#00004D
(1728486047.620037) vcan0 1CF#80050000002D
(1728486047.620039) vcan0 1DC#0200002A
(1728486047.621989) vcan0 244#0000000156
(1728486047.622004) vcan0 183#0000000700001004
(1728486047.622008) vcan0 143#6B6B00C2
(1728486047.623930) vcan0 095#800007F400000035
(1728486047.623942) vcan0 039#001B
(1728486047.623945) vcan0 1A4#0000000800000001
(1728486047.624967) vcan0 1AA#7FFF000000006801
(1728486047.624978) vcan0 1B0#000F0000000148
(1728486047.624980) vcan0 1D0#000000000000000A
(1728486047.626774) vcan0 166#D0320009
(1728486047.628749) vcan0 158#000000000000000A
(1728486047.628757) vcan0 161#000005500108000D
(1728486047.628759) vcan0 191#010010A1410038
(1728486047.628761) vcan0 133#0000000098
(1728486047.628764) vcan0 136#000200000000001B
(1728486047.628766) vcan0 13A#0000000000000019
(1728486047.628769) vcan0 13F#000000050000001F
(1728486047.630726) vcan0 164#0000C01AA8000031
(1728486047.630740) vcan0 17C#0000000010000012
(1728486047.630742) vcan0 18E#00005C
(1728486047.630744) vcan0 309#00000000000000A2
(1728486047.630746) vcan0 428#01040000521C01
(1728486047.630749) vcan0 405#000004000000000B
(1728486047.632622) vcan0 183#0000000D0000101D
(1728486047.632631) vcan0 143#6B6B00D1
(1728486047.633594) vcan0 244#000000013F
(1728486047.633712) vcan0 095#800007F400000008
(1728486047.637573) vcan0 166#D0320018
(1728486047.637586) vcan0 158#0000000000000019
(1728486047.637589) vcan0 161#000005500108001C
(1728486047.639528) vcan0 191#010010A141000B
(1728486047.639540) vcan0 039#002A
(1728486047.639542) vcan0 133#00000000A7
(1728486047.639544) vcan0 136#000200000000002A
(1728486047.639546) vcan0 13A#0000000000000028
(1728486047.639549) vcan0 13F#000000050000002E
(1728486047.639551) vcan0 164#0000C01AA8000004
(1728486047.639553) vcan0 17C#0000000010000021
(1728486047.639555) vcan0 18E#00006B
(1728486047.639558) vcan0 1CF#80050000003C
(1728486047.641416) vcan0 1DC#02000039
(1728486047.641427) vcan0 183#0000000900001020
(1728486047.641434) vcan0 143#6B6B00E0
(1728486047.645271) vcan0 244#00000001A5
(1728486047.645281) vcan0 095#800007F400000017
(1728486047.645285) vcan0 1A4#0000000800000010
(1728486047.645289) vcan0 1AA#7FFF000000006711
(1728486047.645291) vcan0 1B0#000F0000000157
(1728486047.645293) vcan0 1D0#000000000000000A
(1728486047.646359) vcan0 166#D0320027
(1728486047.648137) vcan0 158#0000000000000028
(1728486047.648147) vcan0 161#000005500108002B
(1728486047.648149) vcan0 191#010010A141001A
(1728486047.648152) vcan0 133#00000000B6
(1728486047.648154) vcan0 136#0002000000000039
(1728486047.649212) vcan0 13A#0000000000000037
(1728486047.649223) vcan0 13F#000000050000003D
(1728486047.649226) vcan0 164#0000C01AA8000013
(1728486047.649228) vcan0 17C#0000000010000030
(1728486047.649230) vcan0 18E#00007A
(1728486047.651101) vcan0 294#040B0002CF5A002C
(1728486047.651111) vcan0 21E#03E8374522062F
(1728486047.651113) vcan0 183#0000000E0000103A
(1728486047.653064) vcan0 143#6B6B00FF
(1728486047.654689) vcan0 095#800007F400000026
(1728486047.654696) vcan0 5A1#960000000000623E
(1728486047.656940) vcan0 244#0000000146
(1728486047.657039) vcan0 166#D0320036
(1728486047.658940) vcan0 158#0000000000000037
(1728486047.658952) vcan0 161#000005500108003A
(1728486047.658955) vcan0 191#010010A1410029
(1728486047.658957) vcan0 133#0000000089
(1728486047.658960) vcan0 039#0039
(1728486047.658962) vcan0 136#000200000000000C
(1728486047.658966) vcan0 13A#000000000000000A
(1728486047.658969) vcan0 13F#0000000500000000
(1728486047.658971) vcan0 164#0000C01AA8000022
(1728486047.660838) vcan0 17C#0000000010000003
(1728486047.660846) vcan0 18E#00004D
(1728486047.660848) vcan0 1CF#80050000000F
(1728486047.660850) vcan0 1DC#0200000C
(1728486047.660852) vcan0 183#0000000A00001001
(1728486047.661937) vcan0 143#6B6B00C2
(1728486047.664733) vcan0 095#800007F400000035
(1728486047.664745) vcan0 1A4#000000080000002F
(1728486047.664747) vcan0 1AA#7FFF000000006720
(1728486047.664750) vcan0 1B0#000F0000000166
(1728486047.664752) vcan0 1D0#000000000000000A
(1728486047.666718) vcan0 166#D0320009
(1728486047.668669) vcan0 244#00000001B0
(1728486047.668682) vcan0 158#000000000000000A
(1728486047.668686) vcan0 161#000005500108000D
(1728486047.668690) vcan0 191#010010A1410038
(1728486047.668692) vcan0 133#0000000098
(1728486047.668694) vcan0 136#000200000000001B
(1728486047.668697) vcan0 13A#0000000000000019
(1728486047.668699) vcan0 13F#000000050000001F
(1728486047.670554) vcan0 164#0000C01AA8000031
(1728486047.670562) vcan0 17C#0000000010000012
(1728486047.670566) vcan0 18E#00005C
(1728486047.672621) vcan0 183#0000000700001013
(1728486047.672631) vcan0 143#6B6B00D1
(1728486047.673708) vcan0 039#000C
(1728486047.673716) vcan0 095#800007F400000008
(1728486047.677367) vcan0 166#D0320018
(1728486047.677376) vcan0 158#0000000000000019
(1728486047.679331) vcan0 161#000005500108001C
(1728486047.679340) vcan0 191#010010A141000B
(1728486047.679343) vcan0 133#00000000A7
(1728486047.679346) vcan0 136#000200000000002A
(1728486047.679348) vcan0 13A#0000000000000028
(1728486047.679350) vcan0 13F#000000050000002E
(1728486047.679352) vcan0 164#0000C01AA8000004
(1728486047.679354) vcan0 17C#0000000010000021
(1728486047.679357) vcan0 18E#00006B
(1728486047.680383) vcan0 1CF#80050000001E
(1728486047.680394) vcan0 1DC#0200001B
(1728486047.681495) vcan0 183#0000000500001024
(1728486047.681502) vcan0 143#6B6B00E0
(1728486047.683298) vcan0 333#0000000000002D
(1728486047.685170) vcan0 244#000000019E
(1728486047.685180) vcan0 095#800007F400000017
(1728486047.685184) vcan0 1A4#000000080000003E
(1728486047.685188) vcan0 1AA#7FFF00000000683E
(1728486047.685190) vcan0 1B0#000F0000000175
(1728486047.685192) vcan0 1D0#000000000000000A
(1728486047.687173) vcan0 039#001B
(1728486047.687186) vcan0 166#D0320027
(1728486047.689109) vcan0 158#0000000000000028
(1728486047.689121) vcan0 161#000005500108002B
(1728486047.689124) vcan0 191#010010A141001A
(1728486047.689126) vcan0 133#00000000B6
(1728486047.689128) vcan0 136#0002000000000039
(1728486047.689130) vcan0 13A#0000000000000037
(1728486047.689133) vcan0 13F#000000050000003D
(1728486047.689137) vcan0 164#0000C01AA8000013
(1728486047.689140) vcan0 17C#0000000010000030
(1728486047.691010) vcan0 18E#00007A
(1728486047.691021) vcan0 294#040B0002CF5A003B
(1728486047.691023) vcan0 21E#03E8374522063E
(1728486047.692144) vcan0 183#0000000300001035
(1728486047.692151) vcan0 143#6B6B00FF
(1728486047.693904) vcan0 305#8026
(1728486047.693910) vcan0 095#800007F400000026
(1728486047.696930) vcan0 244#000000012C
(1728486047.696944) vcan0 166#D0320036
(1728486047.698034) vcan0 158#0000000000000037
(1728486047.698050) vcan0 161#000005500108003A
(1728486047.698052) vcan0 191#010010A1410029
(1728486047.698054) vcan0 133#0000000089
(1728486047.699137) vcan0 136#000200000000000C
(1728486047.699149) vcan0 13A#000000000000000A
(1728486047.699152) vcan0 13F#0000000500000000
(1728486047.699154) vcan0 164#0000C01AA8000022
(1728486047.699156) vcan0 039#002A
(1728486047.700710) vcan0 17C#0000000010000003
(1728486047.700719) vcan0 18E#00004D
(1728486047.700721) vcan0 1CF#80050000002D
(1728486047.700723) vcan0 1DC#0200002A
(1728486047.700725) vcan0 320#000021
(1728486047.700727) vcan0 324#7465000000000E29
(1728486047.700730) vcan0 37C#FD00FD00097F0029
(1728486047.700732) vcan0 183#0000000A00001001
(1728486047.701815) vcan0 143#6B6B00C2
(1728486047.703627) vcan0 095#800007F400000035
(1728486047.704646) vcan0 1A4#0000000800000001
(1728486047.704654) vcan0 1AA#7FFF000000006801
(1728486047.704656) vcan0 1B0#000F0000000148
(1728486047.704658) vcan0 1D0#000000000000000A
(1728486047.706705) vcan0 166#D0320009
(1728486047.708615) vcan0 244#0000000189
(1728486047.708628) vcan0 158#000000000000000A
(1728486047.708632) vcan0 161#000005500108000D
(1728486047.708635) vcan0 191#010010A1410038
(1728486047.708637) vcan0 133#0000000098
(1728486047.708641) vcan0 136#000200000000001B
(1728486047.708643) vcan0 13A#0000000000000019
(1728486047.708645) vcan0 13F#000000050000001F
(1728486047.710442) vcan0 164#0000C01AA8000031
(1728486047.710452) vcan0 17C#0000000010000012
(1728486047.710454) vcan0 18E#00005C
(1728486047.711480) vcan0 183#0000000700001013
(1728486047.711488) vcan0 143#6B6B00D1
(1728486047.713940) vcan0 095#800007F400000008
(1728486047.717279) vcan0 166#D0320018
(1728486047.717291) vcan0 158#0000000000000019
(1728486047.719296) vcan0 161#000005500108001C
(1728486047.719305) vcan0 191#010010A141000B
(1728486047.719307) vcan0 133#00000000A7
(1728486047.719309) vcan0 136#000200000000002A
(1728486047.719313) vcan0 13A#0000000000000028
(1728486047.719315) vcan0 13F#000000050000002E
(1728486047.719318) vcan0 164#0000C01AA8000004
(1728486047.719320) vcan0 039#0039
(1728486047.719323) vcan0 17C#0000000010000021
(1728486047.721219) vcan0 18E#00006B
(1728486047.721230) vcan0 1CF#80050000003C
(1728486047.721233) vcan0 1DC#02000039
(1728486047.721235) vcan0 183#0000000500001024
(1728486047.722263) vcan0 143#6B6B00E0
(1728486047.724188) vcan0 095#800007F400000017
(1728486047.724200) vcan0 1A4#0000000800000010
(1728486047.724202) vcan0 1AA#7FFF000000006711
(1728486047.726085) vcan0 244#0000000107
(1728486047.726168) vcan0 1B0#000F0000000157
(1728486047.726174) vcan0 1D0#000000000000000A
(1728486047.726176) vcan0 166#D0320027
(1728486047.728013) vcan0 158#0000000000000028
(1728486047.728024) vcan0 161#000005500108002B
(1728486047.728026) vcan0 191#010010A141001A
(1728486047.728029) vcan0 133#00000000B6
(1728486047.729908) vcan0 136#0002000000000039
(1728486047.729920) vcan0 13A#0000000000000037
(1728486047.729923) vcan0 13F#000000050000003D
(1728486047.729925) vcan0 164#0000C01AA8000013
(1728486047.729927) vcan0 17C#0000000010000030
(1728486047.729929) vcan0 18E#00007A
(1728486047.729931) vcan0 294#040B0002CF5A000E
(1728486047.729933) vcan0 21E#03E83745220601
(1728486047.730956) vcan0 309#00000000000000B1
(1728486047.732959) vcan0 183#0000000B0000103D
(1728486047.732971) vcan0 143#6B6B00FF
(1728486047.732973) vcan0 039#000C
(1728486047.734832) vcan0 095#800007F400000026
(1728486047.736755) vcan0 166#D0320036
(1728486047.737823) vcan0 244#00000001FE
(1728486047.737854) vcan0 158#0000000000000037
(1728486047.737862) vcan0 161#000005500108003A
(1728486047.737864) vcan0 191#010010A1410029
(1728486047.737866) vcan0 133#0000000089
(1728486047.739641) vcan0 136#000200000000000C
(1728486047.739651) vcan0 13A#000000000000000A
(1728486047.739653) vcan0 13F#0000000500000000
(1728486047.739656) vcan0 164#0000C01AA8000022
(1728486047.739658) vcan0 17C#0000000010000003
(1728486047.739660) vcan0 18E#00004D
(1728486047.739662) vcan0 1CF#80050000000F
(1728486047.739665) vcan0 1DC#0200000C
(1728486047.741577) vcan0 183#0000000800001003
(1728486047.741589) vcan0 143#6B6B00C2
(1728486047.744567) vcan0 095#800007F400000035
(1728486047.744578) vcan0 1A4#000000080000002F
(1728486047.744581) vcan0 1AA#7FFF000000006720
(1728486047.744583) vcan0 1B0#000F0000000166
(1728486047.745788) vcan0 1D0#000000000000000A
(1728486047.747426) vcan0 166#D0320009
(1728486047.747433) vcan0 039#001B
(1728486047.747435) vcan0 158#000000000000000A
(1728486047.747437) vcan0 161#000005500108000D
(1728486047.749426) vcan0 191#010010A1410038
(1728486047.749434) vcan0 133#0000000098
(1728486047.749437) vcan0 136#000200000000001B
(1728486047.749439) vcan0 13A#0000000000000019
(1728486047.749442) vcan0 13F#000000050000001F
(1728486047.749444) vcan0 164#0000C01AA8000031
(1728486047.749446) vcan0 17C#0000000010000012
(1728486047.749449) vcan0 18E#00005C
(1728486047.750306) vcan0 244#0000000105
(1728486047.752320) vcan0 183#0000000600001014
(1728486047.752334) vcan0 143#6B6B00D1
(1728486047.754353) vcan0 095#800007F400000008
(1728486047.757135) vcan0 166#D0320018
(1728486047.758159) vcan0 158#0000000000000019
(1728486047.758165) vcan0 161#000005500108001C
(1728486047.758167) vcan0 191#010010A141000B
(1728486047.758170) vcan0 133#00000000A7
(1728486047.758172) vcan0 136#000200000000002A
(1728486047.760125) vcan0 13A#0000000000000028
(1728486047.760136) vcan0 13F#000000050000002E
(1728486047.760139) vcan0 164#0000C01AA8000004
(1728486047.760141) vcan0 17C#0000000010000021
(1728486047.760143) vcan0 18E#00006B
(1728486047.760146) vcan0 1CF#80050000001E
(1728486047.760148) vcan0 1DC#0200001B
(1728486047.761053) vcan0 244#00000001AA
(1728486047.761788) vcan0 183#0000000C0000102D
(1728486047.761801) vcan0 143#6B6B00E0
(1728486047.761803) vcan0 039#002A
(1728486047.764915) vcan0 095#800007F400000017
(1728486047.764925) vcan0 1A4#000000080000003E
(1728486047.764927) vcan0 1AA#7FFF00000000683E
(1728486047.764929) vcan0 1B0#000F0000000175
(1728486047.764931) vcan0 1D0#000000000000000A
(1728486047.765980) vcan0 166#D0320027
(1728486047.767843) vcan0 158#0000000000000028
(1728486047.767851) vcan0 161#000005500108002B
(1728486047.767853) vcan0 191#010010A141001A
(1728486047.767855) vcan0 133#00000000B6
(1728486047.768937) vcan0 136#0002000000000039
(1728486047.768943) vcan0 13A#0000000000000037
(1728486047.768945) vcan0 13F#000000050000003D
(1728486047.768948) vcan0 164#0000C01AA8000013
(1728486047.769991) vcan0 17C#0000000010000030
(1728486047.770001) vcan0 18E#00007A
(1728486047.770004) vcan0 294#040B0002CF5A001D
(1728486047.770007) vcan0 21E#03E83745220610
(1728486047.772786) vcan0 183#000000090000103F
(1728486047.772795) vcan0 143#6B6B00FF
(1728486047.772825) vcan0 244#00000001B7
(1728486047.774649) vcan0 095#800007F400000026
(1728486047.776603) vcan0 166#D0320036
(1728486047.777742) vcan0 158#0000000000000037
(1728486047.777749) vcan0 161#000005500108003A
(1728486047.777751) vcan0 191#010010A1410029
(1728486047.778772) vcan0 133#0000000089
(1728486047.778782) vcan0 136#000200000000000C
(1728486047.778798) vcan0 13A#000000000000000A
(1728486047.778800) vcan0 13F#0000000500000000
(1728486047.780633) vcan0 164#0000C01AA8000022
(1728486047.780640) vcan0 17C#0000000010000003
(1728486047.780642) vcan0 18E#00004D
(1728486047.780644) vcan0 1CF#80050000002D
(1728486047.780646) vcan0 1DC#0200002A
(1728486047.780649) vcan0 183#0000000E0000100D
(1728486047.781921) vcan0 143#6B6B00C2
(1728486047.781927) vcan0 039#0039
(1728486047.782995) vcan0 333#0000000000003C
(1728486047.783569) vcan0 244#00000001CE
(1728486047.784108) vcan0 095#800007F400000035
(1728486047.784114) vcan0 1A4#0000000800000001
(1728486047.784117) vcan0 1AA#7FFF000000006801
(1728486047.785569) vcan0 1B0#000F0000000148
(1728486047.785576) vcan0 1D0#000000000000000A
(1728486047.787521) vcan0 166#D0320009
(1728486047.787529) vcan0 158#000000000000000A
(1728486047.787531) vcan0 161#000005500108000D
(1728486047.788543) vcan0 191#010010A1410038
(1728486047.788549) vcan0 133#0000000098
(1728486047.788554) vcan0 136#000200000000001B
(1728486047.788556) vcan0 13A#0000000000000019
(1728486047.789579) vcan0 13F#000000050000001F
(1728486047.789589) vcan0 164#0000C01AA8000031
(1728486047.789591) vcan0 17C#0000000010000012
(1728486047.789593) vcan0 18E#00005C
(1728486047.791330) vcan0 183#0000000A00001010
(1728486047.791337) vcan0 143#6B6B00D1
(1728486047.794319) vcan0 095#800007F400000008
(1728486047.796213) vcan0 305#8035
(1728486047.796230) vcan0 166#D0320018
(1728486047.798139) vcan0 158#0000000000000019
(1728486047.798147) vcan0 161#000005500108001C
(1728486047.798149) vcan0 191#010090A1410003
(1728486047.798151) vcan0 133#00000000A7
(1728486047.798153) vcan0 136#000200000000002A
(1728486047.800055) vcan0 13A#0000000000000028
(1728486047.800064) vcan0 13F#000000050000002E
(1728486047.800066) vcan0 164#0000C01AA8000004
(1728486047.800068) vcan0 17C#0000000010000021
(1728486047.800070) vcan0 18E#00006B
(1728486047.800072) vcan0 1CF#80050000003C
(1728486047.800075) vcan0 1DC#02000039
(1728486047.800077) vcan0 320#000030
(1728486047.800083) vcan0 324#7465000000000E38
(1728486047.800181) vcan0 244#0000000182
(1728486047.802038) vcan0 37C#FD00FD00097F0038
(1728486047.802047) vcan0 183#0000000F0000102A
(1728486047.802049) vcan0 143#6B6B00E0
(1728486047.803086) vcan0 039#000C
(1728486047.805035) vcan0 095#800007F400000017
(1728486047.805046) vcan0 1A4#0000000800000010
(1728486047.805048) vcan0 1AA#7FFF000000006711
(1728486047.805051) vcan0 1B0#000F0000000157
(1728486047.805053) vcan0 1D0#000000000000000A
(1728486047.806904) vcan0 166#D0320027
(1728486047.808852) vcan0 158#0000000000000028
(1728486047.808860) vcan0 161#000005500108002B
(1728486047.808863) vcan0 191#010090A1410012
(1728486047.808865) vcan0 133#00000000B6
(1728486047.808867) vcan0 136#0002000000000039
(1728486047.808869) vcan0 13A#0000000000000037
(1728486047.808871) vcan0 13F#000000050000003D
(1728486047.808874) vcan0 164#0000C01AA8000013
(1728486047.810776) vcan0 17C#0000000010000030
(1728486047.810784) vcan0 18E#00007A
(1728486047.810786) vcan0 294#040B0002CF5A002C
(1728486047.810788) vcan0 21E#03E8374522062F
(1728486047.811038) vcan0 244#00000001AC
(1728486047.811836) vcan0 183#0000001300001034
(1728486047.811847) vcan0 143#6B6B00FF
(1728486047.814704) vcan0 095#800007F400000026
(1728486047.816626) vcan0 166#D0320036
(1728486047.818636) vcan0 039#001B
(1728486047.818647) vcan0 158#0000000000000037
(1728486047.818649) vcan0 161#000005500108003A
(1728486047.818651) vcan0 191#010090A1410021
(1728486047.818653) vcan0 133#0000000089
(1728486047.818656) vcan0 136#000200000000000C
(1728486047.818658) vcan0 13A#000000000000000A
(1728486047.818660) vcan0 13F#0000000500000000
(1728486047.820516) vcan0 164#0000C01AA8000022
(1728486047.820523) vcan0 17C#0000000010000003
(1728486047.820525) vcan0 18E#00004D
(1728486047.820527) vcan0 1CF#80050000000F
(1728486047.820529) vcan0 1DC#0200000C
(1728486047.822520) vcan0 183#0000000E0000100D
(1728486047.822531) vcan0 143#6B6B00C2
(1728486047.823533) vcan0 244#00000001CF
(1728486047.823635) vcan0 095#800007F400000035
(1728486047.825559) vcan0 1A4#000000080000002F
(1728486047.825567) vcan0 1AA#7FFF000000006720
(1728486047.825569) vcan0 1B0#000F0000000166
(1728486047.825572) vcan0 1D0#000000000000000A
(1728486047.827554) vcan0 166#D0320009
(1728486047.827565) vcan0 158#000000000000000A
(1728486047.827567) vcan0 161#000005500108000D
(1728486047.829371) vcan0 191#010090A1410030
(1728486047.829379) vcan0 133#0000000098
(1728486047.829382) vcan0 136#000200000000001B
(1728486047.829384) vcan0 13A#0000000000000019
(1728486047.829386) vcan0 13F#000000050000001F
(1728486047.829389) vcan0 164#0000C01AA8000031
(1728486047.829391) vcan0 17C#0000000010000012
(1728486047.829393) vcan0 18E#00005C
(1728486047.830862) vcan0 309#0000000000000084
(1728486047.830874) vcan0 039#002A
(1728486047.832297) vcan0 183#0000000A00001010
(1728486047.832309) vcan0 143#6B6B00D1
(1728486047.834331) vcan0 095#800007F400000008
(1728486047.837181) vcan0 166#D0320018
(1728486047.839106) vcan0 158#0000000000000019
(1728486047.839113) vcan0 161#000005500108001C
(1728486047.839115) vcan0 191#010090A1410003
(1728486047.839117) vcan0 133#00000000A7
(1728486047.839120) vcan0 136#000200000000002A
(1728486047.839122) vcan0 13A#0000000000000028
(1728486047.839124) vcan0 13F#000000050000002E
(1728486047.839126) vcan0 164#0000C01AA8000004
(1728486047.839130) vcan0 17C#0000000010000021
(1728486047.840084) vcan0 244#0000000158
(1728486047.840630) vcan0 18E#00006B
(1728486047.840639) vcan0 1CF#80050000001E
(1728486047.840642) vcan0 1DC#0200001B
(1728486047.840644) vcan0 183#0000000700001022
(1728486047.842068) vcan0 143#6B6B00E0
(1728486047.843979) vcan0 095#800007F400000017
(1728486047.843987) vcan0 1A4#000000080000003E
(1728486047.845533) vcan0 1AA#7FFF00000000683E
(1728486047.845550) vcan0 039#0039
(1728486047.845556) vcan0 1B0#000F0000000175
(1728486047.845577) vcan0 1D0#000000000000000A
(1728486047.846971) vcan0 166#D0320027
(1728486047.848838) vcan0 158#0000000000000028
(1728486047.848845) vcan0 161#000005500108002B
(1728486047.848848) vcan0 191#010090A1410012
(1728486047.848850) vcan0 133#00000000B6
(1728486047.848852) vcan0 136#0002000000000039
(1728486047.848855) vcan0 13A#0000000000000037
(1728486047.848857) vcan0 13F#000000050000003D
(1728486047.848859) vcan0 164#0000C01AA8000013
(1728486047.850833) vcan0 17C#0000000010000030
(1728486047.850842) vcan0 18E#00007A
(1728486047.850845) vcan0 294#040B0002CF5A003B
(1728486047.850847) vcan0 21E#03E8374522063E
(1728486047.851839) vcan0 244#0000000180
(1728486047.851861) vcan0 183#0000000D0000103B
(1728486047.851867) vcan0 143#6B6B00FF
(1728486047.853704) vcan0 095#800007F400000026
(1728486047.857661) vcan0 166#D0320036
(1728486047.857671) vcan0 158#0000000000000037
(1728486047.857673) vcan0 161#000005500108003A
(1728486047.857676) vcan0 191#010090A1410021
(1728486047.859568) vcan0 133#0000000089
(1728486047.859578) vcan0 136#000200000000000C
(1728486047.859580) vcan0 13A#000000000000000A
(1728486047.859582) vcan0 13F#0000000500000000
(1728486047.859585) vcan0 039#000C
(1728486047.859587) vcan0 164#0000C01AA8000022
(1728486047.859589) vcan0 17C#0000000010000003
(1728486047.859593) vcan0 18E#00004D
(1728486047.859595) vcan0 1CF#80050000002D
(1728486047.861498) vcan0 1DC#0200002A
(1728486047.861506) vcan0 183#0000001100001009
(1728486047.861508) vcan0 143#6B6B00C2
(1728486047.863103) vcan0 244#000000012E
(1728486047.863720) vcan0 095#800007F400000035
(1728486047.864934) vcan0 1A4#0000000800000001
(1728486047.864948) vcan0 1AA#7FFF000000006801
(1728486047.864950) vcan0 1B0#000F0000000148
(1728486047.864953) vcan0 1D0#000000000000000A
(1728486047.867101) vcan0 166#D0320009
(1728486047.868335) vcan0 158#000000000000000A
(1728486047.868343) vcan0 161#000005500108000D
(1728486047.868346) vcan0 191#010090A1410030
(1728486047.868348) vcan0 133#0000000098
(1728486047.868350) vcan0 136#000200000000001B
(1728486047.868353) vcan0 13A#0000000000000019
(1728486047.870248) vcan0 13F#000000050000001F
(1728486047.870259) vcan0 164#0000C01AA8000031
(1728486047.870261) vcan0 17C#0000000010000012
(1728486047.870263) vcan0 18E#00005C
(1728486047.871309) vcan0 183#0000000C0000101E
(1728486047.871321) vcan0 143#6B6B00D1
(1728486047.873251) vcan0 039#001B
(1728486047.874139) vcan0 244#000000015D
(1728486047.875184) vcan0 095#800007F400000008
(1728486047.876225) vcan0 166#D0320018
(1728486047.877328) vcan0 158#0000000000000019
(1728486047.878583) vcan0 161#000005500108001C
(1728486047.878603) vcan0 191#010090A1410003
(1728486047.878605) vcan0 133#00000000A7
(1728486047.878609) vcan0 136#000200000000002A
(1728486047.878611) vcan0 13A#0000000000000028
(1728486047.878614) vcan0 13F#000000050000002E
(1728486047.879990) vcan0 164#0000C01AA8000004
(1728486047.880000) vcan0 17C#0000000010000021
(1728486047.880002) vcan0 18E#00006B
(1728486047.880005) vcan0 1CF#80050000003C
(1728486047.880007) vcan0 1DC#02000039
(1728486047.881943) vcan0 183#0000001000001028
(1728486047.881949) vcan0 143#6B6B00E0
(1728486047.883017) vcan0 333#0000000000000F
(1728486047.884896) vcan0 244#000000018A
(1728486047.884934) vcan0 095#800007F400000017
(1728486047.884944) vcan0 1A4#0000000800000010
(1728486047.884947) vcan0 1AA#7FFF000000006711
(1728486047.884949) vcan0 1B0#000F0000000157
(1728486047.884951) vcan0 1D0#000000000000000A
(1728486047.886927) vcan0 039#002A
(1728486047.886937) vcan0 166#D0320027
(1728486047.887961) vcan0 158#0000000000000028
(1728486047.887969) vcan0 161#000005500108002B
(1728486047.887971) vcan0 191#010090A1410012
(1728486047.887973) vcan0 133#00000000B6
(1728486047.889048) vcan0 136#0002000000000039
(1728486047.889054) vcan0 13A#0000000000000037
(1728486047.889056) vcan0 13F#000000050000003D
(1728486047.889059) vcan0 164#0000C01AA8000013
(1728486047.890742) vcan0 17C#0000000010000030
(1728486047.890752) vcan0 18E#00007A
(1728486047.890755) vcan0 294#040B0002CF5A000E
(1728486047.890757) vcan0 21E#03E83745220601
(1728486047.892661) vcan0 183#0000000C0000103C
(1728486047.892669) vcan0 143#6B6B00FF
(1728486047.894676) vcan0 095#800007F400000026
(1728486047.896719) vcan0 244#0000000120
(1728486047.896970) vcan0 166#D0320036
(1728486047.898449) vcan0 158#0000000000000037
(1728486047.898461) vcan0 161#000005500108003A
(1728486047.898464) vcan0 191#010090A1410021
(1728486047.898466) vcan0 133#0000000089
(1728486047.898470) vcan0 136#000200000000000C
(1728486047.898473) vcan0 13A#000000000000000A
(1728486047.898475) vcan0 039#0039
(1728486047.899581) vcan0 13F#0000000500000000
(1728486047.899590) vcan0 164#0000C01AA8000022
(1728486047.899593) vcan0 17C#0000000010000003
(1728486047.899595) vcan0 18E#00004D
(1728486047.899597) vcan0 1CF#80050000000F
(1728486047.900683) vcan0 1DC#0200000C
(1728486047.900694) vcan0 305#8008
(1728486047.900696) vcan0 320#000003
(1728486047.900698) vcan0 324#7465000000000E0B
(1728486047.900700) vcan0 37C#FD00FD00097F000B
(1728486047.902369) vcan0 183#0000000900001002
(1728486047.902376) vcan0 40C#033133383439000D
(1728486047.902379) vcan0 454#23EF09
(1728486047.902381) vcan0 143#6B6B00C2
(1728486047.904398) vcan0 095#800007F400000035
(1728486047.904405) vcan0 1A4#000000080000002F
(1728486047.904408) vcan0 1AA#7FFF000000006720
(1728486047.904410) vcan0 1B0#000F0000000166
(1728486047.905431) vcan0 1D0#000000000000000A
(1728486047.906456) vcan0 166#D0320009
(1728486047.907475) vcan0 244#0000000180
(1728486047.907492) vcan0 158#000000000000000A
(1728486047.907498) vcan0 161#000005500108000D
(1728486047.909230) vcan0 191#010090A1410030
(1728486047.909242) vcan0 133#0000000098
(1728486047.909244) vcan0 136#000200000000001B
(1728486047.909247) vcan0 13A#0000000000000019
(1728486047.909249) vcan0 13F#000000050000001F
(1728486047.909251) vcan0 164#0000C01AA8000031
(1728486047.909253) vcan0 17C#0000000010000012
(1728486047.909255) vcan0 18E#00005C
(1728486047.911154) vcan0 183#0000000E0000101C
(1728486047.912746) vcan0 143#6B6B00D1
(1728486047.912761) vcan0 039#000C
(1728486047.914049) vcan0 095#800007F400000008
(1728486047.915991) vcan0 166#D0320018
(1728486047.917990) vcan0 158#0000000000000019
(1728486047.918001) vcan0 161#000005500108001C
(1728486047.918003) vcan0 191#010090A1410003
(1728486047.918006) vcan0 133#00000000A7
(1728486047.918978) vcan0 244#000000016C
(1728486047.919225) vcan0 136#000200000000002A
(1728486047.919231) vcan0 13A#0000000000000028
(1728486047.919242) vcan0 13F#000000050000002E
(1728486047.919245) vcan0 164#0000C01AA8000004
(1728486047.919247) vcan0 17C#0000000010000021
(1728486047.919249) vcan0 18E#00006B
(1728486047.920911) vcan0 1CF#80050000001E
(1728486047.920922) vcan0 1DC#0200001B
(1728486047.920925) vcan0 183#0000000A0000102F
(1728486047.922804) vcan0 143#6B6B00E0
(1728486047.923840) vcan0 095#800007F400000017
(1728486047.925279) vcan0 1A4#000000080000003E
(1728486047.925292) vcan0 1AA#7FFF00000000683E
(1728486047.925294) vcan0 1B0#000F0000000175
(1728486047.925297) vcan0 1D0#000000000000000A
(1728486047.926868) vcan0 166#D0320027
(1728486047.928001) vcan0 158#0000000000000028
(1728486047.928011) vcan0 161#000005500108002B
(1728486047.928013) vcan0 191#010090A1410012
(1728486047.928015) vcan0 133#00000000B6
(1728486047.929100) vcan0 136#0002000000000039
(1728486047.929343) vcan0 13A#0000000000000037
(1728486047.929351) vcan0 039#001B
(1728486047.929353) vcan0 13F#000000050000003D
(1728486047.929355) vcan0 164#0000C01AA8000013
(1728486047.929358) vcan0 17C#0000000010000030
(1728486047.929362) vcan0 18E#00007A
(1728486047.930711) vcan0 294#040B0002CF5A001D
(1728486047.930718) vcan0 21E#03E83745220610
(1728486047.930721) vcan0 309#0000000000000093
(1728486047.930723) vcan0 428#01040000521C10
(1728486047.930725) vcan0 405#000004000000001A
(1728486047.930728) vcan0 244#0000000191
(1728486047.931734) vcan0 183#0000000700001031
(1728486047.931741) vcan0 143#6B6B00FF
(1728486047.933611) vcan0 095#800007F400000026
(1728486047.937505) vcan0 166#D0320036
(1728486047.937513) vcan0 158#0000000000000037
(1728486047.937516) vcan0 161#000005500108003A
(1728486047.938530) vcan0 191#010090A1410021
(1728486047.938535) vcan0 133#0000000089
(1728486047.938537) vcan0 136#000200000000000C
(1728486047.938540) vcan0 13A#000000000000000A
(1728486047.939549) vcan0 13F#0000000500000000
(1728486047.939556) vcan0 164#0000C01AA8000022
(1728486047.939558) vcan0 17C#0000000010000003
(1728486047.939560) vcan0 18E#00004D
(1728486047.939563) vcan0 1CF#80050000002D
(1728486047.940574) vcan0 1DC#0200002A
(1728486047.942401) vcan0 183#0000000D0000100E
(1728486047.942415) vcan0 143#6B6B00C2
(1728486047.942445) vcan0 244#000000013B
(1728486047.943425) vcan0 039#002A
(1728486047.944718) vcan0 095#800007F400000035
(1728486047.944727) vcan0 1A4#0000000800000001
(1728486047.944729) vcan0 1AA#7FFF000000006801
(1728486047.944731) vcan0 1B0#000F0000000148
(1728486047.944734) vcan0 1D0#000000000000000A
(1728486047.946356) vcan0 166#D0320009
(1728486047.947378) vcan0 158#000000000000000A
(1728486047.948392) vcan0 161#000005500108000D
(1728486047.948399) vcan0 191#010090A1410030
(1728486047.948401) vcan0 133#0000000098
(1728486047.948403) vcan0 136#000200000000001B
(1728486047.948406) vcan0 13A#0000000000000019
(1728486047.949419) vcan0 13F#000000050000001F
(1728486047.949425) vcan0 164#0000C01AA9000030
(1728486047.949428) vcan0 17C#0000000010000012
(1728486047.949430) vcan0 18E#00005C
(1728486047.952094) vcan0 183#0000000900001011
(1728486047.952100) vcan0 143#6B6B00D1
(1728486047.954119) vcan0 095#800007F400000008
(1728486047.956155) vcan0 166#D0320018
(1728486047.957931) vcan0 158#0000000000000019
(1728486047.957938) vcan0 161#000005500108001C
(1728486047.957941) vcan0 191#010090A1410003
(1728486047.957943) vcan0 133#00000000A7
(1728486047.958955) vcan0 136#000200000000002A
(1728486047.958961) vcan0 13A#0000000000000028
(1728486047.958963) vcan0 13F#000000050000002E
(1728486047.958966) vcan0 164#0000C01AA8000004
(1728486047.959045) vcan0 244#00000001FC
(1728486047.960078) vcan0 17C#0000000010000021
(1728486047.960086) vcan0 18E#00006B
(1728486047.960088) vcan0 1CF#80050000003C
(1728486047.960090) vcan0 1DC#02000039
(1728486047.961107) vcan0 183#0000000E0000102B
(1728486047.962786) vcan0 143#6B6B00E0
(1728486047.962795) vcan0 039#0039
(1728486047.963808) vcan0 095#800007F400000017
(1728486047.965719) vcan0 1A4#0000000800000010
(1728486047.965726) vcan0 1AA#7FFF000000006711
(1728486047.965728) vcan0 1B0#000F0000000157
(1728486047.965730) vcan0 1D0#000000000000000A
(1728486047.966742) vcan0 166#D0320027
(1728486047.967758) vcan0 158#0000000000000028
(1728486047.967765) vcan0 161#000005500108002B
(1728486047.967767) vcan0 191#010090A1410012
(1728486047.969581) vcan0 133#00000000B6
(1728486047.969589) vcan0 136#0002000000000039
(1728486047.969591) vcan0 13A#0000000000000037
(1728486047.969594) vcan0 13F#000000050000003D
(1728486047.969596) vcan0 164#0000C01AA8000013
(1728486047.969598) vcan0 17C#0000000010000030
(1728486047.969600) vcan0 18E#00007A
(1728486047.969603) vcan0 294#040B0002CF5A002C
(1728486047.970626) vcan0 244#000000011D
(1728486047.970933) vcan0 21E#03E8374522062F
(1728486047.972535) vcan0 183#0000000A0000103E
(1728486047.972542) vcan0 143#6B6B00FF
(1728486047.974465) vcan0 095#800007F400000026
(1728486047.975477) vcan0 039#000C
(1728486047.976496) vcan0 166#D0320036
(1728486047.978600) vcan0 158#0000000000000037
(1728486047.978608) vcan0 161#000005500108003A
(1728486047.978610) vcan0 191#010090A1410021
(1728486047.978612) vcan0 133#0000000089
(1728486047.978615) vcan0 136#000200000000000C
(1728486047.978617) vcan0 13A#000000000000000A
(1728486047.978619) vcan0 13F#0000000500000000
(1728486047.980384) vcan0 164#0000C01AA8000022
(1728486047.980399) vcan0 17C#0000000010000003
(1728486047.980401) vcan0 18E#00004D
(1728486047.980403) vcan0 1CF#80050000000F
(1728486047.980405) vcan0 1DC#0200000C
(1728486047.982268) vcan0 183#0000000700001004
(1728486047.982277) vcan0 143#6B6B00C2
(1728486047.982279) vcan0 333#0000000000001E
(1728486047.983288) vcan0 244#000000015F
(1728486047.985189) vcan0 095#800007F400000035
(1728486047.985196) vcan0 1A4#000000080000002F
(1728486047.985198) vcan0 1AA#7FFF000000006720
(1728486047.985200) vcan0 1B0#000F0000000166
(1728486047.985203) vcan0 1D0#000000000000000A
(1728486047.986356) vcan0 166#D0320009
(1728486047.988152) vcan0 158#000000000000000A
(1728486047.988162) vcan0 161#000005500108000D
(1728486047.988165) vcan0 191#010090A1410030
(1728486047.988167) vcan0 133#0000000098
(1728486047.988169) vcan0 136#000200000000001B
(1728486047.989798) vcan0 13A#0000000000000019
(1728486047.989808) vcan0 13F#000000050000001F
(1728486047.989810) vcan0 164#0000C01AA8000031
(1728486047.989812) vcan0 039#001B
(1728486047.989814) vcan0 17C#0000000010000012
(1728486047.989816) vcan0 18E#00005C
(1728486047.991146) vcan0 183#0000000D0000101D
(1728486047.991180) vcan0 143#6B6B00D1
(1728486047.994665) vcan0 095#800007F400000008
(1728486047.994798) vcan0 244#000000011C
(1728486047.996654) vcan0 166#D0320018
(1728486047.998123) vcan0 158#0000000000000019
(1728486047.998135) vcan0 161#000005500108001C
(1728486047.998138) vcan0 191#010090A1410003
(1728486047.998141) vcan0 133#00000000A7
(1728486047.998145) vcan0 136#000200000000002A
(1728486047.999582) vcan0 13A#0000000000000028
(1728486047.999594) vcan0 13F#000000050000002E
(1728486047.999596) vcan0 164#0000C01AA8000004
(1728486047.999599) vcan0 17C#0000000010000021
(1728486047.999601) vcan0 18E#00006B
(1728486047.999603) vcan0 1CF#80050000001E
(1728486047.999606) vcan0 1DC#0200001B
(1728486048.001489) vcan0 320#000012
(1728486048.001496) vcan0 324#7465000000000E1A
(1728486048.001499) vcan0 37C#FD00FD00097F001A
(1728486048.001501) vcan0 183#0000000900001020
(1728486048.001503) vcan0 143#6B6B00E0
(1728486048.003377) vcan0 039#002A
(1728486048.003385) vcan0 305#8017
(1728486048.004756) vcan0 095#800007F400000017
(1728486048.004767) vcan0 1A4#000000080000003E
(1728486048.004779) vcan0 1AA#7FFF00000000683E
(1728486048.004783) vcan0 1B0#000F0000000175
(1728486048.004785) vcan0 1D0#000000000000000A
(1728486048.007324) vcan0 244#0000000191
(1728486048.007336) vcan0 166#D0320027
(1728486048.007340) vcan0 158#0000000000000028
(1728486048.008355) vcan0 161#000005500108002B
(1728486048.008367) vcan0 191#010090A1410012
(1728486048.008378) vcan0 133#00000000B6
(1728486048.008380) vcan0 136#0002000000000039
(1728486048.008383) vcan0 13A#0000000000000037
(1728486048.010182) vcan0 13F#000000050000003D
(1728486048.010190) vcan0 164#0000C01AA8000013
(1728486048.010193) vcan0 17C#0000000010000030
(1728486048.010195) vcan0 18E#00007A
(1728486048.010197) vcan0 294#040B0002CF5A003B
(1728486048.010199) vcan0 21E#03E8374522063E
(1728486048.011583) vcan0 183#0000000E0000103A
(1728486048.011597) vcan0 143#6B6B00FF
(1728486048.014144) vcan0 095#800007F400000026
(1728486048.016006) vcan0 166#D0320036
(1728486048.018016) vcan0 244#00000001BB
(1728486048.018029) vcan0 158#0000000000000037
(1728486048.018035) vcan0 161#000005500108003A
(1728486048.018037) vcan0 191#010090A1410021
(1728486048.018039) vcan0 039#0039
(1728486048.018042) vcan0 133#0000000089
(1728486048.019080) vcan0 136#000200000000000C
(1728486048.019091) vcan0 13A#000000000000000A
(1728486048.019093) vcan0 13F#0000000500000000
(1728486048.019095) vcan0 164#0000C01AA8000022
(1728486048.020628) vcan0 17C#0000000010000003
(1728486048.020637) vcan0 18E#00004D
(1728486048.020639) vcan0 1CF#80050000002D
(1728486048.020641) vcan0 1DC#0200002A
(1728486048.020643) vcan0 183#0000000A00001001
(1728486048.021879) vcan0 143#6B6B00C2
(1728486048.023815) vcan0 095#800007F400000035
(1728486048.024931) vcan0 1A4#0000000800000001
(1728486048.024940) vcan0 1AA#7FFF000000006801
(1728486048.024942) vcan0 1B0#000F0000000148
(1728486048.024945) vcan0 1D0#000000000000000A
(1728486048.026731) vcan0 166#D0320009
(1728486048.028766) vcan0 158#000000000000000A
(1728486048.028774) vcan0 161#000005500108000D
(1728486048.028778) vcan0 191#010090A1410030
(1728486048.028780) vcan0 133#0000000098
(1728486048.028782) vcan0 136#000200000000001B
(1728486048.028785) vcan0 13A#0000000000000019
(1728486048.028787) vcan0 13F#000000050000001F
(1728486048.029005) vcan0 244#00000001DD
(1728486048.029853) vcan0 164#0000C01AA8000031
(1728486048.029863) vcan0 17C#0000000010000012
(1728486048.029866) vcan0 18E#00005C
(1728486048.029868) vcan0 309#00000000000000A2
(1728486048.031645) vcan0 183#0000000700001013
(1728486048.031655) vcan0 143#6B6B00D1
(1728486048.033608) vcan0 039#000C
(1728486048.033618) vcan0 095#800007F400000008
(1728486048.037384) vcan0 166#D0320018
(1728486048.037391) vcan0 158#0000000000000019
(1728486048.038464) vcan0 161#000005500108001C
(1728486048.038471) vcan0 191#010090A1410003
(1728486048.038473) vcan0 133#00000000A7
(1728486048.038475) vcan0 136#000200000000002A
(1728486048.038477) vcan0 13A#0000000000000028
(1728486048.040390) vcan0 244#0000000174
(1728486048.040405) vcan0 13F#000000050000002E
(1728486048.040409) vcan0 164#0000C01AA8000004
(1728486048.040411) vcan0 17C#0000000010000021
(1728486048.040413) vcan0 18E#00006B
(1728486048.040415) vcan0 1CF#80050000003C
(1728486048.040417) vcan0 1DC#02000039
(1728486048.042298) vcan0 183#0000000500001024
(1728486048.042304) vcan0 143#6B6B00E0
(1728486048.044197) vcan0 095#800007F400000017
(1728486048.044204) vcan0 1A4#0000000800000010
(1728486048.044212) vcan0 1AA#7FFF000000006711
(1728486048.045504) vcan0 1B0#000F0000000157
(1728486048.045517) vcan0 1D0#000000000000000A
(1728486048.045520) vcan0 039#001B
(1728486048.046536) vcan0 166#D0320027
(1728486048.048129) vcan0 158#0000000000000028
(1728486048.048135) vcan0 161#000005500108002B
(1728486048.048138) vcan0 191#010090A1410012
(1728486048.048140) vcan0 133#00000000B6
(1728486048.048142) vcan0 136#0002000000000039
(1728486048.050123) vcan0 13A#0000000000000037
(1728486048.050136) vcan0 13F#000000050000003D
(1728486048.050139) vcan0 164#0000C01AA8000013
(1728486048.050141) vcan0 17C#0000000010000030
(1728486048.050143) vcan0 18E#00007A
(1728486048.050145) vcan0 294#040B0002CF5A000E
(1728486048.050148) vcan0 21E#03E83745220601
(1728486048.052051) vcan0 183#0000000300001035
(1728486048.052063) vcan0 143#6B6B00FF
(1728486048.055009) vcan0 095#800007F400000026
(1728486048.057017) vcan0 244#0000000107
(1728486048.057037) vcan0 166#D0320036
(1728486048.058796) vcan0 158#0000000000000037
(1728486048.058809) vcan0 161#000005500108003A
(1728486048.058811) vcan0 191#010090A1410021
(1728486048.058814) vcan0 133#0000000089
(1728486048.058816) vcan0 136#000200000000000C
(1728486048.058818) vcan0 13A#000000000000000A
(1728486048.058820) vcan0 13F#0000000500000000
(1728486048.058824) vcan0 164#0000C01AA8000022
(1728486048.059910) vcan0 17C#0000000010000003
(1728486048.059923) vcan0 18E#00004D
(1728486048.059926) vcan0 1CF#80050000000F
(1728486048.059928) vcan0 1DC#0200000C
(1728486048.061005) vcan0 183#0000000A00001001
(1728486048.061013) vcan0 039#002A
(1728486048.062821) vcan0 143#6B6B00C2
(1728486048.064653) vcan0 095#800007F400000035
(1728486048.064665) vcan0 1A4#000000080000002F
(1728486048.064668) vcan0 1AA#7FFF000000006720
(1728486048.064671) vcan0 1B0#000F0000000166
(1728486048.064673) vcan0 1D0#000000000000000A
(1728486048.066054) vcan0 166#D0320009
(1728486048.067629) vcan0 158#000000000000000A
(1728486048.067638) vcan0 161#000005500108000D
(1728486048.068594) vcan0 244#0000000117
(1728486048.068600) vcan0 188#00000000
(1728486048.068668) vcan0 191#010090A1410030
(1728486048.068682) vcan0 133#0000000098
(1728486048.068685) vcan0 136#000200000000001B
(1728486048.068687) vcan0 13A#0000000000000019
(1728486048.068689) vcan0 13F#000000050000001F
(1728486048.070513) vcan0 164#0000C01AA8000031
(1728486048.070520) vcan0 17C#0000000010000012
(1728486048.070522) vcan0 18E#00005C
(1728486048.071561) vcan0 183#0000000700001013
(1728486048.071568) vcan0 143#6B6B00D1
(1728486048.074453) vcan0 095#800007F400000008
(1728486048.074462) vcan0 039#0039
(1728486048.076349) vcan0 166#D0320018
(1728486048.078307) vcan0 158#0000000000000019
(1728486048.078313) vcan0 161#000005500108001C
(1728486048.078315) vcan0 191#010090A1410003
(1728486048.078317) vcan0 133#00000000A7
(1728486048.078319) vcan0 136#000200000000002A
(1728486048.079596) vcan0 13A#0000000000000028
(1728486048.079606) vcan0 13F#000000050000002E
(1728486048.079608) vcan0 164#0000C01AA8000004
(1728486048.079612) vcan0 17C#0000000010000021
(1728486048.079614) vcan0 18E#00006B
(1728486048.079617) vcan0 1CF#80050000001E
(1728486048.079619) vcan0 1DC#0200001B
(1728486048.079662) vcan0 244#000000013D
(1728486048.080841) vcan0 183#0000000500001024
(1728486048.082219) vcan0 143#6B6B00E0
(1728486048.082230) vcan0 333#0000000000002D
(1728486048.085093) vcan0 095#800007F400000017
(1728486048.085107) vcan0 1A4#000000080000003E
(1728486048.085109) vcan0 1AA#7FFF00000000683E
(1728486048.085111) vcan0 1B0#000F0000000175
(1728486048.085114) vcan0 1D0#000000000000000A
(1728486048.086535) vcan0 166#D0320027
(1728486048.088045) vcan0 158#0000000000000028
(1728486048.088055) vcan0 161#000005500108002B
(1728486048.088058) vcan0 191#010090A1410012
(1728486048.088061) vcan0 133#00000000B6
(1728486048.090003) vcan0 136#0002000000000039
(1728486048.090015) vcan0 13A#0000000000000037
(1728486048.090017) vcan0 13F#000000050000003D
(1728486048.090020) vcan0 164#0000C01AA8000013
(1728486048.090022) vcan0 17C#0000000010000030
(1728486048.090026) vcan0 18E#00007A
(1728486048.090030) vcan0 294#040B0002CF5A001D
(1728486048.090034) vcan0 21E#03E83745220610
(1728486048.090966) vcan0 244#00000001AD
(1728486048.092905) vcan0 183#0000000B0000103D
(1728486048.092918) vcan0 143#6B6B00FF
(1728486048.094113) vcan0 095#800007F400000026
(1728486048.095837) vcan0 039#000C
(1728486048.097759) vcan0 166#D0320036
(1728486048.097774) vcan0 158#0000000000000037
(1728486048.097776) vcan0 161#000005500108003A
(1728486048.097779) vcan0 191#010010A1410029
(1728486048.099708) vcan0 133#0000000089
(1728486048.099716) vcan0 136#000200000000000C
(1728486048.099718) vcan0 13A#000000000000000A
(1728486048.099720) vcan0 13F#0000000500000000
(1728486048.099723) vcan0 164#0000C01AA8000022
(1728486048.099725) vcan0 17C#0000000010000003
(1728486048.099727) vcan0 18E#00004D
(1728486048.099729) vcan0 1CF#80050000002D
(1728486048.099732) vcan0 1DC#0200002A
(1728486048.100877) vcan0 320#000021
(1728486048.100888) vcan0 324#7465000000000E29
(1728486048.100890) vcan0 37C#FD00FD00097F0029
(1728486048.100892) vcan0 183#0000000800001003
(1728486048.102642) vcan0 244#00000001BC
(1728486048.102655) vcan0 143#6B6B00C2
(1728486048.104562) vcan0 095#800007F400000035
(1728486048.104569) vcan0 1A4#0000000800000001
(1728486048.104572) vcan0 1AA#7FFF000000006801
(1728486048.104574) vcan0 1B0#000F0000000148
(1728486048.105649) vcan0 1D0#000000000000000A
(1728486048.107035) vcan0 166#D0320009
(1728486048.108459) vcan0 158#000000000000000A
(1728486048.108469) vcan0 161#000005500108000D
(1728486048.108471) vcan0 039#001B
(1728486048.108473) vcan0 191#010010A1410038
(1728486048.108475) vcan0 133#0000000098
(1728486048.108478) vcan0 136#000200000000001B
(1728486048.108480) vcan0 13A#0000000000000019
(1728486048.109555) vcan0 13F#000000050000001F
(1728486048.109561) vcan0 164#0000C01AA8000031
(1728486048.109564) vcan0 17C#0000000010000012
(1728486048.109566) vcan0 18E#00005C
(1728486048.109568) vcan0 305#8026
(1728486048.111374) vcan0 183#0000000600001014
(1728486048.111384) vcan0 143#6B6B00D1
(1728486048.113952) vcan0 095#800007F400000008
(1728486048.116256) vcan0 166#D0320018
(1728486048.118203) vcan0 244#0000000157
(1728486048.118214) vcan0 158#0000000000000019
(1728486048.118219) vcan0 161#000005500108001C
(1728486048.118221) vcan0 191#010010A141000B
(1728486048.118223) vcan0 133#00000000A7
(1728486048.118225) vcan0 136#000200000000002A
(1728486048.120086) vcan0 13A#0000000000000028
(1728486048.120093) vcan0 13F#000000050000002E
(1728486048.120096) vcan0 164#0000C01AA8000004
(1728486048.120098) vcan0 17C#0000000010000021
(1728486048.120100) vcan0 18E#00006B
(1728486048.120102) vcan0 1CF#80050000003C
(1728486048.120105) vcan0 1DC#02000039
(1728486048.121194) vcan0 183#0000000C0000102D
(1728486048.121212) vcan0 143#6B6B00E0
(1728486048.123099) vcan0 039#002A
(1728486048.124964) vcan0 095#800007F400000017
(1728486048.124971) vcan0 1A4#0000000800000010
(1728486048.124974) vcan0 1AA#7FFF000000006711
(1728486048.124976) vcan0 1B0#000F0000000157
(1728486048.124978) vcan0 1D0#000000000000000A
(1728486048.126050) vcan0 166#D0320027
(1728486048.127682) vcan0 158#0000000000000028
(1728486048.127689) vcan0 161#000005500108002B
(1728486048.127692) vcan0 191#010010A141001A
(1728486048.128797) vcan0 133#00000000B6
(1728486048.128810) vcan0 136#0002000000000039
(1728486048.128820) vcan0 13A#0000000000000037
(1728486048.128822) vcan0 13F#000000050000003D
(1728486048.128824) vcan0 164#0000C01AA8000013
(1728486048.129188) vcan0 244#000000014E
(1728486048.129940) vcan0 17C#0000000010000030
(1728486048.129946) vcan0 18E#00007A
(1728486048.129949) vcan0 294#040B0002CF5A002C
(1728486048.129951) vcan0 21E#03E8374522062F
(1728486048.131794) vcan0 309#00000000000000B1
(1728486048.131799) vcan0 183#000000090000103F
(1728486048.131801) vcan0 143#6B6B00FF
(1728486048.135096) vcan0 095#800007F400000026
(1728486048.136688) vcan0 166#D0320036
(1728486048.137773) vcan0 158#0000000000000037
(1728486048.137786) vcan0 161#000005500108003A
(1728486048.137788) vcan0 191#010010A1410029
(1728486048.137791) vcan0 039#0039
(1728486048.138801) vcan0 133#0000000089
(1728486048.138808) vcan0 136#000200000000000C
(1728486048.138810) vcan0 13A#000000000000000A
(1728486048.138812) vcan0 13F#0000000500000000
(1728486048.140617) vcan0 164#0000C01AA8000022
(1728486048.140624) vcan0 244#0000000182
(1728486048.140628) vcan0 17C#0000000010000003
(1728486048.140631) vcan0 18E#00004D
(1728486048.140633) vcan0 1CF#80050000000F
(1728486048.140636) vcan0 1DC#0200000C
(1728486048.141759) vcan0 183#0000000E0000100D
(1728486048.141770) vcan0 143#6B6B00C2
(1728486048.144434) vcan0 095#800007F400000035
(1728486048.144446) vcan0 1A4#000000080000002F
(1728486048.144452) vcan0 1AA#7FFF000000006720
(1728486048.144454) vcan0 1B0#000F0000000166
(1728486048.145845) vcan0 1D0#000000000000000A
(1728486048.146880) vcan0 166#D0320009
(1728486048.148368) vcan0 158#000000000000000A
(1728486048.148381) vcan0 161#000005500108000D
(1728486048.148383) vcan0 191#010010A1410038
(1728486048.148386) vcan0 133#0000000098
(1728486048.148388) vcan0 136#000200000000001B
(1728486048.148390) vcan0 13A#0000000000000019
(1728486048.150351) vcan0 13F#000000050000001F
(1728486048.150363) vcan0 164#0000C01AA8000031
(1728486048.150365) vcan0 17C#0000000010000012
(1728486048.150368) vcan0 18E#00005C
(1728486048.151277) vcan0 244#00000001AC
(1728486048.151702) vcan0 039#000C
(1728486048.151710) vcan0 183#0000000A00001010
(1728486048.151713) vcan0 143#6B6B00D1
(1728486048.154220) vcan0 095#800007F800000004
(1728486048.156096) vcan0 166#D0320018
(1728486048.159010) vcan0 158#0000000000000019
(1728486048.159018) vcan0 161#000005500108001C
(1728486048.159020) vcan0 191#010010A141000B
(1728486048.159023) vcan0 133#00000000A7
(1728486048.159025) vcan0 136#000200000000002A
(1728486048.159027) vcan0 13A#0000000000000028
(1728486048.159044) vcan0 13F#000000050000002E
(1728486048.159049) vcan0 164#0000C01AA8000004
(1728486048.160063) vcan0 17C#0000000010000021
(1728486048.160071) vcan0 18E#00006B
(1728486048.160073) vcan0 1CF#80050000001E
(1728486048.160076) vcan0 1DC#0200001B
(1728486048.161160) vcan0 183#0000000700001022
(1728486048.162909) vcan0 143#6B6B00E0
(1728486048.163036) vcan0 244#0000000138
(1728486048.163938) vcan0 095#800007F800000013
(1728486048.163947) vcan0 1A4#000000080000003E
(1728486048.164954) vcan0 1AA#7FFF00000000683E
(1728486048.164960) vcan0 1B0#000F0000000175
(1728486048.164962) vcan0 1D0#000000000000000A
(1728486048.166790) vcan0 166#D0320027
(1728486048.166798) vcan0 039#001B
(1728486048.167807) vcan0 158#0000000000000028
(1728486048.167813) vcan0 161#000005500108002B
(1728486048.167815) vcan0 191#010010A141001A
(1728486048.169712) vcan0 133#00000000B6
(1728486048.169719) vcan0 136#0002000000000039
(1728486048.169722) vcan0 13A#0000000000000037
(1728486048.169724) vcan0 13F#000000050000003D
(1728486048.169727) vcan0 164#0000C01AA8000013
(1728486048.169729) vcan0 17C#0000000010000030
(1728486048.169732) vcan0 18E#00007A
(1728486048.169734) vcan0 294#040B0002CF5A003B
(1728486048.169738) vcan0 21E#03E8374522063E
(1728486048.171761) vcan0 183#0000000D0000103B
(1728486048.171769) vcan0 143#6B6B00FF
(1728486048.173607) vcan0 095#800007F800000022
(1728486048.174612) vcan0 244#000000011F
(1728486048.176531) vcan0 166#D0320036
(1728486048.177553) vcan0 158#0000000000000037
(1728486048.177562) vcan0 161#000005500108003A
(1728486048.178653) vcan0 191#010010A1410029
(1728486048.178661) vcan0 133#0000000089
(1728486048.178663) vcan0 136#000200000000000C
(1728486048.178665) vcan0 13A#000000000000000A
(1728486048.178667) vcan0 13F#0000000500000000
(1728486048.179683) vcan0 164#0000C01AA8000022
(1728486048.179694) vcan0 17C#0000000010000003
(1728486048.179696) vcan0 18E#00004D
(1728486048.179699) vcan0 1CF#80050000002D
(1728486048.179701) vcan0 1DC#0200002A
(1728486048.181390) vcan0 039#002A
(1728486048.181398) vcan0 183#0000000900001002
(1728486048.181400) vcan0 143#6B6B00C2
(1728486048.182411) vcan0 333#0000000000003C
(1728486048.184429) vcan0 095#800007F800000031
(1728486048.184436) vcan0 1A4#0000000800000001
(1728486048.184438) vcan0 1AA#7FFF000000006801
(1728486048.184440) vcan0 1B0#000F0000000148
(1728486048.185312) vcan0 244#00000001F4
(1728486048.185488) vcan0 1D0#000000000000000A
(1728486048.186504) vcan0 166#D0320009
(1728486048.188204) vcan0 158#000000000000000A
(1728486048.188212) vcan0 161#000005500108000D
(1728486048.188215) vcan0 191#010010A1410038
(1728486048.188217) vcan0 133#0000000098
(1728486048.188219) vcan0 136#000200000000001B
(1728486048.189850) vcan0 13A#0000000000000019
(1728486048.189858) vcan0 13F#000000050000001F
(1728486048.189861) vcan0 164#0000C01AA8000031
(1728486048.189863) vcan0 17C#0000000010000012
(1728486048.189865) vcan0 18E#00005C
(1728486048.193774) vcan0 183#0000000E0000101C
(1728486048.193786) vcan0 143#6B6B00D1
(1728486048.193788) vcan0 095#800007F800000004
(1728486048.196317) vcan0 166#D0320018
(1728486048.197672) vcan0 158#0000000000000019
(1728486048.197685) vcan0 161#000005500108001C
(1728486048.197687) vcan0 191#010010A141000B
(1728486048.198681) vcan0 244#0000000124
(1728486048.199235) vcan0 133#00000000A7
(1728486048.199243) vcan0 136#000200000000002A
(1728486048.199245) vcan0 13A#0000000000000028
(1728486048.199247) vcan0 13F#000000050000002E
(1728486048.199249) vcan0 164#0000C01AA8000004
(1728486048.199252) vcan0 17C#0000000010000021
(1728486048.199254) vcan0 18E#00006B
(1728486048.200575) vcan0 1CF#80050000003C
(1728486048.200583) vcan0 039#0039
(1728486048.200585) vcan0 1DC#02000039
(1728486048.200587) vcan0 320#000030
(1728486048.200590) vcan0 324#7465000000000E38
(1728486048.200592) vcan0 37C#FD00FD00097F0038
(1728486048.201602) vcan0 40C#0000000004000013
(1728486048.201609) vcan0 183#0000000A0000102F
(1728486048.201612) vcan0 454#23EF18
(1728486048.201616) vcan0 143#6B6B00E0
(1728486048.203640) vcan0 095#800007F800000013
(1728486048.205453) vcan0 1A4#0000000800000010
(1728486048.205462) vcan0 1AA#7FFF000000006711
(1728486048.205465) vcan0 1B0#000F0000000157
(1728486048.205467) vcan0 1D0#000000000000000A
(1728486048.207404) vcan0 166#D0320027
(1728486048.207411) vcan0 158#0000000000000028
(1728486048.209330) vcan0 161#000005500108002B
(1728486048.209339) vcan0 191#010010A141001A
(1728486048.209342) vcan0 133#00000000B6
(1728486048.209344) vcan0 136#0002000000000039
(1728486048.209346) vcan0 13A#0000000000000037
(1728486048.209348) vcan0 13F#000000050000003D
(1728486048.209350) vcan0 164#0000C01AA8000013
(1728486048.209353) vcan0 17C#0000000010000030
(1728486048.209356) vcan0 18E#00007A
(1728486048.210368) vcan0 294#040B0002CF5A000E
(1728486048.210378) vcan0 21E#03E83745220601
(1728486048.210524) vcan0 244#0000000115
(1728486048.211396) vcan0 183#0000000700001031
(1728486048.211408) vcan0 143#6B6B00FF
(1728486048.213437) vcan0 039#000C
(1728486048.213448) vcan0 305#8035
(1728486048.214462) vcan0 095#800007F800000022
(1728486048.216146) vcan0 166#D0320036
(1728486048.218174) vcan0 158#0000000000000037
(1728486048.218181) vcan0 161#000005500108003A
(1728486048.218185) vcan0 191#010010A1410029
(1728486048.218187) vcan0 133#0000000089
(1728486048.218189) vcan0 136#000200000000000C
(1728486048.220004) vcan0 13A#000000000000000A
(1728486048.220010) vcan0 13F#0000000500000000
(1728486048.220012) vcan0 164#0000C01AA8000022
(1728486048.220015) vcan0 17C#0000000010000003
(1728486048.220017) vcan0 18E#00004D
(1728486048.220019) vcan0 1CF#80050000000F
(1728486048.220021) vcan0 1DC#0200000C
(1728486048.221034) vcan0 183#0000000D0000100E
(1728486048.222006) vcan0 244#0000000190
(1728486048.222226) vcan0 143#6B6B00C2
(1728486048.223984) vcan0 095#800007F800000031
(1728486048.223997) vcan0 1A4#000000080000002F
(1728486048.225028) vcan0 1AA#7FFF000000006720
(1728486048.225037) vcan0 1B0#000F0000000166
(1728486048.225039) vcan0 1D0#000000000000000A
(1728486048.226072) vcan0 166#D0320009
(1728486048.227865) vcan0 158#000000000000000A
(1728486048.227877) vcan0 161#000005500108000D
(1728486048.227883) vcan0 039#001B
(1728486048.227888) vcan0 191#010010A1410038
(1728486048.228932) vcan0 133#0000000098
(1728486048.228958) vcan0 136#000200000000001B
(1728486048.228963) vcan0 13A#0000000000000019
(1728486048.228968) vcan0 13F#000000050000001F
(1728486048.228973) vcan0 164#0000C01AA8000031
(1728486048.230713) vcan0 17C#0000000010000012
(1728486048.230728) vcan0 18E#00005C
(1728486048.230733) vcan0 309#0000000000000084
(1728486048.230739) vcan0 428#01040000521C2F
(1728486048.230744) vcan0 405#0000040000000029
(1728486048.231757) vcan0 183#0000000900001011
(1728486048.231797) vcan0 143#6B6B00D1
(1728486048.233699) vcan0 244#000000016F
(1728486048.234349) vcan0 095#800007F800000004
(1728486048.236613) vcan0 166#D0320018
(1728486048.237638) vcan0 158#0000000000000019
(1728486048.237648) vcan0 161#000005500108001C
(1728486048.237653) vcan0 191#010010A141000B
(1728486048.238664) vcan0 133#00000000A7
(1728486048.238675) vcan0 136#000200000000002A
(1728486048.238680) vcan0 13A#0000000000000028
(1728486048.238685) vcan0 13F#000000050000002E
(1728486048.239703) vcan0 164#0000C01AA8000004
(1728486048.239714) vcan0 17C#0000000010000021
(1728486048.239719) vcan0 18E#00006B
(1728486048.239725) vcan0 1CF#80050000001E
(1728486048.239730) vcan0 1DC#0200001B
(1728486048.241463) vcan0 183#0000000600001023
(1728486048.241472) vcan0 143#6B6B00E0
(1728486048.242486) vcan0 039#002A
(1728486048.244416) vcan0 244#000000010F
(1728486048.244793) vcan0 095#800007F800000013
(1728486048.244809) vcan0 1A4#000000080000003E
(1728486048.247285) vcan0 166#D0320009
(1728486048.247307) vcan0 158#000000000000000A
(1728486048.248325) vcan0 161#000005500108000D
(1728486048.248335) vcan0 191#010090A1410030
(1728486048.248340) vcan0 18E#00005C
(1728486048.248346) vcan0 133#0000000098
(1728486048.248351) vcan0 136#000200000000001B
(1728486048.249374) vcan0 13A#0000000000000019
(1728486048.249383) vcan0 13F#000000050000001F
(1728486048.249388) vcan0 164#0000C01AA8000031
(1728486048.249393) vcan0 17C#0000000010000012
(1728486048.250408) vcan0 183#0000000E0000101C
(1728486048.251429) vcan0 039#000C
(1728486048.252449) vcan0 143#6B6B00D1
(1728486048.254769) vcan0 095#800007F400000008
(1728486048.254830) vcan0 244#00000001B6
(1728486048.256038) vcan0 166#D0320018
(1728486048.258949) vcan0 158#0000000000000019
(1728486048.258962) vcan0 161#000005500108001C
(1728486048.258968) vcan0 191#010090A1410003
(1728486048.258973) vcan0 164#0000C01AA8000004
(1728486048.258978) vcan0 133#00000000A7
(1728486048.258984) vcan0 136#000200000000002A
(1728486048.258989) vcan0 13A#0000000000000028
(1728486048.258994) vcan0 13F#000000050000002E
(1728486048.258999) vcan0 17C#0000000010000021
(1728486048.260916) vcan0 18E#00006B
(1728486048.260933) vcan0 1CF#80050000003C
(1728486048.260939) vcan0 1DC#02000039
(1728486048.260945) vcan0 320#000030
(1728486048.260950) vcan0 324#7465000000000E38
(1728486048.260955) vcan0 183#0000000A0000102F
(1728486048.260960) vcan0 37C#FD00FD00097F0038
(1728486048.262849) vcan0 143#6B6B00E0
(1728486048.263881) vcan0 095#800007F400000017
(1728486048.263898) vcan0 1A4#0000000800000010
(1728486048.264918) vcan0 1AA#7FFF000000006810
(1728486048.264932) vcan0 1B0#000F0000000157
(1728486048.264937) vcan0 1D0#000000000000000A
(1728486048.265949) vcan0 039#001B
(1728486048.265960) vcan0 166#D0320027
(1728486048.265960) vcan0 244#000000012B
(1728486048.268683) vcan0 158#0000000000000028
(1728486048.268699) vcan0 161#000005500108002B
(1728486048.268704) vcan0 191#010090A1410012
(1728486048.268711) vcan0 164#0000C01AA8000013
(1728486048.268716) vcan0 133#00000000B6
(1728486048.268721) vcan0 136#0002000000000039
(1728486048.268726) vcan0 13A#0000000000000037
(1728486048.269738) vcan0 13F#000000050000003D
(1728486048.269749) vcan0 17C#0000000010000030
(1728486048.269754) vcan0 18E#00007A
(1728486048.269759) vcan0 294#040B0002CF5A000E
(1728486048.269764) vcan0 21E#03E83745220601
(1728486048.271567) vcan0 183#0000000F00001039
(1728486048.271578) vcan0 143#6B6B00FF
(1728486048.273550) vcan0 095#800007F400000026
(1728486048.276484) vcan0 166#D0320036
(1728486048.276597) vcan0 244#00000001AB
(1728486048.277511) vcan0 158#0000000000000037
(1728486048.277529) vcan0 161#000005500108003A
(1728486048.279379) vcan0 164#0000C01AA8000022
(1728486048.279395) vcan0 191#010090A1410021
(1728486048.279400) vcan0 133#0000000089
(1728486048.279407) vcan0 136#000200000000000C
(1728486048.279412) vcan0 13A#000000000000000A
(1728486048.279417) vcan0 13F#0000000500000000
(1728486048.279422) vcan0 17C#0000000010000003
(1728486048.279427) vcan0 18E#00004D
(1728486048.279433) vcan0 1CF#80050000000F
(1728486048.280452) vcan0 1DC#0200000C
(1728486048.280495) vcan0 183#0000000B00001000
(1728486048.282314) vcan0 143#6B6B00C2
(1728486048.285216) vcan0 095#800007F400000035
(1728486048.285227) vcan0 1A4#000000080000002F
(1728486048.285232) vcan0 1AA#7FFF00000000682F
(1728486048.285237) vcan0 1B0#000F0000000166
(1728486048.285242) vcan0 1D0#000000000000000A
(1728486048.287166) vcan0 166#D0320009
(1728486048.287178) vcan0 158#000000000000000A
(1728486048.288178) vcan0 244#000000013D
(1728486048.288206) vcan0 161#000005500108000D
(1728486048.288213) vcan0 191#010090A1410030
(1728486048.288218) vcan0 164#0000C01AA8000031
(1728486048.288224) vcan0 133#0000000098
(1728486048.289863) vcan0 136#000200000000001B
(1728486048.289876) vcan0 039#002A
(1728486048.289881) vcan0 13A#0000000000000019
(1728486048.289887) vcan0 13F#000000050000001F
(1728486048.289894) vcan0 17C#0000000010000012
(1728486048.289898) vcan0 18E#00005C
(1728486048.289903) vcan0 309#0000000000000084
(1728486048.290978) vcan0 183#0000000800001012
(1728486048.293751) vcan0 143#6B6B00D1
(1728486048.293761) vcan0 095#800007F400000008
(1728486048.297687) vcan0 166#D0320018
(1728486048.297714) vcan0 158#0000000000000019
(1728486048.297719) vcan0 161#000005500108001C
(1728486048.297728) vcan0 191#010090A1410003
(1728486048.298747) vcan0 164#0000C01AA8000004
(1728486048.298765) vcan0 133#00000000A7
(1728486048.298771) vcan0 136#000200000000002A
(1728486048.298778) vcan0 13A#0000000000000028
(1728486048.298784) vcan0 13F#000000050000002E
(1728486048.299954) vcan0 17C#0000000010000021
(1728486048.299974) vcan0 18E#00006B
(1728486048.299980) vcan0 1CF#80050000001E
(1728486048.299986) vcan0 1DC#0200001B
(1728486048.299993) vcan0 183#0000000600001023
(1728486048.301571) vcan0 143#6B6B00E0
(1728486048.301583) vcan0 039#0039
(1728486048.301649) vcan0 244#00000001D8
(1728486048.303610) vcan0 095#800007F400000017
(1728486048.305518) vcan0 1A4#000000080000003E
(1728486048.305527) vcan0 1AA#7FFF00000000673F
(1728486048.305532) vcan0 1B0#000F0000000175
(1728486048.305538) vcan0 1D0#000000000000000A
(1728486048.306622) vcan0 166#D0320027
(1728486048.307648) vcan0 158#0000000000000028
(1728486048.307662) vcan0 161#000005500108002B
(1728486048.307667) vcan0 191#010090A1410012
(1728486048.309375) vcan0 164#0000C01AA8000013
(1728486048.309386) vcan0 133#00000000B6
(1728486048.309391) vcan0 136#0002000000000039
(1728486048.309396) vcan0 13A#0000000000000037
(1728486048.309403) vcan0 13F#000000050000003D
(1728486048.309408) vcan0 17C#0000000010000030
(1728486048.309413) vcan0 18E#00007A
(1728486048.311297) vcan0 294#040B0002CF5A001D
(1728486048.311308) vcan0 21E#03E83745220610
(1728486048.311313) vcan0 183#0000000400001034
(1728486048.312337) vcan0 143#6B6B00FF
(1728486048.313376) vcan0 095#800007F400000026
(1728486048.317166) vcan0 244#0000000102
(1728486048.317188) vcan0 166#D0320036
(1728486048.317196) vcan0 039#000C
(1728486048.317201) vcan0 158#0000000000000037
(1728486048.318220) vcan0 161#000005500108003A
(1728486048.318237) vcan0 164#0000C01AA8000022
(1728486048.318243) vcan0 191#010090A1410021
(1728486048.318256) vcan0 133#0000000089
(1728486048.318261) vcan0 136#000200000000000C
(1728486048.319276) vcan0 13A#000000000000000A
(1728486048.319285) vcan0 13F#0000000500000000
(1728486048.319290) vcan0 17C#0000000010000003
(1728486048.319295) vcan0 18E#00004D
(1728486048.321020) vcan0 1CF#80050000002D
(1728486048.321029) vcan0 1DC#0200002A
(1728486048.321035) vcan0 183#0000000A00001001
(1728486048.322047) vcan0 143#6B6B00C2
(1728486048.323066) vcan0 095#800007F400000035
(1728486048.324920) vcan0 1A4#0000000800000001
(1728486048.324930) vcan0 1AA#7FFF000000006702
(1728486048.324935) vcan0 1B0#000F0000000148
(1728486048.324940) vcan0 1D0#000000000000000A
(1728486048.325952) vcan0 166#D0320009
(1728486048.327241) vcan0 244#0000000156
(1728486048.328223) vcan0 158#000000000000000A
(1728486048.328249) vcan0 161#000005500108000D
(1728486048.328256) vcan0 191#010090A1410030
(1728486048.328261) vcan0 164#0000C01AA8000031
(1728486048.328268) vcan0 133#0000000098
(1728486048.329780) vcan0 136#000200000000001B
(1728486048.329827) vcan0 13A#0000000000000019
(1728486048.329833) vcan0 13F#000000050000001F
(1728486048.329838) vcan0 17C#0000000010000012
(1728486048.329843) vcan0 18E#00005C
(1728486048.330859) vcan0 039#001B
(1728486048.330870) vcan0 183#0000000700001013
(1728486048.332736) vcan0 143#6B6B00D1
(1728486048.333759) vcan0 095#800007F400000008
(1728486048.336603) vcan0 166#D0320018
(1728486048.337623) vcan0 158#0000000000000019
(1728486048.337633) vcan0 161#000005500108001C
(1728486048.337639) vcan0 191#010090A1410003
(1728486048.339507) vcan0 164#0000C01AA8000004
(1728486048.339518) vcan0 133#00000000A7
(1728486048.339523) vcan0 136#000200000000002A
(1728486048.339528) vcan0 13A#0000000000000028
(1728486048.339533) vcan0 13F#000000050000002E
(1728486048.339538) vcan0 17C#0000000010000021
(1728486048.339545) vcan0 18E#00006B
(1728486048.339550) vcan0 1CF#80050000003C
(1728486048.339556) vcan0 1DC#02000039
(1728486048.340573) vcan0 183#0000000500001024
(1728486048.341592) vcan0 143#6B6B00E0
(1728486048.342614) vcan0 333#0000000000000F
(1728486048.342779) vcan0 244#0000000193
(1728486048.343644) vcan0 095#800007F400000017
(1728486048.343664) vcan0 039#002A
(1728486048.344680) vcan0 1A4#0000000800000010
(1728486048.344694) vcan0 305#8017
(1728486048.344699) vcan0 1AA#7FFF000000006810
(1728486048.344704) vcan0 1B0#000F0000000157
(1728486048.346444) vcan0 1D0#000000000000000A
(1728486048.346457) vcan0 166#D0320027
(1728486048.348294) vcan0 158#0000000000000028
(1728486048.348312) vcan0 161#000005500108002B
(1728486048.348317) vcan0 191#010090A1410012
(1728486048.348322) vcan0 18E#00007A
(1728486048.348327) vcan0 133#00000000B6
(1728486048.349342) vcan0 136#0002000000000039
(1728486048.349352) vcan0 13A#0000000000000037
(1728486048.349357) vcan0 13F#000000050000003D
(1728486048.349364) vcan0 164#0000C01AA8000013
(1728486048.349368) vcan0 17C#0000000010000030
(1728486048.350943) vcan0 294#040B0002CF5A002C
(1728486048.350954) vcan0 21E#03E8374522062F
(1728486048.350960) vcan0 183#0000000B0000103D
(1728486048.352167) vcan0 143#6B6B00FF
(1728486048.354114) vcan0 244#00000001FE
(1728486048.354124) vcan0 095#800007F400000026
(1728486048.357026) vcan0 039#0039
(1728486048.357047) vcan0 166#D0320036
(1728486048.358064) vcan0 158#0000000000000037
(1728486048.358071) vcan0 161#000005500108003A
(1728486048.358077) vcan0 191#010010A1410029
(1728486048.358083) vcan0 164#0000C01AA8000022
(1728486048.358087) vcan0 133#0000000089
(1728486048.359105) vcan0 136#000200000000000C
(1728486048.359116) vcan0 13A#000000000000000A
(1728486048.359121) vcan0 13F#0000000500000000
(1728486048.359127) vcan0 17C#0000000010000003
(1728486048.360146) vcan0 18E#00004D
(1728486048.360155) vcan0 1CF#80050000000F
(1728486048.360160) vcan0 1DC#0200000C
(1728486048.360237) vcan0 320#000003
(1728486048.360245) vcan0 183#0000000800001003
(1728486048.360250) vcan0 324#7465000000000E0B
(1728486048.361632) vcan0 37C#FD00FD00097F000B
(1728486048.361658) vcan0 143#6B6B00C2
(1728486048.363860) vcan0 095#800007F400000035
(1728486048.363877) vcan0 1A4#000000080000002F
(1728486048.364819) vcan0 244#000000010F
(1728486048.364897) vcan0 1AA#7FFF00000000682F
(1728486048.364904) vcan0 1B0#000F0000000166
(1728486048.364909) vcan0 1D0#000000000000000A
(1728486048.365925) vcan0 166#D0320009
(1728486048.367723) vcan0 158#000000000000000A
(1728486048.367731) vcan0 161#000005500108000D
(1728486048.367738) vcan0 191#010010A1410038
(1728486048.368755) vcan0 18E#00005C
(1728486048.368765) vcan0 133#0000000098
(1728486048.368770) vcan0 136#000200000000001B
(1728486048.368775) vcan0 13A#0000000000000019
(1728486048.369794) vcan0 13F#000000050000001F
(1728486048.369804) vcan0 164#0000C01AA8000031
(1728486048.369809) vcan0 17C#0000000010000012
(1728486048.371623) vcan0 183#0000000600001014
(1728486048.371636) vcan0 039#000C
(1728486048.371641) vcan0 143#6B6B00D1
(1728486048.373677) vcan0 095#800007F400000008
(1728486048.376563) vcan0 166#D0320018
(1728486048.377593) vcan0 158#0000000000000019
(1728486048.377606) vcan0 161#000005500108001C
(1728486048.377612) vcan0 191#010010A141000B
(1728486048.379405) vcan0 164#0000C01AA8000004
(1728486048.379420) vcan0 133#00000000A7
(1728486048.379426) vcan0 136#000200000000002A
(1728486048.379431) vcan0 13A#0000000000000028
(1728486048.379436) vcan0 13F#000000050000002E
(1728486048.379441) vcan0 17C#0000000010000021
(1728486048.379445) vcan0 18E#00006B
(1728486048.379450) vcan0 1CF#80050000001E
(1728486048.380052) vcan0 244#00000001C0
(1728486048.380490) vcan0 1DC#0200001B
(1728486048.380500) vcan0 183#0000000400001025
(1728486048.381512) vcan0 143#6B6B00E0
(1728486048.383509) vcan0 095#800007F400000017
(1728486048.384954) vcan0 1A4#000000080000003E
(1728486048.385006) vcan0 039#001B
(1728486048.385013) vcan0 1AA#7FFF00000000673F
(1728486048.385018) vcan0 1B0#000F0000000175
(1728486048.385024) vcan0 1D0#000000000000000A
(1728486048.387318) vcan0 166#D0320027
(1728486048.387333) vcan0 158#0000000000000028
(1728486048.387338) vcan0 161#000005500108002B
(1728486048.388458) vcan0 191#010010A141001A
(1728486048.388475) vcan0 164#0000C01AA8000013
(1728486048.388481) vcan0 133#00000000B6
(1728486048.388486) vcan0 136#0002000000000039
(1728486048.389984) vcan0 13A#0000000000000037
(1728486048.389993) vcan0 13F#000000050000003D
(1728486048.389999) vcan0 17C#0000000010000030
(1728486048.390004) vcan0 18E#00007A
(1728486048.390011) vcan0 294#040B0002CF5A003B
(1728486048.390016) vcan0 21E#03E8374522063E
(1728486048.390022) vcan0 309#0000000000000093
(1728486048.390178) vcan0 244#0000000156
(1728486048.391056) vcan0 183#0000000300001035
(1728486048.392089) vcan0 143#6B6B00FF
(1728486048.393126) vcan0 095#800007F400000026
(1728486048.395886) vcan0 166#D0320036
(1728486048.397884) vcan0 158#0000000000000037
(1728486048.397901) vcan0 161#000005500108003A
(1728486048.397904) vcan0 039#002A
(1728486048.397912) vcan0 191#010010A1410029
(1728486048.399003) vcan0 164#0000C01AA8000022
(1728486048.399017) vcan0 133#0000000089
(1728486048.399020) vcan0 136#000200000000000C
(1728486048.399023) vcan0 13A#000000000000000A
(1728486048.399025) vcan0 13F#0000000500000000
(1728486048.400746) vcan0 17C#0000000010000003
(1728486048.400756) vcan0 18E#00004D
(1728486048.400758) vcan0 1CF#80050000002D
(1728486048.400760) vcan0 1DC#0200002A
(1728486048.400763) vcan0 183#0000000A00001001
(1728486048.401729) vcan0 244#0000000189
(1728486048.402067) vcan0 143#6B6B00C2
(1728486048.403678) vcan0 095#800007F400000035
(1728486048.405157) vcan0 1A4#0000000800000001
(1728486048.405184) vcan0 1AA#7FFF000000006702
(1728486048.405187) vcan0 1B0#000F0000000148
(1728486048.405189) vcan0 1D0#000000000000000A
(1728486048.406591) vcan0 166#D0320009
(1728486048.408530) vcan0 158#000000000000000A
(1728486048.408535) vcan0 161#000005500108000D
(1728486048.408538) vcan0 191#010010A1410038
(1728486048.408540) vcan0 18E#00005C
(1728486048.408542) vcan0 133#0000000098
(1728486048.408544) vcan0 136#000200000000001B
(1728486048.410459) vcan0 13A#0000000000000019
(1728486048.410479) vcan0 13F#000000050000001F
(1728486048.410485) vcan0 164#0000C01AA8000031
(1728486048.410493) vcan0 17C#0000000010000012
(1728486048.410498) vcan0 183#0000000700001013
(1728486048.411698) vcan0 143#6B6B00D1
(1728486048.413413) vcan0 095#800007F400000008
(1728486048.413439) vcan0 039#0039
(1728486048.414405) vcan0 244#000000014F
(1728486048.416330) vcan0 166#D0320018
(1728486048.418240) vcan0 158#0000000000000019
(1728486048.418252) vcan0 161#000005500108001C
(1728486048.418254) vcan0 191#010010A141000B
(1728486048.418257) vcan0 164#0000C01AA8000004
(1728486048.418259) vcan0 133#00000000A7
(1728486048.418262) vcan0 136#000200000000002A
(1728486048.419431) vcan0 13A#0000000000000028
(1728486048.419444) vcan0 13F#000000050000002E
(1728486048.419446) vcan0 17C#0000000010000021
(1728486048.419449) vcan0 18E#00006B
(1728486048.419451) vcan0 1CF#80050000003C
(1728486048.421164) vcan0 1DC#02000039
(1728486048.421172) vcan0 183#0000000500001024
(1728486048.423124) vcan0 143#6B6B00E0
(1728486048.423131) vcan0 095#800007F400000017
(1728486048.424499) vcan0 1A4#0000000800000010
(1728486048.424506) vcan0 1AA#7FFF000000006810
(1728486048.424508) vcan0 1B0#000F0000000157
(1728486048.425530) vcan0 244#000000017A
(1728486048.426047) vcan0 1D0#000000000000000A
(1728486048.426060) vcan0 166#D0320027
(1728486048.427186) vcan0 039#000C
(1728486048.427195) vcan0 158#0000000000000028
(1728486048.428279) vcan0 161#000005500108002B
(1728486048.428287) vcan0 191#010010A141001A
(1728486048.428289) vcan0 164#0000C01AA8000013
(1728486048.428291) vcan0 133#00000000B6
(1728486048.429879) vcan0 136#0002000000000039
(1728486048.429889) vcan0 13A#0000000000000037
(1728486048.429892) vcan0 13F#000000050000003D
(1728486048.429894) vcan0 17C#0000000010000030
(1728486048.429896) vcan0 18E#00007A
(1728486048.429899) vcan0 294#040B0002CF5A000E
(1728486048.429901) vcan0 21E#03E83745220601
(1728486048.430944) vcan0 183#0000000300001035
(1728486048.432296) vcan0 143#6B6B00FF
(1728486048.433824) vcan0 095#800007F400000026
(1728486048.436762) vcan0 166#D0320036
(1728486048.437712) vcan0 244#000000013C
(1728486048.438665) vcan0 158#0000000000000037
(1728486048.438673) vcan0 161#000005500108003A
(1728486048.438676) vcan0 191#010010A1410029
(1728486048.438678) vcan0 18E#00004D
(1728486048.438681) vcan0 133#0000000089
(1728486048.438683) vcan0 136#000200000000000C
(1728486048.438685) vcan0 13A#000000000000000A
(1728486048.439878) vcan0 13F#0000000500000000
(1728486048.439935) vcan0 164#0000C01AA8000022
(1728486048.439976) vcan0 17C#0000000010000003
(1728486048.439986) vcan0 1CF#80050000000F
(1728486048.440069) vcan0 1DC#0200000C
(1728486048.440078) vcan0 183#0000000200001009
(1728486048.441584) vcan0 143#6B6B00C2
(1728486048.442610) vcan0 333#0000000000001E
(1728486048.444499) vcan0 095#800007F400000035
(1728486048.444510) vcan0 1A4#000000080000002F
(1728486048.444515) vcan0 1AA#7FFF00000000682F
(1728486048.444521) vcan0 1B0#000F0000000166
(1728486048.444529) vcan0 039#001B
(1728486048.445545) vcan0 1D0#000000000000000A
(1728486048.445558) vcan0 305#8026
(1728486048.446581) vcan0 166#D0320009
(1728486048.447637) vcan0 158#000000000000000A
(1728486048.447679) vcan0 161#000005500108000D
(1728486048.447691) vcan0 191#010010A1410038
(1728486048.449034) vcan0 18E#00005C
(1728486048.449044) vcan0 133#0000000098
(1728486048.449047) vcan0 136#000200000000001B
(1728486048.449050) vcan0 13A#0000000000000019
(1728486048.449052) vcan0 13F#000000050000001F
(1728486048.449299) vcan0 244#00000001A9
(1728486048.450357) vcan0 164#0000C01AA8000031
(1728486048.450365) vcan0 17C#0000000010000012
(1728486048.451459) vcan0 183#0000000900001011
(1728486048.451473) vcan0 143#6B6B00D1
(1728486048.453848) vcan0 095#800007F400000008
(1728486048.457166) vcan0 166#D0320018
(1728486048.457175) vcan0 158#0000000000000019
(1728486048.459133) vcan0 161#000005500108001C
(1728486048.459144) vcan0 191#010010A141000B
(1728486048.459146) vcan0 164#0000C01AA8000004
(1728486048.459149) vcan0 133#00000000A7
(1728486048.459151) vcan0 136#000200000000002A
(1728486048.459153) vcan0 13A#0000000000000028
(1728486048.459159) vcan0 13F#000000050000002E
(1728486048.459161) vcan0 17C#0000000010000021
(1728486048.460461) vcan0 244#0000000142
(1728486048.460546) vcan0 18E#00006B
(1728486048.460556) vcan0 1CF#80050000001E
(1728486048.460563) vcan0 039#002A
(1728486048.460566) vcan0 1DC#0200001B
(1728486048.460568) vcan0 320#000012
(1728486048.460570) vcan0 183#0000000600001023
(1728486048.460573) vcan0 324#7465000000000E1A
(1728486048.462040) vcan0 37C#FD00FD00097F001A
(1728486048.462055) vcan0 40C#0236323239533039
(1728486048.462057) vcan0 454#23EF36
(1728486048.462060) vcan0 143#6B6B00E0
(1728486048.463080) vcan0 095#800007F400000017
(1728486048.464100) vcan0 1A4#000000080000003E
(1728486048.465115) vcan0 1AA#7FFF00000000673F
(1728486048.465123) vcan0 1B0#000F0000000175
(1728486048.465126) vcan0 1D0#000000000000000A
(1728486048.466135) vcan0 166#D0320027
(1728486048.467507) vcan0 158#0000000000000028
(1728486048.467522) vcan0 161#000005500108002B
(1728486048.468851) vcan0 191#010010A141001A
(1728486048.468861) vcan0 133#00000000B6
(1728486048.468864) vcan0 136#0002000000000039
(1728486048.468866) vcan0 13A#0000000000000037
(1728486048.468868) vcan0 13F#000000050000003D
(1728486048.470786) vcan0 164#0000C01AA8000013
(1728486048.470797) vcan0 17C#0000000010000030
(1728486048.470799) vcan0 18E#00007A
(1728486048.470802) vcan0 294#040B0002CF5A001D
(1728486048.470805) vcan0 21E#03E83745220610
(1728486048.470807) vcan0 183#0000000400001034
(1728486048.472676) vcan0 143#6B6B00FF
(1728486048.473521) vcan0 244#0000000114
(1728486048.474143) vcan0 095#800007F400000026
(1728486048.474378) vcan0 039#0039
(1728486048.477618) vcan0 166#D0320036
(1728486048.477628) vcan0 158#0000000000000037
(1728486048.477631) vcan0 161#000005500108003A
(1728486048.477633) vcan0 191#010010A1410029
(1728486048.479091) vcan0 164#0000C01AA8000022
(1728486048.479100) vcan0 133#0000000089
(1728486048.479102) vcan0 136#000200000000000C
(1728486048.479106) vcan0 13A#000000000000000A
(1728486048.479108) vcan0 13F#0000000500000000
(1728486048.479111) vcan0 17C#0000000010000003
(1728486048.480442) vcan0 18E#00004D
(1728486048.480489) vcan0 1CF#80050000002D
(1728486048.480492) vcan0 1DC#0200002A
(1728486048.480494) vcan0 183#0000000A00001001
(1728486048.481863) vcan0 143#6B6B00C2
(1728486048.483459) vcan0 095#800007F400000035
(1728486048.484489) vcan0 1A4#0000000800000001
(1728486048.484507) vcan0 1AA#7FFF000000006702
(1728486048.484512) vcan0 1B0#000F0000000148
(1728486048.484600) vcan0 244#000000019E
(1728486048.486298) vcan0 1D0#000000000000000A
(1728486048.486310) vcan0 166#D0320009
(1728486048.487563) vcan0 158#000000000000000A
(1728486048.487576) vcan0 161#000005500108000D
(1728486048.487600) vcan0 039#000C
(1728486048.488904) vcan0 191#010010A1410038
(1728486048.488923) vcan0 164#0000C01AA8000031
(1728486048.488929) vcan0 133#0000000098
(1728486048.488934) vcan0 136#000200000000001B
(1728486048.488940) vcan0 13A#0000000000000019
(1728486048.488945) vcan0 13F#000000050000001F
(1728486048.490855) vcan0 17C#0000000010000012
(1728486048.490873) vcan0 18E#00005C
(1728486048.490882) vcan0 309#00000000000000A2
(1728486048.490887) vcan0 428#01040000521C01
(1728486048.490892) vcan0 405#000004000000000B
(1728486048.490898) vcan0 183#0000000700001013
(1728486048.492785) vcan0 143#6B6B00D1
(1728486048.494300) vcan0 095#800007F400000008
(1728486048.496000) vcan0 244#000000012E
(1728486048.496721) vcan0 166#D0320018
(1728486048.498700) vcan0 158#0000000000000019
(1728486048.498724) vcan0 161#000005500108001C
(1728486048.498732) vcan0 191#010010A141000B
(1728486048.498739) vcan0 164#0000C01AA8000004
(1728486048.498745) vcan0 133#00000000A7
(1728486048.498752) vcan0 136#000200000000002A
(1728486048.498757) vcan0 13A#0000000000000028
(1728486048.498764) vcan0 13F#000000050000002E
(1728486048.500577) vcan0 17C#0000000010000021
(1728486048.500591) vcan0 18E#00006B
(1728486048.500597) vcan0 1CF#80050000003C
(1728486048.500604) vcan0 1DC#02000039
(1728486048.500609) vcan0 183#0000000500001024
(1728486048.500614) vcan0 039#001B
(1728486048.501920) vcan0 143#6B6B00E0
(1728486048.503556) vcan0 095#800007F400000017
(1728486048.505470) vcan0 1A4#0000000800000010
(1728486048.505484) vcan0 1AA#7FFF000000006810
(1728486048.505489) vcan0 1B0#000F0000000157
(1728486048.505495) vcan0 1D0#000000000000000A
(1728486048.506437) vcan0 244#00000001B2
(1728486048.506604) vcan0 166#D0320027
(1728486048.508113) vcan0 158#0000000000000028
(1728486048.508123) vcan0 161#000005500108002B
(1728486048.508126) vcan0 191#010010A141001A
(1728486048.508128) vcan0 164#0000C01AA8000013
(1728486048.508130) vcan0 133#00000000B6
(1728486048.509156) vcan0 136#0002000000000039
(1728486048.509169) vcan0 13A#0000000000000037
(1728486048.509171) vcan0 13F#000000050000003D
(1728486048.509174) vcan0 17C#0000000010000030
(1728486048.510314) vcan0 18E#00007A
(1728486048.510324) vcan0 294#040B0002CF5A002C
(1728486048.510327) vcan0 21E#03E8374522062F
(1728486048.511336) vcan0 183#0000000B0000103D
(1728486048.512352) vcan0 143#6B6B00FF
(1728486048.513375) vcan0 095#800007F400000026
(1728486048.514862) vcan0 039#002A
(1728486048.515888) vcan0 166#D0320036
(1728486048.517132) vcan0 244#0000000166
(1728486048.517144) vcan0 158#0000000000000037
(1728486048.518161) vcan0 161#000005500108003A
(1728486048.518198) vcan0 191#010010A1410029
(1728486048.518204) vcan0 164#0000C01AA8000022
(1728486048.518209) vcan0 133#0000000089
(1728486048.519221) vcan0 136#000200000000000C
(1728486048.519230) vcan0 13A#000000000000000A
(1728486048.519235) vcan0 13F#0000000500000000
(1728486048.519240) vcan0 17C#0000000010000003
(1728486048.519245) vcan0 18E#00004D
(1728486048.520257) vcan0 1CF#80050000000F
(1728486048.520265) vcan0 1DC#0200000C
(1728486048.520270) vcan0 183#0000000800001003
(1728486048.521646) vcan0 143#6B6B00C2
(1728486048.523946) vcan0 095#800007F400000035
(1728486048.523959) vcan0 1A4#000000080000002F
(1728486048.524974) vcan0 1AA#7FFF00000000682F
(1728486048.524983) vcan0 1B0#000F0000000166
(1728486048.524986) vcan0 1D0#000000000000000A
(1728486048.525998) vcan0 166#D0320009
(1728486048.528074) vcan0 158#000000000000000A
(1728486048.528086) vcan0 161#000005500108000D
(1728486048.528091) vcan0 191#010010A1410038
(1728486048.528096) vcan0 164#0000C01AA8000031
(1728486048.528109) vcan0 133#0000000098
(1728486048.529301) vcan0 136#000200000000001B
(1728486048.529357) vcan0 039#0039
(1728486048.529364) vcan0 13A#0000000000000019
(1728486048.529402) vcan0 13F#000000050000001F
(1728486048.529408) vcan0 17C#0000000010000012
(1728486048.529413) vcan0 18E#00005C
(1728486048.530729) vcan0 183#0000000D0000101D
(1728486048.532666) vcan0 143#6B6B00D1
(1728486048.532814) vcan0 244#0000000183
(1728486048.533684) vcan0 095#800007F400000008
(1728486048.536050) vcan0 166#D0320018
(1728486048.537549) vcan0 158#0000000000000019
(1728486048.537568) vcan0 161#000005500108001C
(1728486048.537574) vcan0 191#010010A141000B
(1728486048.539493) vcan0 164#0000C01AA8000004
(1728486048.539503) vcan0 133#00000000A7
(1728486048.539506) vcan0 136#000200000000002A
(1728486048.539510) vcan0 13A#0000000000000028
(1728486048.539513) vcan0 13F#000000050000002E
(1728486048.539515) vcan0 17C#0000000010000021
(1728486048.539519) vcan0 18E#00006B
(1728486048.539522) vcan0 1CF#80050000001E
(1728486048.541400) vcan0 1DC#0200001B
(1728486048.541411) vcan0 183#0000000900001020
(1728486048.541413) vcan0 143#6B6B00E0
(1728486048.542498) vcan0 333#0000000000002D
(1728486048.543019) vcan0 039#000C
(1728486048.543609) vcan0 244#000000016F
(1728486048.544068) vcan0 095#800007F400000017
(1728486048.544079) vcan0 1A4#000000080000003E
(1728486048.546272) vcan0 1AA#7FFF00000000673F
(1728486048.546280) vcan0 1B0#000F0000000175
(1728486048.546283) vcan0 1D0#000000000000000A
(1728486048.546285) vcan0 166#D0320027
(1728486048.547318) vcan0 158#0000000000000028
(1728486048.549206) vcan0 161#000005500108002B
(1728486048.549215) vcan0 191#010010A141001A
(1728486048.549217) vcan0 18E#00007A
(1728486048.549220) vcan0 133#00000000B6
(1728486048.549222) vcan0 136#0002000000000039
(1728486048.549225) vcan0 13A#0000000000000037
(1728486048.549227) vcan0 13F#000000050000003D
(1728486048.549229) vcan0 164#0000C01AA8000013
(1728486048.549233) vcan0 17C#0000000010000030
(1728486048.550258) vcan0 294#040B0002CF5A003B
(1728486048.550271) vcan0 305#8035
(1728486048.550273) vcan0 21E#03E8374522063E
(1728486048.551289) vcan0 183#0000000600001032
(1728486048.552312) vcan0 143#6B6B00FF
(1728486048.553331) vcan0 095#800007F400000026
(1728486048.555984) vcan0 166#D0320036
(1728486048.557011) vcan0 039#001B
(1728486048.558955) vcan0 158#0000000000000037
(1728486048.558966) vcan0 161#000005500108003A
(1728486048.558969) vcan0 191#010010A1410029
(1728486048.558971) vcan0 164#0000C01AA8000022
(1728486048.558975) vcan0 133#0000000089
(1728486048.558977) vcan0 136#000200000000000C
(1728486048.558980) vcan0 13A#000000000000000A
(1728486048.558982) vcan0 13F#0000000500000000
(1728486048.559291) vcan0 244#0000000176
(1728486048.559998) vcan0 17C#0000000010000003
(1728486048.560007) vcan0 18E#00004D
(1728486048.560009) vcan0 1CF#80050000002D
(1728486048.560011) vcan0 1DC#0200002A
(1728486048.560014) vcan0 320#000021
(1728486048.560016) vcan0 183#0000000C0000100F
(1728486048.561032) vcan0 324#7465000000000E29
(1728486048.561039) vcan0 37C#FD00FD00097F0029
(1728486048.562065) vcan0 143#6B6B00C2
(1728486048.563131) vcan0 095#800007F400000035
(1728486048.564176) vcan0 1A4#0000000800000001
(1728486048.564193) vcan0 1AA#7FFF000000006702
(1728486048.565846) vcan0 1B0#000F0000000148
(1728486048.565865) vcan0 1D0#000000000000000A
(1728486048.565871) vcan0 166#D0320009
(1728486048.568654) vcan0 158#000000000000000A
(1728486048.568666) vcan0 161#000005500108000D
(1728486048.568671) vcan0 191#010010A1410038
(1728486048.568676) vcan0 18E#00005C
(1728486048.568681) vcan0 133#0000000098
(1728486048.568686) vcan0 136#000200000000001B
(1728486048.568691) vcan0 13A#0000000000000019
(1728486048.569622) vcan0 188#00000000
(1728486048.569705) vcan0 13F#000000050000001F
(1728486048.569715) vcan0 164#0000C01AA8000031
(1728486048.569720) vcan0 17C#0000000010000012
(1728486048.570764) vcan0 183#0000000900001011
(1728486048.572570) vcan0 143#6B6B00D1
(1728486048.573599) vcan0 095#800007F400000008
(1728486048.574736) vcan0 244#00000001C3
(1728486048.576643) vcan0 166#D0320018
(1728486048.577672) vcan0 158#0000000000000019
(1728486048.577688) vcan0 161#000005500108001C
(1728486048.577694) vcan0 039#002A
(1728486048.578713) vcan0 164#0000C01AA8000004
(1728486048.578725) vcan0 191#010010A141000B
(1728486048.578731) vcan0 133#00000000A7
(1728486048.578736) vcan0 136#000200000000002A
(1728486048.578741) vcan0 13A#0000000000000028
(1728486048.579806) vcan0 13F#000000050000002E
(1728486048.579824) vcan0 17C#0000000010000021
(1728486048.579830) vcan0 18E#00006B
(1728486048.579835) vcan0 1CF#80050000003C
(1728486048.579840) vcan0 1DC#02000039
(1728486048.581311) vcan0 183#0000000E0000102B
(1728486048.583234) vcan0 143#6B6B00E0
(1728486048.583243) vcan0 095#800007F400000017
