(1728486080.116957) vcan0 166#D0320018
(1728486080.116964) vcan0 158#0000000000000019
(1728486080.116966) vcan0 161#000005500108001C
(1728486080.116969) vcan0 191#010010A141000B
(1728486080.117079) vcan0 244#00000001AA
(1728486080.118124) vcan0 164#0000C01AA8000004
(1728486080.118135) vcan0 133#00000000A7
(1728486080.118137) vcan0 136#000200000000002A
(1728486080.118140) vcan0 13A#0000000000000028
(1728486080.118142) vcan0 13F#000000050000002E
(1728486080.119839) vcan0 039#002A
(1728486080.119850) vcan0 17C#0000000010000021
(1728486080.119852) vcan0 18E#00006B
(1728486080.119854) vcan0 1CF#80050000001E
(1728486080.119856) vcan0 1DC#0200001B
(1728486080.119858) vcan0 183#0000000900001020
(1728486080.121805) vcan0 143#6B6B00E0
(1728486080.123753) vcan0 095#800007F400000017
(1728486080.123779) vcan0 1A4#000000080000003E
(1728486080.123782) vcan0 1AA#7FFF00000000683E
(1728486080.123786) vcan0 1B0#000F0000000175
(1728486080.125678) vcan0 1D0#000000000000000A
(1728486080.125688) vcan0 166#D0320027
(1728486080.127724) vcan0 158#0000000000000028
(1728486080.127733) vcan0 161#000005500108002B
(1728486080.127735) vcan0 191#010010A141001A
(1728486080.127737) vcan0 133#00000000B6
(1728486080.127740) vcan0 136#0002000000000039
(1728486080.127742) vcan0 13A#0000000000000037
(1728486080.128122) vcan0 244#000000013E
(1728486080.128792) vcan0 13F#000000050000003D
(1728486080.128803) vcan0 164#0000C01AA8000013
(1728486080.128805) vcan0 17C#0000000010000030
(1728486080.128809) vcan0 18E#00007A
(1728486080.128811) vcan0 294#040B0002CF5A003B
(1728486080.129833) vcan0 21E#03E8374522063E
(1728486080.129842) vcan0 309#0000000000000093
(1728486080.130866) vcan0 183#0000000600001032
(1728486080.130875) vcan0 143#6B6B00FF
(1728486080.132187) vcan0 039#0039
(1728486080.133439) vcan0 095#800007F400000026
(1728486080.135477) vcan0 166#D0320036
(1728486080.136517) vcan0 158#0000000000000037
(1728486080.137533) vcan0 161#000005500108003A
(1728486080.137539) vcan0 191#010010A1410029
(1728486080.137541) vcan0 133#0000000089
(1728486080.137543) vcan0 136#000200000000000C
(1728486080.138474) vcan0 244#0000000147
(1728486080.138560) vcan0 13A#000000000000000A
(1728486080.138565) vcan0 13F#0000000500000000
(1728486080.138567) vcan0 164#0000C01AA8000022
(1728486080.138569) vcan0 17C#0000000010000003
(1728486080.138571) vcan0 18E#00004D
(1728486080.140266) vcan0 1CF#80050000002D
(1728486080.140275) vcan0 1DC#0200002A
(1728486080.140277) vcan0 183#0000000C0000100F
(1728486080.142175) vcan0 143#6B6B00C2
(1728486080.144234) vcan0 095#800007F400000035
(1728486080.144245) vcan0 1A4#0000000800000001
(1728486080.144248) vcan0 1AA#7FFF000000006801
(1728486080.144252) vcan0 1B0#000F0000000148
(1728486080.144254) vcan0 1D0#000000000000000A
(1728486080.145643) vcan0 166#D0320009
(1728486080.147071) vcan0 039#000C
(1728486080.147083) vcan0 158#000000000000000A
(1728486080.147085) vcan0 161#000005500108000D
(1728486080.147088) vcan0 191#010010A1410038
(1728486080.148991) vcan0 133#0000000098
(1728486080.149005) vcan0 136#000200000000001B
(1728486080.149007) vcan0 13A#0000000000000019
(1728486080.149009) vcan0 13F#000000050000001F
(1728486080.149012) vcan0 164#0000C01AA8000031
(1728486080.149014) vcan0 17C#0000000010000012
(1728486080.149016) vcan0 18E#00005C
(1728486080.149960) vcan0 244#0000000109
(1728486080.151910) vcan0 183#0000001000001019
(1728486080.151918) vcan0 143#6B6B00D1
(1728486080.152933) vcan0 095#800007F400000008
(1728486080.155808) vcan0 166#D0320018
(1728486080.156826) vcan0 158#0000000000000019
(1728486080.156835) vcan0 161#000005500108001C
(1728486080.157849) vcan0 191#010010A141000B
(1728486080.157857) vcan0 133#00000000A7
(1728486080.157860) vcan0 136#000200000000002A
(1728486080.157862) vcan0 13A#0000000000000028
(1728486080.158878) vcan0 13F#000000050000002E
(1728486080.158884) vcan0 164#0000C01AA8000004
(1728486080.158887) vcan0 17C#0000000010000021
(1728486080.158889) vcan0 18E#00006B
(1728486080.158891) vcan0 1CF#80050000003C
(1728486080.160647) vcan0 1DC#02000039
(1728486080.160653) vcan0 183#0000000C0000102D
(1728486080.160656) vcan0 143#6B6B00E0
(1728486080.160668) vcan0 244#0000000165
(1728486080.161803) vcan0 039#001B
(1728486080.162966) vcan0 095#800007F400000017
(1728486080.164562) vcan0 1A4#0000000800000010
(1728486080.164576) vcan0 1AA#7FFF000000006711
(1728486080.164578) vcan0 1B0#000F0000000157
(1728486080.164581) vcan0 1D0#000000000000000A
(1728486080.165597) vcan0 166#D0320027
(1728486080.167488) vcan0 158#0000000000000028
(1728486080.167497) vcan0 161#000005500108002B
(1728486080.167499) vcan0 191#010010A141001A
(1728486080.167501) vcan0 133#00000000B6
(1728486080.167504) vcan0 136#0002000000000039
(1728486080.169457) vcan0 13A#0000000000000037
(1728486080.169471) vcan0 13F#000000050000003D
(1728486080.169474) vcan0 164#0000C01AA8000013
(1728486080.169476) vcan0 17C#0000000010000030
(1728486080.169478) vcan0 18E#00007A
(1728486080.169480) vcan0 294#040B0002CF5A000E
(1728486080.169483) vcan0 21E#03E83745220601
(1728486080.171368) vcan0 183#0000001000001037
(1728486080.171375) vcan0 143#6B6B00FF
(1728486080.172376) vcan0 244#00000001B7
(1728486080.174280) vcan0 095#800007F400000026
(1728486080.174288) vcan0 039#002A
(1728486080.176249) vcan0 166#D0320036
(1728486080.178192) vcan0 158#0000000000000037
(1728486080.178202) vcan0 161#000005500108003A
(1728486080.178204) vcan0 191#010010A1410029
(1728486080.178206) vcan0 133#0000000089
(1728486080.178209) vcan0 136#000200000000000C
(1728486080.178211) vcan0 13A#000000000000000A
(1728486080.178213) vcan0 13F#0000000500000000
(1728486080.178216) vcan0 164#0000C01AA8000022
(1728486080.180093) vcan0 17C#0000000010000003
(1728486080.180111) vcan0 18E#00004D
(1728486080.180114) vcan0 1CF#80050000000F
(1728486080.180116) vcan0 1DC#0200000C
(1728486080.180118) vcan0 183#0000000C0000100F
(1728486080.182080) vcan0 143#6B6B00C2
(1728486080.182092) vcan0 333#0000000000001E
(1728486080.183115) vcan0 095#800007F400000035
(1728486080.183317) vcan0 244#0000000105
(1728486080.184972) vcan0 1A4#000000080000002F
(1728486080.184980) vcan0 1AA#7FFF000000006720
(1728486080.184982) vcan0 1B0#000F0000000166
(1728486080.184984) vcan0 1D0#000000000000000A
(1728486080.186953) vcan0 166#D0320009
(1728486080.186959) vcan0 305#8017
(1728486080.186972) vcan0 158#000000000000000A
(1728486080.186974) vcan0 161#000005500108000D
(1728486080.186976) vcan0 191#010010A1410038
(1728486080.188883) vcan0 133#0000000098
(1728486080.188889) vcan0 136#000200000000001B
(1728486080.188893) vcan0 13A#0000000000000019
(1728486080.188895) vcan0 13F#000000050000001F
(1728486080.188897) vcan0 164#0000C01AA8000031
(1728486080.188900) vcan0 17C#0000000010000012
(1728486080.188902) vcan0 18E#00005C
(1728486080.190842) vcan0 183#0000000900001011
(1728486080.190852) vcan0 143#6B6B00D1
(1728486080.192827) vcan0 095#800007F400000008
(1728486080.193896) vcan0 039#0039
(1728486080.195643) vcan0 166#D0320018
(1728486080.196700) vcan0 158#0000000000000019
(1728486080.198602) vcan0 161#000005500108001C
(1728486080.198648) vcan0 191#010010A141000B
(1728486080.198653) vcan0 133#00000000A7
(1728486080.198655) vcan0 136#000200000000002A
(1728486080.198660) vcan0 13A#0000000000000028
(1728486080.198662) vcan0 13F#000000050000002E
(1728486080.198664) vcan0 164#0000C01AA8000004
(1728486080.198666) vcan0 17C#0000000010000021
(1728486080.198669) vcan0 18E#00006B
(1728486080.199039) vcan0 244#00000001F9
(1728486080.199687) vcan0 1CF#80050000001E
(1728486080.199694) vcan0 1DC#0200001B
(1728486080.199697) vcan0 320#000012
(1728486080.199699) vcan0 324#7465000000000E1A
(1728486080.199701) vcan0 37C#FD00FD00097F001A
(1728486080.201516) vcan0 40C#0236323239533039
(1728486080.201521) vcan0 183#0000000E0000102B
(1728486080.201524) vcan0 454#23EF36
(1728486080.201526) vcan0 143#6B6B00E0
(1728486080.203427) vcan0 095#800007F400000017
(1728486080.203436) vcan0 1A4#000000080000003E
(1728486080.204488) vcan0 1AA#7FFF00000000683E
(1728486080.204497) vcan0 1B0#000F0000000175
(1728486080.204499) vcan0 1D0#000000000000000A
(1728486080.205562) vcan0 166#D0320027
(1728486080.207368) vcan0 158#0000000000000028
(1728486080.207374) vcan0 039#000C
(1728486080.207376) vcan0 161#000005500108002B
(1728486080.207378) vcan0 191#010010A141001A
(1728486080.207381) vcan0 133#00000000B6
(1728486080.209297) vcan0 136#0002000000000039
(1728486080.209303) vcan0 13A#0000000000000037
(1728486080.209306) vcan0 13F#000000050000003D
(1728486080.209308) vcan0 164#0000C01AA8000013
(1728486080.209310) vcan0 17C#0000000010000030
(1728486080.209312) vcan0 18E#00007A
(1728486080.209314) vcan0 294#040B0002CF5A001D
(1728486080.209316) vcan0 21E#03E83745220610
(1728486080.211243) vcan0 183#0000000A0000103E
(1728486080.211253) vcan0 143#6B6B00FF
(1728486080.211278) vcan0 244#00000001B1
(1728486080.213258) vcan0 095#800007F400000026
(1728486080.216223) vcan0 166#D0320036
(1728486080.218068) vcan0 158#0000000000000037
(1728486080.218075) vcan0 161#000005500108003A
(1728486080.218077) vcan0 191#010010A1410029
(1728486080.218079) vcan0 133#0000000089
(1728486080.218081) vcan0 136#000200000000000C
(1728486080.218083) vcan0 13A#000000000000000A
(1728486080.218086) vcan0 13F#0000000500000000
(1728486080.219176) vcan0 164#0000C01AA8000022
(1728486080.219183) vcan0 17C#0000000010000003
(1728486080.219186) vcan0 18E#00004D
(1728486080.219188) vcan0 1CF#80050000002D
(1728486080.219190) vcan0 1DC#0200002A
(1728486080.220981) vcan0 183#0000000700001004
(1728486080.220988) vcan0 143#6B6B00C2
(1728486080.222943) vcan0 095#800007F400000035
(1728486080.223854) vcan0 244#00000001E9
(1728486080.224427) vcan0 039#001B
(1728486080.224433) vcan0 1A4#0000000800000001
(1728486080.224435) vcan0 1AA#7FFF000000006801
(1728486080.224437) vcan0 1B0#000F0000000148
(1728486080.224440) vcan0 1D0#000000000000000A
(1728486080.225861) vcan0 166#D0320009
(1728486080.226893) vcan0 158#000000000000000A
(1728486080.226901) vcan0 161#000005500108000D
(1728486080.228802) vcan0 191#010010A1410038
(1728486080.228811) vcan0 133#0000000098
(1728486080.228814) vcan0 136#000200000000001B
(1728486080.228816) vcan0 13A#0000000000000019
(1728486080.228818) vcan0 13F#000000050000001F
(1728486080.228834) vcan0 164#0000C01AA8000031
(1728486080.228837) vcan0 17C#0000000010000012
(1728486080.228855) vcan0 18E#00005C
(1728486080.228875) vcan0 309#00000000000000A2
(1728486080.230765) vcan0 428#01040000521C01
(1728486080.230777) vcan0 405#000004000000000B
(1728486080.230779) vcan0 183#0000000D0000101D
(1728486080.230781) vcan0 143#6B6B00D1
(1728486080.234597) vcan0 095#800007F400000008
(1728486080.235570) vcan0 244#00000001F2
(1728486080.235994) vcan0 166#D0320018
(1728486080.237626) vcan0 158#0000000000000019
(1728486080.237635) vcan0 161#000005500108001C
(1728486080.237637) vcan0 191#010010A141000B
(1728486080.237639) vcan0 039#002A
(1728486080.237641) vcan0 133#00000000A7
(1728486080.237644) vcan0 136#000200000000002A
(1728486080.238671) vcan0 13A#0000000000000028
(1728486080.238679) vcan0 13F#000000050000002E
(1728486080.238682) vcan0 164#0000C01AA8000004
(1728486080.238684) vcan0 17C#0000000010000021
(1728486080.238686) vcan0 18E#00006B
(1728486080.240436) vcan0 1CF#80050000003C
(1728486080.240444) vcan0 1DC#02000039
(1728486080.240446) vcan0 183#0000000900001020
(1728486080.242388) vcan0 143#6B6B00E0
(1728486080.244340) vcan0 095#800007F400000017
(1728486080.244348) vcan0 1A4#0000000800000010
(1728486080.244350) vcan0 1AA#7FFF000000006711
(1728486080.244352) vcan0 1B0#000F0000000157
(1728486080.244354) vcan0 1D0#000000000000000A
(1728486080.245382) vcan0 166#D0320027
(1728486080.246432) vcan0 244#0000000127
(1728486080.248222) vcan0 158#0000000000000028
(1728486080.248230) vcan0 161#000005500108002B
(1728486080.248233) vcan0 191#010010A141001A
(1728486080.248235) vcan0 133#00000000B6
(1728486080.248237) vcan0 136#0002000000000039
(1728486080.248239) vcan0 13A#0000000000000037
(1728486080.248241) vcan0 13F#000000050000003D
(1728486080.248243) vcan0 164#0000C01AA8000013
(1728486080.250170) vcan0 17C#0000000010000030
(1728486080.250176) vcan0 18E#00007A
(1728486080.250178) vcan0 294#040B0002CF5A002C
(1728486080.250180) vcan0 21E#03E8374522062F
(1728486080.251196) vcan0 183#0000000E0000103A
(1728486080.251202) vcan0 143#6B6B00FF
(1728486080.253140) vcan0 095#800007F400000026
(1728486080.255029) vcan0 5A1#960000000000623E
(1728486080.256978) vcan0 166#D0320036
(1728486080.256983) vcan0 158#0000000000000037
(1728486080.256986) vcan0 161#000005500108003A
(1728486080.256988) vcan0 191#010010A1410029
(1728486080.257928) vcan0 244#0000000140
(1728486080.258364) vcan0 133#0000000089
(1728486080.258374) vcan0 039#0039
(1728486080.258377) vcan0 136#000200000000000C
(1728486080.258379) vcan0 13A#000000000000000A
(1728486080.258381) vcan0 13F#0000000500000000
(1728486080.258383) vcan0 164#0000C01AA8000022
(1728486080.259971) vcan0 17C#0000000010000003
(1728486080.259980) vcan0 18E#00004D
(1728486080.259982) vcan0 1CF#80050000000F
(1728486080.259985) vcan0 1DC#0200000C
(1728486080.259987) vcan0 183#0000000A00001001
(1728486080.261937) vcan0 143#6B6B00C2
(1728486080.262990) vcan0 095#800007F400000035
(1728486080.264764) vcan0 1A4#000000080000002F
(1728486080.264771) vcan0 1AA#7FFF000000006720
(1728486080.264774) vcan0 1B0#000F0000000166
(1728486080.264776) vcan0 1D0#000000000000000A
(1728486080.266737) vcan0 166#D0320009
(1728486080.266745) vcan0 158#000000000000000A
(1728486080.266747) vcan0 161#000005500108000D
(1728486080.268644) vcan0 191#010010A1410038
(1728486080.268650) vcan0 133#0000000098
(1728486080.268652) vcan0 136#000200000000001B
(1728486080.268654) vcan0 13A#0000000000000019
(1728486080.268656) vcan0 13F#000000050000001F
(1728486080.268658) vcan0 164#0000C01AA8000031
(1728486080.268661) vcan0 17C#0000000010000012
(1728486080.268660) vcan0 244#0000000136
(1728486080.268663) vcan0 18E#00005C
(1728486080.270602) vcan0 183#0000000700001013
(1728486080.270609) vcan0 143#6B6B00D1
(1728486080.272581) vcan0 039#000C
(1728486080.274489) vcan0 095#800007F400000008
(1728486080.275584) vcan0 166#D0320018
(1728486080.276658) vcan0 158#0000000000000019
(1728486080.278436) vcan0 161#000005500108001C
(1728486080.278450) vcan0 191#010010A141000B
(1728486080.278453) vcan0 133#00000000A7
(1728486080.278456) vcan0 136#000200000000002A
(1728486080.278459) vcan0 13A#0000000000000028
(1728486080.278461) vcan0 13F#000000050000002E
(1728486080.278463) vcan0 164#0000C01AA8000004
(1728486080.278465) vcan0 17C#0000000010000021
(1728486080.280330) vcan0 18E#00006B
(1728486080.280338) vcan0 1CF#80050000001E
(1728486080.280341) vcan0 1DC#0200001B
(1728486080.280343) vcan0 183#0000000500001024
(1728486080.281292) vcan0 244#00000001B8
(1728486080.281361) vcan0 143#6B6B00E0
(1728486080.283329) vcan0 333#0000000000002D
(1728486080.283339) vcan0 095#800007F400000017
(1728486080.283341) vcan0 1A4#000000080000003E
(1728486080.285258) vcan0 1AA#7FFF00000000683E
(1728486080.285268) vcan0 1B0#000F0000000175
(1728486080.285271) vcan0 1D0#000000000000000A
(1728486080.285273) vcan0 039#001B
(1728486080.285275) vcan0 166#D0320027
(1728486080.288177) vcan0 158#0000000000000028
(1728486080.288188) vcan0 161#000005500108002B
(1728486080.288190) vcan0 191#010010A141001A
(1728486080.288192) vcan0 133#00000000B6
(1728486080.288196) vcan0 136#0002000000000039
(1728486080.288199) vcan0 13A#0000000000000037
(1728486080.288202) vcan0 13F#000000050000003D
(1728486080.288204) vcan0 164#0000C01AA8000013
(1728486080.290107) vcan0 17C#0000000010000030
(1728486080.290117) vcan0 18E#00007A
(1728486080.290120) vcan0 294#040B0002CF5A003B
(1728486080.290122) vcan0 21E#03E8374522063E
(1728486080.293016) vcan0 244#0000000177
(1728486080.293078) vcan0 183#0000000300001035
(1728486080.293087) vcan0 143#6B6B00FF
(1728486080.293089) vcan0 305#8026
(1728486080.293091) vcan0 095#800007F400000026
(1728486080.296024) vcan0 166#D0320036
(1728486080.297841) vcan0 158#0000000000000037
(1728486080.297848) vcan0 161#000005500108003A
(1728486080.297850) vcan0 191#010010A1410029
(1728486080.297853) vcan0 133#0000000089
(1728486080.297855) vcan0 136#000200000000000C
(1728486080.297857) vcan0 13A#000000000000000A
(1728486080.298807) vcan0 188#00000000
(1728486080.299105) vcan0 13F#0000000500000000
(1728486080.299117) vcan0 164#0000C01AA8000022
(1728486080.299119) vcan0 039#002A
(1728486080.299122) vcan0 17C#0000000010000003
(1728486080.299124) vcan0 18E#00004D
(1728486080.299126) vcan0 1CF#80050000002D
(1728486080.299131) vcan0 1DC#0200002A
(1728486080.300787) vcan0 320#000021
(1728486080.300798) vcan0 324#7465000000000E29
(1728486080.300800) vcan0 37C#FD00FD00097F0029
(1728486080.300802) vcan0 183#0000000A00001001
(1728486080.300804) vcan0 143#6B6B00C2
(1728486080.304654) vcan0 244#0000000131
(1728486080.304665) vcan0 095#800007F400000035
(1728486080.304670) vcan0 1A4#0000000800000001
(1728486080.304672) vcan0 1AA#7FFF000000006801
(1728486080.304674) vcan0 1B0#000F0000000148
(1728486080.304678) vcan0 1D0#000000000000000A
(1728486080.306607) vcan0 166#D0320009
(1728486080.306616) vcan0 158#000000000000000A
(1728486080.308623) vcan0 161#000005500108000D
(1728486080.308635) vcan0 191#010010A1410038
(1728486080.308637) vcan0 133#0000000098
(1728486080.308639) vcan0 136#000200000000001B
(1728486080.308642) vcan0 13A#0000000000000019
(1728486080.308644) vcan0 13F#000000050000001F
(1728486080.308646) vcan0 164#0000C01AA8000031
(1728486080.308651) vcan0 17C#0000000010000012
(1728486080.308653) vcan0 18E#00005C
(1728486080.310739) vcan0 183#0000000700001013
(1728486080.310748) vcan0 143#6B6B00D1
(1728486080.314513) vcan0 095#800007F400000008
(1728486080.316467) vcan0 244#0000000119
(1728486080.316515) vcan0 166#D0320018
(1728486080.316524) vcan0 158#0000000000000019
(1728486080.318430) vcan0 161#000005500108001C
(1728486080.318444) vcan0 191#010010A141000B
(1728486080.318446) vcan0 133#00000000A7
(1728486080.318449) vcan0 136#000200000000002A
(1728486080.318451) vcan0 13A#0000000000000028
(1728486080.318454) vcan0 13F#000000050000002E
(1728486080.318457) vcan0 164#0000C01AA8000004
(1728486080.318460) vcan0 039#0039
(1728486080.320442) vcan0 17C#0000000010000021
(1728486080.320453) vcan0 18E#00006B
(1728486080.320456) vcan0 1CF#80050000003C
(1728486080.320458) vcan0 1DC#02000039
(1728486080.320460) vcan0 183#0000000500001024
(1728486080.322321) vcan0 143#6B6B00E0
(1728486080.324316) vcan0 095#800007F400000017
(1728486080.324335) vcan0 1A4#0000000800000010
(1728486080.324338) vcan0 1AA#7FFF000000006711
(1728486080.324340) vcan0 1B0#000F0000000157
(1728486080.324342) vcan0 1D0#000000000000000A
(1728486080.326227) vcan0 166#D0320027
(1728486080.327334) vcan0 244#0000000101
(1728486080.327404) vcan0 158#0000000000000028
(1728486080.327413) vcan0 161#000005500108002B
(1728486080.327416) vcan0 191#010010A141001A
(1728486080.327418) vcan0 133#00000000B6
(1728486080.327420) vcan0 136#0002000000000039
(1728486080.329147) vcan0 13A#0000000000000037
(1728486080.329163) vcan0 13F#000000050000003D
(1728486080.329165) vcan0 164#0000C01AA8000013
(1728486080.329168) vcan0 17C#0000000010000030
(1728486080.329170) vcan0 18E#00007A
(1728486080.329173) vcan0 294#040B0002CF5A000E
(1728486080.329177) vcan0 21E#03E83745220601
(1728486080.331008) vcan0 309#00000000000000B1
(1728486080.331016) vcan0 183#0000000B0000103D
(1728486080.331018) vcan0 143#6B6B00FF
(1728486080.333006) vcan0 039#000C
(1728486080.333016) vcan0 095#800007F400000026
(1728486080.335974) vcan0 166#D0320036
(1728486080.337819) vcan0 158#0000000000000037
(1728486080.337827) vcan0 161#000005500108003A
(1728486080.337829) vcan0 191#010010A1410029
(1728486080.337831) vcan0 133#0000000089
(1728486080.337833) vcan0 136#000200000000000C
(1728486080.337835) vcan0 13A#000000000000000A
(1728486080.338904) vcan0 244#00000001CC
(1728486080.339064) vcan0 13F#0000000500000000
(1728486080.339072) vcan0 164#0000C01AA8000022
(1728486080.339075) vcan0 17C#0000000010000003
(1728486080.339077) vcan0 18E#00004D
(1728486080.339079) vcan0 1CF#80050000000F
(1728486080.339081) vcan0 1DC#0200000C
(1728486080.341433) vcan0 183#0000000800001003
(1728486080.341446) vcan0 143#6B6B00C2
(1728486080.345687) vcan0 095#800007F400000035
(1728486080.345699) vcan0 1A4#000000080000002F
(1728486080.345701) vcan0 1AA#7FFF000000006720
(1728486080.345703) vcan0 1B0#000F0000000166
(1728486080.345706) vcan0 1D0#000000000000000A
(1728486080.345709) vcan0 166#D0320009
(1728486080.347129) vcan0 039#001B
(1728486080.347140) vcan0 158#000000000000000A
(1728486080.347142) vcan0 161#000005500108000D
(1728486080.347145) vcan0 191#010010A1410038
(1728486080.347147) vcan0 133#0000000098
(1728486080.348609) vcan0 136#000200000000001B
(1728486080.348620) vcan0 13A#0000000000000019
(1728486080.348622) vcan0 13F#000000050000001F
(1728486080.348625) vcan0 164#0000C01AA8000031
(1728486080.348627) vcan0 17C#0000000010000012
(1728486080.348629) vcan0 18E#00005C
(1728486080.350529) vcan0 183#0000000600001014
(1728486080.350541) vcan0 143#6B6B00D1
(1728486080.350562) vcan0 244#00000001DB
(1728486080.354414) vcan0 095#800007F400000008
(1728486080.356355) vcan0 166#D0320018
(1728486080.358262) vcan0 158#0000000000000019
(1728486080.358267) vcan0 161#000005500108001C
(1728486080.358269) vcan0 191#010010A141000B
(1728486080.358271) vcan0 133#00000000A7
(1728486080.358274) vcan0 136#000200000000002A
(1728486080.358276) vcan0 13A#0000000000000028
(1728486080.358278) vcan0 13F#000000050000002E
(1728486080.358280) vcan0 164#0000C01AA8000004
(1728486080.360263) vcan0 17C#0000000010000021
(1728486080.360271) vcan0 18E#00006B
(1728486080.360274) vcan0 1CF#80050000001E
(1728486080.360276) vcan0 1DC#0200001B
(1728486080.360278) vcan0 183#0000000C0000102D
(1728486080.361373) vcan0 143#6B6B00E0
(1728486080.361380) vcan0 039#002A
(1728486080.361480) vcan0 244#0000000122
(1728486080.363172) vcan0 095#800007F400000017
(1728486080.364194) vcan0 1A4#000000080000003E
(1728486080.364202) vcan0 1AA#7FFF00000000683E
(1728486080.364204) vcan0 1B0#000F0000000175
(1728486080.364206) vcan0 1D0#000000000000000A
(1728486080.366223) vcan0 166#D0320027
(1728486080.368095) vcan0 158#0000000000000028
(1728486080.368101) vcan0 161#000005500108002B
(1728486080.368103) vcan0 191#010010A141001A
(1728486080.368106) vcan0 133#00000000B6
(1728486080.368108) vcan0 136#0002000000000039
(1728486080.368110) vcan0 13A#0000000000000037
(1728486080.368112) vcan0 13F#000000050000003D
(1728486080.368114) vcan0 164#0000C01AA8000013
(1728486080.369128) vcan0 17C#0000000010000030
(1728486080.369133) vcan0 18E#00007A
(1728486080.369136) vcan0 294#040B0002CF5A001D
(1728486080.369138) vcan0 21E#03E83745220610
(1728486080.370880) vcan0 183#000000090000103F
(1728486080.370886) vcan0 143#6B6B00FF
(1728486080.372939) vcan0 244#00000001CD
(1728486080.373294) vcan0 095#800007F400000026
(1728486080.376734) vcan0 166#D0320036
(1728486080.376743) vcan0 158#0000000000000037
(1728486080.376745) vcan0 161#000005500108003A
(1728486080.378686) vcan0 191#010010A1410029
(1728486080.378699) vcan0 133#0000000089
(1728486080.378701) vcan0 136#000200000000000C
(1728486080.378704) vcan0 13A#000000000000000A
(1728486080.378708) vcan0 13F#0000000500000000
(1728486080.378710) vcan0 164#0000C01AA8000022
(1728486080.378712) vcan0 17C#0000000010000003
(1728486080.378715) vcan0 18E#00004D
(1728486080.380707) vcan0 1CF#80050000002D
(1728486080.380714) vcan0 1DC#0200002A
(1728486080.380716) vcan0 183#0000000E0000100D
(1728486080.380719) vcan0 143#6B6B00C2
(1728486080.382654) vcan0 039#0039
(1728486080.382665) vcan0 333#0000000000003C
(1728486080.383713) vcan0 095#800007F400000035
(1728486080.383725) vcan0 1A4#0000000800000001
(1728486080.383728) vcan0 1AA#7FFF000000006801
(1728486080.383730) vcan0 1B0#000F0000000148
(1728486080.384540) vcan0 244#0000000191
(1728486080.385171) vcan0 1D0#000000000000000A
(1728486080.386478) vcan0 166#D0320009
(1728486080.387526) vcan0 158#000000000000000A
(1728486080.387533) vcan0 161#000005500108000D
(1728486080.387535) vcan0 191#010010A1410038
(1728486080.387538) vcan0 133#0000000098
(1728486080.387541) vcan0 136#000200000000001B
(1728486080.388560) vcan0 13A#0000000000000019
(1728486080.388570) vcan0 13F#000000050000001F
(1728486080.388574) vcan0 164#0000C01AA8000031
(1728486080.388576) vcan0 17C#0000000010000012
(1728486080.388579) vcan0 18E#00005C
(1728486080.390406) vcan0 183#0000000A00001010
(1728486080.392349) vcan0 143#6B6B00D1
(1728486080.393383) vcan0 095#800007F400000008
(1728486080.394435) vcan0 305#8035
(1728486080.396210) vcan0 244#000000019F
(1728486080.396249) vcan0 166#D0320018
(1728486080.398154) vcan0 158#0000000000000019
(1728486080.398163) vcan0 161#000005500108001C
(1728486080.398165) vcan0 191#010090A1410003
(1728486080.398167) vcan0 133#00000000A7
(1728486080.398169) vcan0 136#000200000000002A
(1728486080.398171) vcan0 13A#0000000000000028
(1728486080.398173) vcan0 13F#000000050000002E
(1728486080.398176) vcan0 164#0000C01AA8000004
(1728486080.400097) vcan0 17C#0000000010000021
(1728486080.400104) vcan0 18E#00006B
(1728486080.400106) vcan0 1CF#80050000003C
(1728486080.400108) vcan0 1DC#02000039
(1728486080.400110) vcan0 320#000030
(1728486080.400114) vcan0 324#7465000000000E38
(1728486080.400116) vcan0 37C#FD00FD00097F0038
(1728486080.400118) vcan0 183#0000000F0000102A
(1728486080.403122) vcan0 143#6B6B00E0
(1728486080.403132) vcan0 039#000C
(1728486080.403135) vcan0 095#800007F400000017
(1728486080.405134) vcan0 1A4#0000000800000010
(1728486080.405145) vcan0 1AA#7FFF000000006711
(1728486080.405147) vcan0 1B0#000F0000000157
(1728486080.405149) vcan0 1D0#000000000000000A
(1728486080.406173) vcan0 166#D0320027
(1728486080.407882) vcan0 244#00000001F6
(1728486080.407950) vcan0 158#0000000000000028
(1728486080.407956) vcan0 161#000005500108002B
(1728486080.407958) vcan0 191#010090A1410012
(1728486080.407963) vcan0 133#00000000B6
(1728486080.407965) vcan0 136#0002000000000039
(1728486080.407967) vcan0 13A#0000000000000037
(1728486080.407969) vcan0 13F#000000050000003D
(1728486080.409810) vcan0 164#0000C01AA8000013
(1728486080.409819) vcan0 17C#0000000010000030
(1728486080.409821) vcan0 18E#00007A
(1728486080.409823) vcan0 294#040B0002CF5A002C
(1728486080.409825) vcan0 21E#03E8374522062F
(1728486080.411719) vcan0 183#0000001300001034
(1728486080.411734) vcan0 143#6B6B00FF
(1728486080.414691) vcan0 095#800007F400000026
(1728486080.415732) vcan0 166#D0320036
(1728486080.417667) vcan0 039#001B
(1728486080.417677) vcan0 158#0000000000000037
(1728486080.417680) vcan0 161#000005500108003A
(1728486080.417682) vcan0 191#010090A1410021
(1728486080.417684) vcan0 133#0000000089
(1728486080.417689) vcan0 136#000200000000000C
(1728486080.417691) vcan0 13A#000000000000000A
(1728486080.419559) vcan0 13F#0000000500000000
(1728486080.419569) vcan0 164#0000C01AA8000022
(1728486080.419571) vcan0 17C#0000000010000003
(1728486080.419573) vcan0 18E#00004D
(1728486080.419576) vcan0 1CF#80050000000F
(1728486080.419578) vcan0 1DC#0200000C
(1728486080.419666) vcan0 244#0000000154
(1728486080.421603) vcan0 183#0000000E0000100D
(1728486080.421614) vcan0 143#6B6B00C2
(1728486080.425397) vcan0 095#800007F400000035
(1728486080.425406) vcan0 1A4#000000080000002F
(1728486080.425408) vcan0 1AA#7FFF000000006720
(1728486080.425410) vcan0 1B0#000F0000000166
(1728486080.425412) vcan0 1D0#000000000000000A
(1728486080.425414) vcan0 166#D0320009
(1728486080.428405) vcan0 158#000000000000000A
(1728486080.428418) vcan0 161#000005500108000D
(1728486080.428421) vcan0 191#010090A1410030
(1728486080.428423) vcan0 133#0000000098
(1728486080.428425) vcan0 136#000200000000001B
(1728486080.428427) vcan0 13A#0000000000000019
(1728486080.428430) vcan0 13F#000000050000001F
(1728486080.428432) vcan0 164#0000C01AA8000031
(1728486080.428435) vcan0 17C#0000000010000012
(1728486080.430304) vcan0 18E#00005C
(1728486080.430313) vcan0 309#0000000000000084
(1728486080.430317) vcan0 039#002A
(1728486080.431250) vcan0 244#000000019E
(1728486080.431438) vcan0 183#0000000A00001010
(1728486080.431443) vcan0 143#6B6B00D1
(1728486080.433227) vcan0 095#800007F400000008
(1728486080.436249) vcan0 166#D0320018
(1728486080.437288) vcan0 158#0000000000000019
(1728486080.437299) vcan0 161#000005500108001C
(1728486080.437302) vcan0 191#010090A1410003
(1728486080.437304) vcan0 133#00000000A7
(1728486080.439044) vcan0 136#000200000000002A
(1728486080.439053) vcan0 13A#0000000000000028
(1728486080.439056) vcan0 13F#000000050000002E
(1728486080.439058) vcan0 164#0000C01AA8000004
(1728486080.439060) vcan0 17C#0000000010000021
(1728486080.439063) vcan0 18E#00006B
(1728486080.439066) vcan0 1CF#80050000001E
(1728486080.439068) vcan0 1DC#0200001B
(1728486080.440936) vcan0 183#0000000700001022
(1728486080.440963) vcan0 143#6B6B00E0
(1728486080.442889) vcan0 095#800007F400000017
(1728486080.446091) vcan0 1A4#000000080000003E
(1728486080.446103) vcan0 1AA#7FFF00000000683E
(1728486080.446111) vcan0 039#0039
(1728486080.446113) vcan0 1B0#000F0000000175
(1728486080.446115) vcan0 1D0#000000000000000A
(1728486080.446117) vcan0 166#D0320027
(1728486080.447068) vcan0 244#0000000187
(1728486080.447287) vcan0 158#0000000000000028
(1728486080.447296) vcan0 161#000005500108002B
(1728486080.447299) vcan0 191#010090A1410012
(1728486080.447301) vcan0 133#00000000B6
(1728486080.448407) vcan0 136#0002000000000039
(1728486080.448451) vcan0 13A#0000000000000037
(1728486080.448456) vcan0 13F#000000050000003D
(1728486080.448458) vcan0 164#0000C01AA8000013
(1728486080.448460) vcan0 17C#0000000010000030
(1728486080.449777) vcan0 18E#00007A
(1728486080.449787) vcan0 294#040B0002CF5A003B
(1728486080.449789) vcan0 21E#03E8374522063E
(1728486080.451854) vcan0 183#0000000D0000103B
(1728486080.451862) vcan0 143#6B6B00FF
(1728486080.453671) vcan0 095#800007F400000026
(1728486080.456660) vcan0 166#D0320036
(1728486080.456668) vcan0 158#0000000000000037
(1728486080.458454) vcan0 161#000005500108003A
(1728486080.458461) vcan0 191#010090A1410021
(1728486080.458463) vcan0 133#0000000089
(1728486080.458465) vcan0 136#000200000000000C
(1728486080.458467) vcan0 13A#000000000000000A
(1728486080.458470) vcan0 13F#0000000500000000
(1728486080.458472) vcan0 039#000C
(1728486080.458474) vcan0 164#0000C01AA8000022
(1728486080.458517) vcan0 244#0000000124
(1728486080.459484) vcan0 17C#0000000010000003
(1728486080.459491) vcan0 18E#00004D
(1728486080.459493) vcan0 1CF#80050000002D
(1728486080.459495) vcan0 1DC#0200002A
(1728486080.460652) vcan0 183#0000001100001009
(1728486080.460661) vcan0 143#6B6B00C2
(1728486080.464391) vcan0 095#800007F400000035
(1728486080.464408) vcan0 1A4#0000000800000001
(1728486080.464411) vcan0 1AA#7FFF000000006801
(1728486080.464413) vcan0 1B0#000F0000000148
(1728486080.464415) vcan0 1D0#000000000000000A
(1728486080.465450) vcan0 166#D0320009
(1728486080.467169) vcan0 158#000000000000000A
(1728486080.467177) vcan0 161#000005500108000D
(1728486080.467179) vcan0 191#010090A1410030
(1728486080.467181) vcan0 133#0000000098
(1728486080.469207) vcan0 136#000200000000001B
(1728486080.469218) vcan0 13A#0000000000000019
(1728486080.469221) vcan0 13F#000000050000001F
(1728486080.469223) vcan0 164#0000C01AA8000031
(1728486080.469225) vcan0 17C#0000000010000012
(1728486080.469227) vcan0 18E#00005C
(1728486080.470144) vcan0 244#000000011E
(1728486080.470400) vcan0 183#0000000C0000101E
(1728486080.472124) vcan0 143#6B6B00D1
(1728486080.472134) vcan0 039#001B
(1728486080.474088) vcan0 095#800007F400000008
(1728486080.475971) vcan0 166#D0320018
(1728486080.477175) vcan0 158#0000000000000019
(1728486080.477183) vcan0 161#000005500108001C
(1728486080.477185) vcan0 191#010090A1410003
(1728486080.477188) vcan0 133#00000000A7
(1728486080.478899) vcan0 136#000200000000002A
(1728486080.478910) vcan0 13A#0000000000000028
(1728486080.478912) vcan0 13F#000000050000002E
(1728486080.478915) vcan0 164#0000C01AA8000004
(1728486080.478917) vcan0 17C#0000000010000021
(1728486080.478919) vcan0 18E#00006B
(1728486080.478921) vcan0 1CF#80050000003C
(1728486080.478924) vcan0 1DC#02000039
(1728486080.480866) vcan0 183#0000001000001028
(1728486080.480878) vcan0 143#6B6B00E0
(1728486080.481798) vcan0 244#000000014C
(1728486080.481955) vcan0 333#0000000000000F
(1728486080.482979) vcan0 095#800007F400000017
(1728486080.484817) vcan0 1A4#0000000800000010
(1728486080.484828) vcan0 1AA#7FFF000000006711
(1728486080.484830) vcan0 1B0#000F0000000157
(1728486080.484832) vcan0 1D0#000000000000000A
(1728486080.486687) vcan0 039#002A
(1728486080.486694) vcan0 166#D0320027
(1728486080.486697) vcan0 158#0000000000000028
(1728486080.488656) vcan0 161#000005500108002B
(1728486080.488666) vcan0 191#010090A1410012
(1728486080.488669) vcan0 133#00000000B6
(1728486080.488671) vcan0 136#0002000000000039
(1728486080.488673) vcan0 13A#0000000000000037
(1728486080.488675) vcan0 13F#000000050000003D
(1728486080.488678) vcan0 164#0000C01AA8000013
(1728486080.488680) vcan0 17C#0000000010000030
(1728486080.488683) vcan0 18E#00007A
(1728486080.490559) vcan0 294#040B0002CF5A000E
(1728486080.490567) vcan0 21E#03E83745220601
(1728486080.490569) vcan0 183#0000000C0000103C
(1728486080.492576) vcan0 143#6B6B00FF
(1728486080.493543) vcan0 244#0000000180
(1728486080.493700) vcan0 095#800007F400000026
(1728486080.495479) vcan0 166#D0320036
(1728486080.497375) vcan0 158#0000000000000037
(1728486080.497386) vcan0 161#000005500108003A
(1728486080.497388) vcan0 191#010090A1410021
(1728486080.497390) vcan0 133#0000000089
(1728486080.498430) vcan0 136#000200000000000C
(1728486080.498441) vcan0 13A#000000000000000A
(1728486080.498444) vcan0 039#0039
(1728486080.498446) vcan0 13F#0000000500000000
(1728486080.498448) vcan0 164#0000C01AA8000022
(1728486080.501349) vcan0 17C#0000000010000003
(1728486080.501360) vcan0 18E#00004D
(1728486080.501362) vcan0 1CF#80050000000F
(1728486080.501364) vcan0 1DC#0200000C
(1728486080.501367) vcan0 305#8008
(1728486080.501371) vcan0 320#000003
(1728486080.501373) vcan0 324#7465000000000E0B
(1728486080.501378) vcan0 37C#FD00FD00097F000B
(1728486080.501380) vcan0 183#0000000900001002
(1728486080.501383) vcan0 40C#033133383439000D
(1728486080.501386) vcan0 454#23EF09
(1728486080.501389) vcan0 143#6B6B00C2
(1728486080.504185) vcan0 095#800007F400000035
(1728486080.504193) vcan0 1A4#000000080000002F
(1728486080.504195) vcan0 1AA#7FFF000000006720
(1728486080.504198) vcan0 1B0#000F0000000166
(1728486080.504200) vcan0 1D0#000000000000000A
(1728486080.505165) vcan0 244#0000000102
(1728486080.505305) vcan0 166#D0320009
(1728486080.507092) vcan0 158#000000000000000A
(1728486080.507099) vcan0 161#000005500108000D
(1728486080.507102) vcan0 191#010090A1410030
(1728486080.508130) vcan0 133#0000000098
(1728486080.508136) vcan0 136#000200000000001B
(1728486080.508138) vcan0 13A#0000000000000019
(1728486080.508140) vcan0 13F#000000050000001F
(1728486080.508143) vcan0 164#0000C01AA8000031
(1728486080.510028) vcan0 17C#0000000010000012
(1728486080.510037) vcan0 18E#00005C
(1728486080.511646) vcan0 183#0000000E0000101C
(1728486080.511653) vcan0 143#6B6B00D1
(1728486080.512972) vcan0 039#000C
(1728486080.512980) vcan0 095#800007F400000008
(1728486080.516932) vcan0 244#00000001F3
(1728486080.516995) vcan0 166#D0320018
(1728486080.517007) vcan0 158#0000000000000019
(1728486080.517009) vcan0 161#000005500108001C
(1728486080.517012) vcan0 191#010090A1410003
(1728486080.518859) vcan0 133#00000000A7
(1728486080.518868) vcan0 136#000200000000002A
(1728486080.518870) vcan0 13A#0000000000000028
(1728486080.518872) vcan0 13F#000000050000002E
(1728486080.518874) vcan0 164#0000C01AA8000004
(1728486080.518877) vcan0 17C#0000000010000021
(1728486080.518879) vcan0 18E#00006B
(1728486080.518881) vcan0 1CF#80050000001E
(1728486080.520809) vcan0 1DC#0200001B
(1728486080.520815) vcan0 183#0000000A0000102F
(1728486080.520818) vcan0 143#6B6B00E0
(1728486080.524750) vcan0 095#800007F400000017
(1728486080.524762) vcan0 1A4#000000080000003E
(1728486080.524764) vcan0 1AA#7FFF00000000683E
(1728486080.524767) vcan0 1B0#000F0000000175
(1728486080.524769) vcan0 1D0#000000000000000A
(1728486080.526659) vcan0 166#D0320027
(1728486080.526667) vcan0 158#0000000000000028
(1728486080.528614) vcan0 161#000005500108002B
(1728486080.528620) vcan0 191#010090A1410012
(1728486080.528622) vcan0 133#00000000B6
(1728486080.528625) vcan0 136#0002000000000039
(1728486080.528627) vcan0 13A#0000000000000037
(1728486080.528629) vcan0 039#001B
(1728486080.528632) vcan0 13F#000000050000003D
(1728486080.528635) vcan0 164#0000C01AA8000013
(1728486080.528639) vcan0 17C#0000000010000030
(1728486080.528694) vcan0 244#0000000181
(1728486080.529837) vcan0 18E#00007A
(1728486080.529849) vcan0 294#040B0002CF5A001D
(1728486080.529851) vcan0 21E#03E83745220610
(1728486080.529854) vcan0 309#0000000000000093
(1728486080.529856) vcan0 428#01040000521C10
(1728486080.531524) vcan0 405#000004000000001A
(1728486080.531532) vcan0 183#0000000700001031
(1728486080.531534) vcan0 143#6B6B00FF
(1728486080.533473) vcan0 095#800007F400000026
(1728486080.536335) vcan0 166#D0320036
(1728486080.537497) vcan0 158#0000000000000037
(1728486080.537507) vcan0 161#000005500108003A
(1728486080.537509) vcan0 191#010090A1410021
(1728486080.537512) vcan0 133#0000000089
(1728486080.537514) vcan0 136#000200000000000C
(1728486080.539389) vcan0 13A#000000000000000A
(1728486080.539399) vcan0 13F#0000000500000000
(1728486080.539401) vcan0 164#0000C01AA8000022
(1728486080.539404) vcan0 17C#0000000010000003
(1728486080.539406) vcan0 18E#00004D
(1728486080.539409) vcan0 1CF#80050000002D
(1728486080.539415) vcan0 1DC#0200002A
(1728486080.540383) vcan0 244#00000001D5
(1728486080.540496) vcan0 183#0000000D0000100E
(1728486080.540508) vcan0 143#6B6B00C2
(1728486080.542286) vcan0 039#002A
(1728486080.543325) vcan0 095#800007F400000035
(1728486080.543331) vcan0 1A4#0000000800000001
(1728486080.544718) vcan0 1AA#7FFF000000006801
(1728486080.544732) vcan0 1B0#000F0000000148
(1728486080.544735) vcan0 1D0#000000000000000A
(1728486080.546192) vcan0 166#D0320009
(1728486080.548052) vcan0 158#000000000000000A
(1728486080.548058) vcan0 161#000005500108000D
(1728486080.548060) vcan0 191#010090A1410030
(1728486080.548063) vcan0 133#0000000098
(1728486080.548066) vcan0 136#000200000000001B
(1728486080.548068) vcan0 13A#0000000000000019
(1728486080.548070) vcan0 13F#000000050000001F
(1728486080.549940) vcan0 164#0000C01AA9000030
(1728486080.549944) vcan0 17C#0000000010000012
(1728486080.549947) vcan0 18E#00005C
(1728486080.550961) vcan0 183#0000000900001011
(1728486080.550965) vcan0 143#6B6B00D1
(1728486080.552110) vcan0 244#0000000114
(1728486080.553522) vcan0 095#800007F400000008
(1728486080.555487) vcan0 166#D0320018
(1728486080.556560) vcan0 158#0000000000000019
(1728486080.559369) vcan0 161#000005500108001C
(1728486080.559376) vcan0 191#010090A1410003
(1728486080.559379) vcan0 133#00000000A7
(1728486080.559382) vcan0 136#000200000000002A
(1728486080.559384) vcan0 13A#0000000000000028
(1728486080.559386) vcan0 13F#000000050000002E
(1728486080.559390) vcan0 164#0000C01AA8000004
(1728486080.559392) vcan0 17C#0000000010000021
(1728486080.559395) vcan0 18E#00006B
(1728486080.559398) vcan0 1CF#80050000003C
(1728486080.559400) vcan0 1DC#02000039
(1728486080.560420) vcan0 183#0000000E0000102B
(1728486080.562290) vcan0 143#6B6B00E0
(1728486080.562298) vcan0 039#0039
(1728486080.563374) vcan0 095#800007F400000017
(1728486080.563382) vcan0 1A4#0000000800000010
(1728486080.563388) vcan0 244#0000000117
(1728486080.565153) vcan0 1AA#7FFF000000006711
(1728486080.565161) vcan0 1B0#000F0000000157
(1728486080.565164) vcan0 1D0#000000000000000A
(1728486080.567143) vcan0 166#D0320027
(1728486080.567149) vcan0 158#0000000000000028
(1728486080.567151) vcan0 161#000005500108002B
(1728486080.567153) vcan0 191#010090A1410012
(1728486080.567156) vcan0 133#00000000B6
(1728486080.568215) vcan0 136#0002000000000039
(1728486080.568223) vcan0 13A#0000000000000037
(1728486080.568226) vcan0 13F#000000050000003D
(1728486080.568228) vcan0 164#0000C01AA8000013
(1728486080.570060) vcan0 17C#0000000010000030
(1728486080.570066) vcan0 18E#00007A
(1728486080.570068) vcan0 294#040B0002CF5A002C
(1728486080.570070) vcan0 21E#03E8374522062F
(1728486080.571088) vcan0 183#0000000A0000103E
(1728486080.571094) vcan0 143#6B6B00FF
(1728486080.573052) vcan0 095#800007F400000026
(1728486080.574126) vcan0 244#00000001A2
(1728486080.575985) vcan0 039#000C
(1728486080.575996) vcan0 166#D0320036
(1728486080.577163) vcan0 158#0000000000000037
(1728486080.577170) vcan0 161#000005500108003A
(1728486080.577172) vcan0 191#010090A1410021
(1728486080.577174) vcan0 133#0000000089
(1728486080.578785) vcan0 136#000200000000000C
(1728486080.578796) vcan0 13A#000000000000000A
(1728486080.578798) vcan0 13F#0000000500000000
(1728486080.578800) vcan0 164#0000C01AA8000022
(1728486080.578802) vcan0 17C#0000000010000003
(1728486080.578804) vcan0 18E#00004D
(1728486080.578807) vcan0 1CF#80050000000F
(1728486080.580900) vcan0 1DC#0200000C
(1728486080.580910) vcan0 183#0000000700001004
(1728486080.580913) vcan0 143#6B6B00C2
(1728486080.582751) vcan0 333#0000000000001E
(1728486080.583806) vcan0 095#800007F400000035
(1728486080.583812) vcan0 1A4#000000080000002F
(1728486080.583814) vcan0 1AA#7FFF000000006720
(1728486080.583816) vcan0 1B0#000F0000000166
(1728486080.584849) vcan0 1D0#000000000000000A
(1728486080.585605) vcan0 244#000000019A
(1728486080.586180) vcan0 166#D0320009
(1728486080.587624) vcan0 158#000000000000000A
(1728486080.587632) vcan0 161#000005500108000D
(1728486080.587635) vcan0 191#010090A1410030
(1728486080.587637) vcan0 133#0000000098
(1728486080.587639) vcan0 136#000200000000001B
(1728486080.587641) vcan0 13A#0000000000000019
(1728486080.588729) vcan0 13F#000000050000001F
(1728486080.588735) vcan0 164#0000C01AA8000031
(1728486080.588737) vcan0 039#001B
(1728486080.588739) vcan0 17C#0000000010000012
(1728486080.588742) vcan0 18E#00005C
(1728486080.593483) vcan0 183#0000000D0000101D
(1728486080.593494) vcan0 143#6B6B00D1
(1728486080.593496) vcan0 095#800007F400000008
(1728486080.597308) vcan0 166#D0320018
(1728486080.597319) vcan0 158#0000000000000019
(1728486080.597321) vcan0 161#000005500108001C
(1728486080.597324) vcan0 191#010090A1410003
(1728486080.597326) vcan0 133#00000000A7
(1728486080.597399) vcan0 244#0000000125
(1728486080.599333) vcan0 136#000200000000002A
(1728486080.599344) vcan0 13A#0000000000000028
(1728486080.599347) vcan0 13F#000000050000002E
(1728486080.599349) vcan0 164#0000C01AA8000004
(1728486080.599351) vcan0 17C#0000000010000021
(1728486080.599353) vcan0 18E#00006B
(1728486080.599355) vcan0 1CF#80050000001E
(1728486080.599358) vcan0 1DC#0200001B
(1728486080.599361) vcan0 320#000012
(1728486080.599363) vcan0 324#7465000000000E1A
(1728486080.601195) vcan0 37C#FD00FD00097F001A
(1728486080.601201) vcan0 183#0000000900001020
(1728486080.601203) vcan0 143#6B6B00E0
(1728486080.601206) vcan0 039#002A
(1728486080.603187) vcan0 305#8017
(1728486080.603198) vcan0 095#800007F400000017
(1728486080.605158) vcan0 1A4#000000080000003E
(1728486080.605166) vcan0 1AA#7FFF00000000683E
(1728486080.605168) vcan0 1B0#000F0000000175
(1728486080.605171) vcan0 1D0#000000000000000A
(1728486080.607040) vcan0 166#D0320027
(1728486080.607049) vcan0 158#0000000000000028
(1728486080.607051) vcan0 161#000005500108002B
(1728486080.607053) vcan0 191#010090A1410012
(1728486080.608999) vcan0 244#00000001E5
(1728486080.609066) vcan0 133#00000000B6
(1728486080.609075) vcan0 136#0002000000000039
(1728486080.609077) vcan0 13A#0000000000000037
(1728486080.609080) vcan0 13F#000000050000003D
(1728486080.609083) vcan0 164#0000C01AA8000013
(1728486080.609088) vcan0 17C#0000000010000030
(1728486080.609090) vcan0 18E#00007A
(1728486080.609092) vcan0 294#040B0002CF5A003B
(1728486080.609094) vcan0 21E#03E8374522063E
(1728486080.612927) vcan0 183#0000000E0000103A
(1728486080.612945) vcan0 143#6B6B00FF
(1728486080.612948) vcan0 095#800007F400000026
(1728486080.616776) vcan0 166#D0320036
(1728486080.616783) vcan0 158#0000000000000037
(1728486080.616786) vcan0 161#000005500108003A
(1728486080.617815) vcan0 191#010090A1410021
(1728486080.617826) vcan0 039#0039
(1728486080.617829) vcan0 133#0000000089
(1728486080.617831) vcan0 136#000200000000000C
(1728486080.617833) vcan0 13A#000000000000000A
(1728486080.619729) vcan0 13F#0000000500000000
(1728486080.619738) vcan0 164#0000C01AA8000022
(1728486080.619741) vcan0 17C#0000000010000003
(1728486080.619744) vcan0 18E#00004D
(1728486080.619747) vcan0 1CF#80050000002D
(1728486080.619749) vcan0 1DC#0200002A
(1728486080.620737) vcan0 244#00000001F7
(1728486080.620953) vcan0 183#0000000A00001001
(1728486080.620960) vcan0 143#6B6B00C2
(1728486080.623738) vcan0 095#800007F400000035
(1728486080.623746) vcan0 1A4#0000000800000001
(1728486080.623749) vcan0 1AA#7FFF000000006801
(1728486080.623751) vcan0 1B0#000F0000000148
(1728486080.625590) vcan0 1D0#000000000000000A
(1728486080.625601) vcan0 166#D0320009
(1728486080.626998) vcan0 158#000000000000000A
(1728486080.627008) vcan0 161#000005500108000D
(1728486080.627010) vcan0 191#010090A1410030
(1728486080.628445) vcan0 133#0000000098
(1728486080.628453) vcan0 136#000200000000001B
(1728486080.628455) vcan0 13A#0000000000000019
(1728486080.628457) vcan0 13F#000000050000001F
(1728486080.628459) vcan0 164#0000C01AA8000031
(1728486080.628462) vcan0 17C#0000000010000012
(1728486080.630434) vcan0 18E#00005C
(1728486080.630442) vcan0 309#00000000000000A2
(1728486080.630444) vcan0 183#0000000700001013
(1728486080.632348) vcan0 244#0000000178
(1728486080.632409) vcan0 143#6B6B00D1
(1728486080.632414) vcan0 039#000C
(1728486080.634283) vcan0 095#800007F400000008
(1728486080.635344) vcan0 166#D0320018
(1728486080.638223) vcan0 158#0000000000000019
(1728486080.638232) vcan0 161#000005500108001C
(1728486080.638234) vcan0 191#010090A1410003
(1728486080.638237) vcan0 133#00000000A7
(1728486080.638239) vcan0 136#000200000000002A
(1728486080.638241) vcan0 13A#0000000000000028
(1728486080.638243) vcan0 13F#000000050000002E
(1728486080.638245) vcan0 164#0000C01AA8000004
(1728486080.639261) vcan0 17C#0000000010000021
(1728486080.639269) vcan0 18E#00006B
(1728486080.639271) vcan0 1CF#80050000003C
(1728486080.639273) vcan0 1DC#02000039
(1728486080.641103) vcan0 183#0000000500001024
(1728486080.641111) vcan0 143#6B6B00E0
(1728486080.644259) vcan0 244#0000000139
(1728486080.644474) vcan0 095#800007F400000017
(1728486080.644485) vcan0 1A4#0000000800000010
(1728486080.644497) vcan0 1AA#7FFF000000006711
(1728486080.644501) vcan0 1B0#000F0000000157
(1728486080.644504) vcan0 1D0#000000000000000A
(1728486080.644506) vcan0 039#001B
(1728486080.645936) vcan0 166#D0320027
(1728486080.647064) vcan0 158#0000000000000028
(1728486080.647074) vcan0 161#000005500108002B
(1728486080.647077) vcan0 191#010090A1410012
(1728486080.648093) vcan0 133#00000000B6
(1728486080.648100) vcan0 136#0002000000000039
(1728486080.648103) vcan0 13A#0000000000000037
(1728486080.648105) vcan0 13F#000000050000003D
(1728486080.649117) vcan0 164#0000C01AA8000013
(1728486080.649123) vcan0 17C#0000000010000030
(1728486080.649125) vcan0 18E#00007A
(1728486080.649127) vcan0 294#040B0002CF5A000E
(1728486080.649130) vcan0 21E#03E83745220601
(1728486080.651769) vcan0 183#0000000300001035
(1728486080.651776) vcan0 143#6B6B00FF
(1728486080.654486) vcan0 095#800007F400000026
(1728486080.655506) vcan0 166#D0320036
(1728486080.655527) vcan0 244#000000010A
(1728486080.656523) vcan0 158#0000000000000037
(1728486080.658425) vcan0 161#000005500108003A
(1728486080.658434) vcan0 191#010090A1410021
(1728486080.658436) vcan0 133#0000000089
(1728486080.658439) vcan0 136#000200000000000C
(1728486080.658441) vcan0 13A#000000000000000A
(1728486080.658443) vcan0 13F#0000000500000000
(1728486080.658446) vcan0 164#0000C01AA8000022
(1728486080.658449) vcan0 17C#0000000010000003
(1728486080.660324) vcan0 18E#00004D
(1728486080.660333) vcan0 1CF#80050000000F
(1728486080.660335) vcan0 1DC#0200000C
(1728486080.660337) vcan0 183#0000000A00001001
(1728486080.660339) vcan0 039#002A
(1728486080.661363) vcan0 143#6B6B00C2
(1728486080.664239) vcan0 095#800007F400000035
(1728486080.664247) vcan0 1A4#000000080000002F
(1728486080.664249) vcan0 1AA#7FFF000000006720
(1728486080.664251) vcan0 1B0#000F0000000166
(1728486080.664254) vcan0 1D0#000000000000000A
(1728486080.665421) vcan0 166#D0320009
(1728486080.666364) vcan0 244#00000001C6
(1728486080.667458) vcan0 158#000000000000000A
(1728486080.667467) vcan0 161#000005500108000D
(1728486080.667470) vcan0 191#010090A1410030
(1728486080.667472) vcan0 133#0000000098
(1728486080.667474) vcan0 136#000200000000001B
(1728486080.669079) vcan0 13A#0000000000000019
(1728486080.669088) vcan0 13F#000000050000001F
(1728486080.669090) vcan0 164#0000C01AA8000031
(1728486080.669092) vcan0 17C#0000000010000012
(1728486080.669094) vcan0 18E#00005C
(1728486080.672025) vcan0 183#0000000700001013
(1728486080.672033) vcan0 143#6B6B00D1
(1728486080.673044) vcan0 095#800007F400000008
(1728486080.674913) vcan0 039#0039
(1728486080.675928) vcan0 166#D0320018
(1728486080.677962) vcan0 158#0000000000000019
(1728486080.677969) vcan0 161#000005500108001C
(1728486080.677971) vcan0 191#010090A1410003
(1728486080.677974) vcan0 133#00000000A7
(1728486080.677976) vcan0 136#000200000000002A
(1728486080.677979) vcan0 13A#0000000000000028
(1728486080.677981) vcan0 13F#000000050000002E
(1728486080.678094) vcan0 244#0000000170
(1728486080.679051) vcan0 164#0000C01AA8000004
(1728486080.679061) vcan0 17C#0000000010000021
(1728486080.679064) vcan0 18E#00006B
(1728486080.679066) vcan0 1CF#80050000001E
(1728486080.679068) vcan0 1DC#0200001B
(1728486080.680083) vcan0 183#0000000500001024
(1728486080.681801) vcan0 143#6B6B00E0
(1728486080.681811) vcan0 333#0000000000002D
(1728486080.682828) vcan0 095#800007F400000017
(1728486080.683846) vcan0 1A4#000000080000003E
(1728486080.683851) vcan0 1AA#7FFF00000000683E
(1728486080.683853) vcan0 1B0#000F0000000175
(1728486080.685665) vcan0 1D0#000000000000000A
(1728486080.685669) vcan0 166#D0320027
(1728486080.687581) vcan0 158#0000000000000028
(1728486080.687585) vcan0 161#000005500108002B
(1728486080.687587) vcan0 191#010090A1410012
(1728486080.687590) vcan0 133#00000000B6
(1728486080.687592) vcan0 136#0002000000000039
(1728486080.688679) vcan0 13A#0000000000000037
(1728486080.688687) vcan0 13F#000000050000003D
(1728486080.688690) vcan0 164#0000C01AA8000013
(1728486080.688692) vcan0 17C#0000000010000030
(1728486080.688694) vcan0 18E#00007A
(1728486080.689808) vcan0 294#040B0002CF5A001D
(1728486080.689834) vcan0 21E#03E83745220610
(1728486080.691623) vcan0 183#0000000B0000103D
(1728486080.691630) vcan0 143#6B6B00FF
(1728486080.693431) vcan0 095#800007F400000026
(1728486080.694448) vcan0 244#00000001A8
(1728486080.694582) vcan0 039#000C
(1728486080.696025) vcan0 166#D0320036
(1728486080.697160) vcan0 158#0000000000000037
(1728486080.697171) vcan0 161#000005500108003A
(1728486080.697174) vcan0 191#010010A1410029
(1728486080.697176) vcan0 133#0000000089
(1728486080.698373) vcan0 136#000200000000000C
(1728486080.698384) vcan0 13A#000000000000000A
(1728486080.698386) vcan0 13F#0000000500000000
(1728486080.698388) vcan0 164#0000C01AA8000022
(1728486080.698391) vcan0 17C#0000000010000003
(1728486080.700276) vcan0 18E#00004D
(1728486080.700282) vcan0 1CF#80050000002D
(1728486080.700284) vcan0 1DC#0200002A
(1728486080.700286) vcan0 320#000021
(1728486080.700289) vcan0 324#7465000000000E29
(1728486080.700291) vcan0 37C#FD00FD00097F0029
(1728486080.700293) vcan0 183#0000000800001003
(1728486080.702210) vcan0 143#6B6B00C2
(1728486080.703515) vcan0 095#800007F400000035
(1728486080.703529) vcan0 1A4#0000000800000001
(1728486080.703533) vcan0 1AA#7FFF000000006801
(1728486080.705114) vcan0 1B0#000F0000000148
(1728486080.705121) vcan0 1D0#000000000000000A
(1728486080.707087) vcan0 244#00000001AE
(1728486080.707162) vcan0 166#D0320009
(1728486080.707168) vcan0 158#000000000000000A
(1728486080.707171) vcan0 161#000005500108000D
(1728486080.707173) vcan0 039#001B
(1728486080.707175) vcan0 191#010010A1410038
(1728486080.709010) vcan0 133#0000000098
(1728486080.709017) vcan0 136#000200000000001B
(1728486080.709019) vcan0 13A#0000000000000019
(1728486080.709021) vcan0 13F#000000050000001F
(1728486080.709023) vcan0 164#0000C01AA8000031
(1728486080.709026) vcan0 17C#0000000010000012
(1728486080.709028) vcan0 18E#00005C
(1728486080.709030) vcan0 305#8026
(1728486080.711292) vcan0 183#0000000600001014
(1728486080.711311) vcan0 143#6B6B00D1
(1728486080.712968) vcan0 095#800007F400000008
(1728486080.716563) vcan0 166#D0320018
(1728486080.716571) vcan0 158#0000000000000019
(1728486080.717742) vcan0 161#000005500108001C
(1728486080.717750) vcan0 191#010010A141000B
(1728486080.717752) vcan0 133#00000000A7
(1728486080.717754) vcan0 136#000200000000002A
(1728486080.717756) vcan0 13A#0000000000000028
(1728486080.719797) vcan0 13F#000000050000002E
(1728486080.719806) vcan0 164#0000C01AA8000004
(1728486080.719808) vcan0 17C#0000000010000021
(1728486080.719810) vcan0 18E#00006B
(1728486080.719812) vcan0 1CF#80050000003C
(1728486080.719816) vcan0 1DC#02000039
(1728486080.721723) vcan0 183#0000000C0000102D
(1728486080.721730) vcan0 143#6B6B00E0
(1728486080.721733) vcan0 039#002A
(1728486080.722711) vcan0 244#0000000167
(1728486080.724168) vcan0 095#800007F400000017
(1728486080.724180) vcan0 1A4#0000000800000010
(1728486080.724185) vcan0 1AA#7FFF000000006711
(1728486080.724196) vcan0 1B0#000F0000000157
(1728486080.724198) vcan0 1D0#000000000000000A
(1728486080.725551) vcan0 166#D0320027
(1728486080.726840) vcan0 158#0000000000000028
(1728486080.726848) vcan0 161#000005500108002B
(1728486080.727884) vcan0 191#010010A141001A
(1728486080.727893) vcan0 133#00000000B6
(1728486080.727895) vcan0 136#0002000000000039
(1728486080.727897) vcan0 13A#0000000000000037
(1728486080.727899) vcan0 13F#000000050000003D
(1728486080.729416) vcan0 164#0000C01AA8000013
(1728486080.729424) vcan0 17C#0000000010000030
(1728486080.729426) vcan0 18E#00007A
(1728486080.729429) vcan0 294#040B0002CF5A002C
(1728486080.729431) vcan0 21E#03E8374522062F
(1728486080.729433) vcan0 309#00000000000000B1
(1728486080.731064) vcan0 183#000000090000103F
(1728486080.731078) vcan0 143#6B6B00FF
(1728486080.733380) vcan0 244#00000001E6
(1728486080.733892) vcan0 095#800007F400000026
(1728486080.736287) vcan0 166#D0320036
(1728486080.737694) vcan0 158#0000000000000037
(1728486080.737708) vcan0 161#000005500108003A
(1728486080.737710) vcan0 191#010010A1410029
(1728486080.737713) vcan0 039#0039
(1728486080.737715) vcan0 133#0000000089
(1728486080.737718) vcan0 136#000200000000000C
(1728486080.739250) vcan0 13A#000000000000000A
(1728486080.739261) vcan0 13F#0000000500000000
(1728486080.739264) vcan0 164#0000C01AA8000022
(1728486080.739266) vcan0 17C#0000000010000003
(1728486080.739268) vcan0 18E#00004D
(1728486080.739271) vcan0 1CF#80050000000F
(1728486080.739273) vcan0 1DC#0200000C
(1728486080.740320) vcan0 183#0000000E0000100D
(1728486080.742170) vcan0 143#6B6B00C2
(1728486080.743381) vcan0 095#800007F400000035
(1728486080.743390) vcan0 1A4#000000080000002F
(1728486080.744608) vcan0 244#0000000117
(1728486080.744729) vcan0 1AA#7FFF000000006720
(1728486080.744738) vcan0 1B0#000F0000000166
(1728486080.744740) vcan0 1D0#000000000000000A
(1728486080.745989) vcan0 166#D0320009
(1728486080.748028) vcan0 158#000000000000000A
(1728486080.748039) vcan0 161#000005500108000D
(1728486080.748042) vcan0 191#010010A1410038
(1728486080.748045) vcan0 133#0000000098
(1728486080.748047) vcan0 136#000200000000001B
(1728486080.748049) vcan0 13A#0000000000000019
(1728486080.748051) vcan0 13F#000000050000001F
(1728486080.749108) vcan0 164#0000C01AA8000031
(1728486080.749118) vcan0 17C#0000000010000012
(1728486080.749120) vcan0 18E#00005C
(1728486080.750823) vcan0 039#000C
(1728486080.750830) vcan0 183#0000000A00001010
(1728486080.750833) vcan0 143#6B6B00D1
(1728486080.753457) vcan0 095#800007F800000004
(1728486080.755321) vcan0 244#0000000195
(1728486080.756305) vcan0 166#D0320018
(1728486080.757647) vcan0 158#0000000000000019
(1728486080.757657) vcan0 161#000005500108001C
(1728486080.757660) vcan0 191#010010A141000B
(1728486080.757662) vcan0 133#00000000A7
(1728486080.757666) vcan0 136#000200000000002A
(1728486080.757668) vcan0 13A#0000000000000028
(1728486080.759206) vcan0 13F#000000050000002E
(1728486080.759217) vcan0 164#0000C01AA8000004
(1728486080.759219) vcan0 17C#0000000010000021
(1728486080.759221) vcan0 18E#00006B
(1728486080.759226) vcan0 1CF#80050000001E
(1728486080.759228) vcan0 1DC#0200001B
(1728486080.760747) vcan0 183#0000000700001022
(1728486080.760758) vcan0 143#6B6B00E0
(1728486080.763181) vcan0 095#800007F800000013
(1728486080.764596) vcan0 1A4#000000080000003E
(1728486080.764604) vcan0 1AA#7FFF00000000683E
(1728486080.764617) vcan0 1B0#000F0000000175
(1728486080.764620) vcan0 1D0#000000000000000A
(1728486080.765799) vcan0 166#D0320027
(1728486080.767060) vcan0 039#001B
(1728486080.767071) vcan0 158#0000000000000028
(1728486080.767073) vcan0 161#000005500108002B
(1728486080.767076) vcan0 191#010010A141001A
(1728486080.768911) vcan0 133#00000000B6
(1728486080.768920) vcan0 136#0002000000000039
(1728486080.768922) vcan0 13A#0000000000000037
(1728486080.768924) vcan0 13F#000000050000003D
(1728486080.768926) vcan0 164#0000C01AA8000013
(1728486080.768929) vcan0 17C#0000000010000030
(1728486080.768931) vcan0 18E#00007A
(1728486080.768934) vcan0 294#040B0002CF5A003B
(1728486080.770862) vcan0 21E#03E8374522063E
(1728486080.770870) vcan0 183#0000000D0000103B
(1728486080.770872) vcan0 143#6B6B00FF
(1728486080.771904) vcan0 244#00000001A1
(1728486080.772963) vcan0 095#800007F800000022
(1728486080.775706) vcan0 166#D0320036
(1728486080.776724) vcan0 158#0000000000000037
(1728486080.777743) vcan0 161#000005500108003A
(1728486080.777752) vcan0 191#010010A1410029
(1728486080.777755) vcan0 133#0000000089
(1728486080.777757) vcan0 136#000200000000000C
(1728486080.777759) vcan0 13A#000000000000000A
(1728486080.779191) vcan0 13F#0000000500000000
(1728486080.779218) vcan0 164#0000C01AA8000022
(1728486080.779220) vcan0 17C#0000000010000003
(1728486080.779223) vcan0 18E#00004D
(1728486080.779225) vcan0 1CF#80050000002D
(1728486080.779228) vcan0 1DC#0200002A
(1728486080.779231) vcan0 039#002A
(1728486080.780588) vcan0 183#0000000900001002
(1728486080.780596) vcan0 143#6B6B00C2
(1728486080.782584) vcan0 333#0000000000003C
(1728486080.783513) vcan0 244#00000001AB
(1728486080.783702) vcan0 095#800007F800000031
(1728486080.783707) vcan0 1A4#0000000800000001
(1728486080.783709) vcan0 1AA#7FFF000000006801
(1728486080.783711) vcan0 1B0#000F0000000148
(1728486080.785099) vcan0 1D0#000000000000000A
(1728486080.786137) vcan0 166#D0320009
(1728486080.787512) vcan0 158#000000000000000A
(1728486080.787523) vcan0 161#000005500108000D
(1728486080.787526) vcan0 191#010010A1410038
(1728486080.787528) vcan0 133#0000000098
(1728486080.787530) vcan0 136#000200000000001B
(1728486080.788544) vcan0 13A#0000000000000019
(1728486080.788552) vcan0 13F#000000050000001F
(1728486080.788554) vcan0 164#0000C01AA8000031
(1728486080.788557) vcan0 17C#0000000010000012
(1728486080.788559) vcan0 18E#00005C
(1728486080.792471) vcan0 183#0000000E0000101C
(1728486080.792483) vcan0 143#6B6B00D1
(1728486080.794220) vcan0 095#800007F800000004
(1728486080.794221) vcan0 244#0000000105
(1728486080.796144) vcan0 166#D0320018
(1728486080.798046) vcan0 158#0000000000000019
(1728486080.798052) vcan0 161#000005500108001C
(1728486080.798055) vcan0 191#010010A141000B
(1728486080.798063) vcan0 133#00000000A7
(1728486080.798065) vcan0 136#000200000000002A
(1728486080.798067) vcan0 13A#0000000000000028
(1728486080.798070) vcan0 13F#000000050000002E
(1728486080.799502) vcan0 164#0000C01AA8000004
(1728486080.799514) vcan0 17C#0000000010000021
(1728486080.799516) vcan0 18E#00006B
(1728486080.799519) vcan0 1CF#80050000003C
(1728486080.799531) vcan0 039#0039
(1728486080.799534) vcan0 1DC#02000039
(1728486080.799537) vcan0 320#000030
(1728486080.799561) vcan0 324#7465000000000E38
(1728486080.801019) vcan0 37C#FD00FD00097F0038
(1728486080.801029) vcan0 40C#0000000004000013
(1728486080.801031) vcan0 183#0000000A0000102F
(1728486080.801033) vcan0 454#23EF18
(1728486080.801035) vcan0 143#6B6B00E0
(1728486080.803015) vcan0 095#800007F800000013
(1728486080.804900) vcan0 188#00000000
(1728486080.804947) vcan0 1A4#0000000800000010
(1728486080.804959) vcan0 1AA#7FFF000000006711
(1728486080.804964) vcan0 1B0#000F0000000157
(1728486080.804966) vcan0 1D0#000000000000000A
(1728486080.806311) vcan0 166#D0320027
(1728486080.807923) vcan0 158#0000000000000028
(1728486080.807934) vcan0 161#000005500108002B
(1728486080.807936) vcan0 191#010010A141001A
(1728486080.807939) vcan0 133#00000000B6
(1728486080.807941) vcan0 136#0002000000000039
(1728486080.807943) vcan0 13A#0000000000000037
(1728486080.807945) vcan0 13F#000000050000003D
(1728486080.809770) vcan0 164#0000C01AA8000013
(1728486080.809780) vcan0 17C#0000000010000030
(1728486080.809782) vcan0 18E#00007A
(1728486080.809785) vcan0 294#040B0002CF5A000E
(1728486080.809787) vcan0 21E#03E83745220601
(1728486080.810745) vcan0 244#00000001DB
(1728486080.810925) vcan0 183#0000000700001031
(1728486080.810945) vcan0 143#6B6B00FF
(1728486080.812612) vcan0 039#000C
(1728486080.813662) vcan0 305#8035
(1728486080.813682) vcan0 095#800007F800000022
(1728486080.815619) vcan0 166#D0320036
(1728486080.817575) vcan0 158#0000000000000037
(1728486080.817582) vcan0 161#000005500108003A
(1728486080.817585) vcan0 191#010010A1410029
(1728486080.817587) vcan0 133#0000000089
(1728486080.817590) vcan0 136#000200000000000C
(1728486080.818727) vcan0 13A#000000000000000A
(1728486080.818734) vcan0 13F#0000000500000000
(1728486080.818737) vcan0 164#0000C01AA8000022
(1728486080.818739) vcan0 17C#0000000010000003
(1728486080.818741) vcan0 18E#00004D
(1728486080.818743) vcan0 1CF#80050000000F
(1728486080.819841) vcan0 1DC#0200000C
(1728486080.821465) vcan0 183#0000000D0000100E
(1728486080.821476) vcan0 143#6B6B00C2
(1728486080.822432) vcan0 244#000000014D
(1728486080.823027) vcan0 095#800007F800000031
(1728486080.824499) vcan0 1A4#000000080000002F
(1728486080.824507) vcan0 1AA#7FFF000000006720
(1728486080.824510) vcan0 1B0#000F0000000166
(1728486080.824512) vcan0 1D0#000000000000000A
(1728486080.826314) vcan0 166#D0320009
(1728486080.827386) vcan0 158#000000000000000A
(1728486080.827397) vcan0 161#000005500108000D
(1728486080.827400) vcan0 039#001B
(1728486080.827402) vcan0 191#010010A1410038
(1728486080.827405) vcan0 133#0000000098
(1728486080.829243) vcan0 136#000200000000001B
(1728486080.829255) vcan0 13A#0000000000000019
(1728486080.829257) vcan0 13F#000000050000001F
(1728486080.829260) vcan0 164#0000C01AA8000031
(1728486080.829262) vcan0 17C#0000000010000012
(1728486080.829264) vcan0 18E#00005C
(1728486080.829266) vcan0 309#0000000000000084
(1728486080.829269) vcan0 428#01040000521C2F
(1728486080.831194) vcan0 405#0000040000000029
(1728486080.831201) vcan0 183#0000000900001011
(1728486080.831204) vcan0 143#6B6B00D1
(1728486080.833124) vcan0 095#800007F800000004
(1728486080.834146) vcan0 244#0000000146
(1728486080.836074) vcan0 166#D0320018
(1728486080.837989) vcan0 158#0000000000000019
(1728486080.837997) vcan0 161#000005500108001C
(1728486080.838000) vcan0 191#010010A141000B
(1728486080.838002) vcan0 133#00000000A7
(1728486080.838004) vcan0 136#000200000000002A
(1728486080.838006) vcan0 13A#0000000000000028
(1728486080.838009) vcan0 13F#000000050000002E
(1728486080.839943) vcan0 164#0000C01AA8000004
(1728486080.839951) vcan0 17C#0000000010000021
(1728486080.839954) vcan0 18E#00006B
(1728486080.839956) vcan0 1CF#80050000001E
(1728486080.839959) vcan0 1DC#0200001B
(1728486080.841836) vcan0 183#0000000600001023
(1728486080.841849) vcan0 143#6B6B00E0
(1728486080.841852) vcan0 039#002A
(1728486080.843837) vcan0 095#800007F800000013
(1728486080.843851) vcan0 1A4#000000080000003E
(1728486080.845819) vcan0 244#0000000196
(1728486080.846023) vcan0 166#D0320009
(1728486080.847043) vcan0 158#000000000000000A
(1728486080.847058) vcan0 161#000005500108000D
(1728486080.847060) vcan0 191#010090A1410030
(1728486080.847063) vcan0 18E#00005C
(1728486080.848669) vcan0 133#0000000098
(1728486080.848682) vcan0 136#000200000000001B
(1728486080.848684) vcan0 13A#0000000000000019
(1728486080.848687) vcan0 13F#000000050000001F
(1728486080.848689) vcan0 164#0000C01AA8000031
(1728486080.848692) vcan0 17C#0000000010000012
(1728486080.850632) vcan0 183#0000000E0000101C
(1728486080.850643) vcan0 039#000C
(1728486080.850646) vcan0 143#6B6B00D1
(1728486080.853382) vcan0 095#800007F400000008
(1728486080.855514) vcan0 166#D0320018
(1728486080.857277) vcan0 244#0000000136
(1728486080.857295) vcan0 158#0000000000000019
(1728486080.857302) vcan0 161#000005500108001C
(1728486080.857304) vcan0 191#010090A1410003
(1728486080.857307) vcan0 164#0000C01AA8000004
(1728486080.857309) vcan0 133#00000000A7
(1728486080.858325) vcan0 136#000200000000002A
(1728486080.858332) vcan0 13A#0000000000000028
(1728486080.858336) vcan0 13F#000000050000002E
(1728486080.858339) vcan0 17C#0000000010000021
(1728486080.858341) vcan0 18E#00006B
(1728486080.860185) vcan0 1CF#80050000003C
(1728486080.860193) vcan0 1DC#02000039
(1728486080.860195) vcan0 320#000030
(1728486080.860198) vcan0 324#7465000000000E38
(1728486080.860200) vcan0 183#0000000A0000102F
(1728486080.860203) vcan0 37C#FD00FD00097F0038
(1728486080.861282) vcan0 143#6B6B00E0
(1728486080.862363) vcan0 095#800007F400000017
(1728486080.864087) vcan0 1A4#0000000800000010
(1728486080.864096) vcan0 1AA#7FFF000000006810
(1728486080.864099) vcan0 1B0#000F0000000157
(1728486080.864101) vcan0 1D0#000000000000000A
(1728486080.866047) vcan0 039#001B
(1728486080.866057) vcan0 166#D0320027
(1728486080.867629) vcan0 158#0000000000000028
(1728486080.867637) vcan0 161#000005500108002B
(1728486080.867640) vcan0 191#010090A1410012
(1728486080.867643) vcan0 164#0000C01AA8000013
(1728486080.867645) vcan0 133#00000000B6
(1728486080.867647) vcan0 136#0002000000000039
(1728486080.868941) vcan0 13A#0000000000000037
(1728486080.868951) vcan0 13F#000000050000003D
(1728486080.868953) vcan0 17C#0000000010000030
(1728486080.868955) vcan0 18E#00007A
(1728486080.868958) vcan0 294#040B0002CF5A000E
(1728486080.868960) vcan0 21E#03E83745220601
(1728486080.870886) vcan0 183#0000000F00001039
(1728486080.870893) vcan0 143#6B6B00FF
(1728486080.872835) vcan0 095#800007F400000026
(1728486080.874957) vcan0 244#0000000162
(1728486080.875434) vcan0 166#D0320036
(1728486080.876738) vcan0 158#0000000000000037
(1728486080.876748) vcan0 161#000005500108003A
(1728486080.876750) vcan0 164#0000C01AA8000022
(1728486080.877828) vcan0 191#010090A1410021
(1728486080.877842) vcan0 133#0000000089
(1728486080.877845) vcan0 136#000200000000000C
(1728486080.877847) vcan0 13A#000000000000000A
(1728486080.877850) vcan0 13F#0000000500000000
(1728486080.878860) vcan0 17C#0000000010000003
(1728486080.878878) vcan0 18E#00004D
(1728486080.878881) vcan0 1CF#80050000000F
(1728486080.878884) vcan0 1DC#0200000C
(1728486080.880557) vcan0 183#0000000B00001000
(1728486080.880565) vcan0 143#6B6B00C2
(1728486080.882082) vcan0 095#800007F400000035
(1728486080.883603) vcan0 1A4#000000080000002F
(1728486080.883612) vcan0 1AA#7FFF00000000682F
(1728486080.883615) vcan0 1B0#000F0000000166
(1728486080.885471) vcan0 1D0#000000000000000A
(1728486080.885477) vcan0 166#D0320009
(1728486080.886456) vcan0 244#00000001B5
(1728486080.886618) vcan0 158#000000000000000A
(1728486080.886623) vcan0 161#000005500108000D
(1728486080.888245) vcan0 191#010090A1410030
(1728486080.888254) vcan0 164#0000C01AA8000031
(1728486080.888256) vcan0 133#0000000098
(1728486080.888258) vcan0 136#000200000000001B
(1728486080.888261) vcan0 039#002A
(1728486080.888265) vcan0 13A#0000000000000019
(1728486080.888267) vcan0 13F#000000050000001F
(1728486080.889317) vcan0 17C#0000000010000012
(1728486080.889324) vcan0 18E#00005C
(1728486080.889327) vcan0 309#0000000000000084
(1728486080.891337) vcan0 183#0000000800001012
(1728486080.891344) vcan0 143#6B6B00D1
(1728486080.893248) vcan0 095#800007F400000008
(1728486080.895313) vcan0 166#D0320018
(1728486080.896424) vcan0 158#0000000000000019
(1728486080.898132) vcan0 161#000005500108001C
(1728486080.898149) vcan0 191#010090A1410003
(1728486080.898152) vcan0 164#0000C01AA8000004
(1728486080.898154) vcan0 133#00000000A7
(1728486080.898156) vcan0 136#000200000000002A
(1728486080.898161) vcan0 13A#0000000000000028
(1728486080.898163) vcan0 13F#000000050000002E
(1728486080.898166) vcan0 17C#0000000010000021
(1728486080.900061) vcan0 18E#00006B
(1728486080.900070) vcan0 1CF#80050000001E
(1728486080.900073) vcan0 1DC#0200001B
(1728486080.900075) vcan0 183#0000000600001023
(1728486080.902028) vcan0 244#0000000145
(1728486080.902056) vcan0 143#6B6B00E0
(1728486080.902063) vcan0 039#0039
(1728486080.903085) vcan0 095#800007F400000017
(1728486080.903094) vcan0 1A4#000000080000003E
(1728486080.904110) vcan0 1AA#7FFF00000000673F
(1728486080.904119) vcan0 1B0#000F0000000175
(1728486080.904122) vcan0 1D0#000000000000000A
(1728486080.905137) vcan0 166#D0320027
(1728486080.906865) vcan0 158#0000000000000028
(1728486080.906875) vcan0 161#000005500108002B
(1728486080.906877) vcan0 191#010090A1410012
(1728486080.908785) vcan0 164#0000C01AA8000013
(1728486080.908793) vcan0 133#00000000B6
(1728486080.908796) vcan0 136#0002000000000039
(1728486080.908798) vcan0 13A#0000000000000037
(1728486080.908800) vcan0 13F#000000050000003D
(1728486080.908803) vcan0 17C#0000000010000030
(1728486080.908805) vcan0 18E#00007A
(1728486080.908807) vcan0 294#040B0002CF5A001D
(1728486080.909823) vcan0 21E#03E83745220610
(1728486080.909837) vcan0 183#0000000400001034
(1728486080.910859) vcan0 143#6B6B00FF
(1728486080.912738) vcan0 095#800007F400000026
(1728486080.915736) vcan0 166#D0320036
(1728486080.915746) vcan0 039#000C
(1728486080.916776) vcan0 158#0000000000000037
(1728486080.916785) vcan0 161#000005500108003A
(1728486080.916788) vcan0 164#0000C01AA8000022
(1728486080.917812) vcan0 244#0000000180
(1728486080.917950) vcan0 191#010090A1410021
(1728486080.917956) vcan0 133#0000000089
(1728486080.917960) vcan0 136#000200000000000C
(1728486080.917980) vcan0 13A#000000000000000A
(1728486080.917983) vcan0 13F#0000000500000000
(1728486080.919051) vcan0 17C#0000000010000003
(1728486080.919059) vcan0 18E#00004D
(1728486080.919061) vcan0 1CF#80050000002D
(1728486080.919063) vcan0 1DC#0200002A
(1728486080.919066) vcan0 183#0000000A00001001
(1728486080.920610) vcan0 143#6B6B00C2
(1728486080.922401) vcan0 095#800007F400000035
(1728486080.923479) vcan0 1A4#0000000800000001
(1728486080.923486) vcan0 1AA#7FFF000000006702
(1728486080.923488) vcan0 1B0#000F0000000148
(1728486080.924498) vcan0 1D0#000000000000000A
(1728486080.925512) vcan0 166#D0320009
(1728486080.926525) vcan0 158#000000000000000A
(1728486080.926531) vcan0 161#000005500108000D
(1728486080.927544) vcan0 191#010090A1410030
(1728486080.927553) vcan0 164#0000C01AA8000031
(1728486080.927556) vcan0 133#0000000098
(1728486080.927558) vcan0 136#000200000000001B
(1728486080.928573) vcan0 13A#0000000000000019
(1728486080.928585) vcan0 13F#000000050000001F
(1728486080.928587) vcan0 17C#0000000010000012
(1728486080.928589) vcan0 18E#00005C
(1728486080.929422) vcan0 244#00000001A6
(1728486080.929812) vcan0 039#001B
(1728486080.929819) vcan0 183#0000000700001013
(1728486080.931223) vcan0 143#6B6B00D1
(1728486080.933150) vcan0 095#800007F400000008
(1728486080.936056) vcan0 166#D0320018
(1728486080.937979) vcan0 158#0000000000000019
(1728486080.937987) vcan0 161#000005500108001C
(1728486080.937989) vcan0 191#010090A1410003
(1728486080.937991) vcan0 164#0000C01AA8000004
(1728486080.937993) vcan0 133#00000000A7
(1728486080.937995) vcan0 136#000200000000002A
(1728486080.937998) vcan0 13A#0000000000000028
(1728486080.938000) vcan0 13F#000000050000002E
(1728486080.940074) vcan0 17C#0000000010000021
(1728486080.940086) vcan0 18E#00006B
(1728486080.940089) vcan0 1CF#80050000003C
(1728486080.940092) vcan0 1DC#02000039
(1728486080.940094) vcan0 183#0000000500001024
(1728486080.940146) vcan0 244#00000001F7
(1728486080.941882) vcan0 143#6B6B00E0
(1728486080.941888) vcan0 333#0000000000000F
(1728486080.943865) vcan0 095#800007F400000017
(1728486080.943870) vcan0 039#002A
(1728486080.943872) vcan0 1A4#0000000800000010
(1728486080.943874) vcan0 305#8017
(1728486080.943877) vcan0 1AA#7FFF000000006810
(1728486080.943879) vcan0 1B0#000F0000000157
(1728486080.943881) vcan0 1D0#000000000000000A
(1728486080.946779) vcan0 166#D0320027
(1728486080.946791) vcan0 158#0000000000000028
(1728486080.946798) vcan0 161#000005500108002B
(1728486080.946801) vcan0 191#010090A1410012
(1728486080.948728) vcan0 18E#00007A
(1728486080.948743) vcan0 133#00000000B6
(1728486080.948745) vcan0 136#0002000000000039
(1728486080.948748) vcan0 13A#0000000000000037
(1728486080.948750) vcan0 13F#000000050000003D
(1728486080.948752) vcan0 164#0000C01AA8000013
(1728486080.948755) vcan0 17C#0000000010000030
(1728486080.948759) vcan0 294#040B0002CF5A002C
(1728486080.950667) vcan0 21E#03E8374522062F
(1728486080.950673) vcan0 183#0000000B0000103D
(1728486080.950675) vcan0 143#6B6B00FF
(1728486080.952223) vcan0 095#800007F400000026
(1728486080.952244) vcan0 244#00000001B3
(1728486080.956180) vcan0 039#0039
(1728486080.956190) vcan0 166#D0320036
(1728486080.958063) vcan0 158#0000000000000037
(1728486080.958069) vcan0 161#000005500108003A
(1728486080.958071) vcan0 191#010010A1410029
(1728486080.958073) vcan0 164#0000C01AA8000022
(1728486080.958075) vcan0 133#0000000089
(1728486080.958078) vcan0 136#000200000000000C
(1728486080.958080) vcan0 13A#000000000000000A
(1728486080.958082) vcan0 13F#0000000500000000
(1728486080.960006) vcan0 17C#0000000010000003
(1728486080.960016) vcan0 18E#00004D
(1728486080.960019) vcan0 1CF#80050000000F
(1728486080.960021) vcan0 1DC#0200000C
(1728486080.960023) vcan0 320#000003
(1728486080.960025) vcan0 183#0000000800001003
(1728486080.960027) vcan0 324#7465000000000E0B
(1728486080.960029) vcan0 37C#FD00FD00097F000B
(1728486080.961964) vcan0 143#6B6B00C2
(1728486080.963240) vcan0 095#800007F400000035
(1728486080.963251) vcan0 1A4#000000080000002F
(1728486080.963253) vcan0 1AA#7FFF00000000682F
(1728486080.964937) vcan0 1B0#000F0000000166
(1728486080.964948) vcan0 1D0#000000000000000A
(1728486080.965031) vcan0 244#0000000165
(1728486080.966782) vcan0 166#D0320009
(1728486080.966791) vcan0 158#000000000000000A
(1728486080.966794) vcan0 161#000005500108000D
(1728486080.966796) vcan0 191#010010A1410038
(1728486080.968801) vcan0 18E#00005C
(1728486080.968808) vcan0 133#0000000098
(1728486080.968811) vcan0 136#000200000000001B
(1728486080.968813) vcan0 13A#0000000000000019
(1728486080.968815) vcan0 13F#000000050000001F
(1728486080.968818) vcan0 164#0000C01AA8000031
(1728486080.968820) vcan0 17C#0000000010000012
(1728486080.970718) vcan0 183#0000000600001014
(1728486080.970725) vcan0 039#000C
(1728486080.970727) vcan0 143#6B6B00D1
(1728486080.972733) vcan0 095#800007F400000008
(1728486080.976609) vcan0 166#D0320018
(1728486080.976619) vcan0 158#0000000000000019
(1728486080.976621) vcan0 161#000005500108001C
(1728486080.977721) vcan0 191#010010A141000B
(1728486080.977727) vcan0 164#0000C01AA8000004
(1728486080.977729) vcan0 133#00000000A7
(1728486080.977731) vcan0 136#000200000000002A
(1728486080.977733) vcan0 13A#0000000000000028
(1728486080.978471) vcan0 244#00000001AD
(1728486080.978938) vcan0 13F#000000050000002E
(1728486080.978945) vcan0 17C#0000000010000021
(1728486080.978947) vcan0 18E#00006B
(1728486080.978949) vcan0 1CF#80050000001E
(1728486080.978953) vcan0 1DC#0200001B
(1728486080.980391) vcan0 183#0000000400001025
(1728486080.981409) vcan0 143#6B6B00E0
(1728486080.983441) vcan0 095#800007F400000017
(1728486080.983455) vcan0 1A4#000000080000003E
(1728486080.983460) vcan0 039#001B
(1728486080.983463) vcan0 1AA#7FFF00000000673F
(1728486080.985289) vcan0 1B0#000F0000000175
(1728486080.985294) vcan0 1D0#000000000000000A
(1728486080.985296) vcan0 166#D0320027
(1728486080.986309) vcan0 158#0000000000000028
(1728486080.988198) vcan0 161#000005500108002B
(1728486080.988204) vcan0 191#010010A141001A
(1728486080.988206) vcan0 164#0000C01AA8000013
(1728486080.988208) vcan0 133#00000000B6
(1728486080.988210) vcan0 136#0002000000000039
(1728486080.988212) vcan0 13A#0000000000000037
(1728486080.988214) vcan0 13F#000000050000003D
(1728486080.988216) vcan0 17C#0000000010000030
(1728486080.989230) vcan0 18E#00007A
(1728486080.989236) vcan0 294#040B0002CF5A003B
(1728486080.989238) vcan0 21E#03E8374522063E
(1728486080.989240) vcan0 309#0000000000000093
(1728486080.991116) vcan0 183#0000000300001035
(1728486080.991122) vcan0 143#6B6B00FF
(1728486080.992131) vcan0 095#800007F400000026
(1728486080.994262) vcan0 244#00000001F5
(1728486080.995291) vcan0 166#D0320036
(1728486080.996311) vcan0 158#0000000000000037
(1728486080.997939) vcan0 161#000005500108003A
(1728486080.997943) vcan0 039#002A
(1728486080.997951) vcan0 191#010010A1410029
(1728486080.997953) vcan0 164#0000C01AA8000022
(1728486080.997957) vcan0 133#0000000089
(1728486080.997959) vcan0 136#000200000000000C
(1728486080.997961) vcan0 13A#000000000000000A
(1728486080.997963) vcan0 13F#0000000500000000
(1728486080.999061) vcan0 17C#0000000010000003
(1728486080.999066) vcan0 18E#00004D
(1728486080.999068) vcan0 1CF#80050000002D
(1728486080.999070) vcan0 1DC#0200002A
(1728486080.999072) vcan0 183#0000000A00001001
(1728486081.001816) vcan0 143#6B6B00C2
(1728486081.003766) vcan0 095#800007F400000035
(1728486081.003770) vcan0 1A4#0000000800000001
(1728486081.003773) vcan0 1AA#7FFF000000006702
(1728486081.003775) vcan0 1B0#000F0000000148
(1728486081.003779) vcan0 1D0#000000000000000A
(1728486081.005791) vcan0 166#D0320009
(1728486081.007659) vcan0 158#000000000000000A
(1728486081.007663) vcan0 161#000005500108000D
(1728486081.007665) vcan0 191#010010A1410038
(1728486081.007668) vcan0 18E#00005C
(1728486081.007670) vcan0 133#0000000098
(1728486081.007672) vcan0 136#000200000000001B
(1728486081.007674) vcan0 13A#0000000000000019
(1728486081.008688) vcan0 13F#000000050000001F
(1728486081.008694) vcan0 164#0000C01AA8000031
(1728486081.008696) vcan0 17C#0000000010000012
(1728486081.010718) vcan0 244#00000001E6
(1728486081.010736) vcan0 183#0000000700001013
(1728486081.010741) vcan0 143#6B6B00D1
(1728486081.013466) vcan0 095#800007F400000008
(1728486081.013477) vcan0 039#0039
(1728486081.017415) vcan0 166#D0320018
(1728486081.017422) vcan0 158#0000000000000019
(1728486081.017424) vcan0 161#000005500108001C
(1728486081.017426) vcan0 191#010010A141000B
(1728486081.017428) vcan0 164#0000C01AA8000004
(1728486081.017430) vcan0 133#00000000A7
(1728486081.017432) vcan0 136#000200000000002A
(1728486081.018443) vcan0 13A#0000000000000028
(1728486081.018449) vcan0 13F#000000050000002E
(1728486081.018451) vcan0 17C#0000000010000021
(1728486081.018454) vcan0 18E#00006B
(1728486081.018456) vcan0 1CF#80050000003C
(1728486081.019463) vcan0 1DC#02000039
(1728486081.019469) vcan0 183#0000000500001024
(1728486081.021488) vcan0 143#6B6B00E0
(1728486081.022427) vcan0 244#0000000140
(1728486081.022504) vcan0 095#800007F400000017
(1728486081.024202) vcan0 1A4#0000000800000010
(1728486081.024211) vcan0 1AA#7FFF000000006810
(1728486081.024213) vcan0 1B0#000F0000000157
(1728486081.024215) vcan0 1D0#000000000000000A
(1728486081.025222) vcan0 166#D0320027
(1728486081.027137) vcan0 039#000C
(1728486081.027147) vcan0 158#0000000000000028
(1728486081.027149) vcan0 161#000005500108002B
(1728486081.027151) vcan0 191#010010A141001A
(1728486081.027153) vcan0 164#0000C01AA8000013
(1728486081.028168) vcan0 133#00000000B6
(1728486081.028177) vcan0 136#0002000000000039
(1728486081.028179) vcan0 13A#0000000000000037
(1728486081.028181) vcan0 13F#000000050000003D
(1728486081.029199) vcan0 17C#0000000010000030
(1728486081.029210) vcan0 18E#00007A
(1728486081.029212) vcan0 294#040B0002CF5A000E
(1728486081.029214) vcan0 21E#03E83745220601
(1728486081.030229) vcan0 183#0000000300001035
(1728486081.031242) vcan0 143#6B6B00FF
(1728486081.032971) vcan0 244#0000000109
(1728486081.032980) vcan0 095#800007F400000026
(1728486081.035033) vcan0 166#D0320036
(1728486081.036845) vcan0 158#0000000000000037
(1728486081.036852) vcan0 161#000005500108003A
(1728486081.036854) vcan0 191#010010A1410029
(1728486081.037923) vcan0 18E#00004D
(1728486081.037930) vcan0 133#0000000089
(1728486081.037932) vcan0 136#000200000000000C
(1728486081.037934) vcan0 13A#000000000000000A
(1728486081.037937) vcan0 13F#0000000500000000
(1728486081.038947) vcan0 164#0000C01AA8000022
(1728486081.038952) vcan0 17C#0000000010000003
(1728486081.038955) vcan0 1CF#80050000000F
(1728486081.038957) vcan0 1DC#0200000C
(1728486081.039977) vcan0 183#0000000200001009
(1728486081.041707) vcan0 143#6B6B00C2
(1728486081.041712) vcan0 333#0000000000001E
(1728486081.042723) vcan0 095#800007F400000035
(1728486081.044350) vcan0 1A4#000000080000002F
(1728486081.044363) vcan0 1AA#7FFF00000000682F
(1728486081.044365) vcan0 1B0#000F0000000166
(1728486081.044369) vcan0 039#001B
(1728486081.044371) vcan0 1D0#000000000000000A
(1728486081.045719) vcan0 305#8026
(1728486081.045726) vcan0 166#D0320009
(1728486081.046736) vcan0 158#000000000000000A
(1728486081.046741) vcan0 161#000005500108000D
(1728486081.046748) vcan0 191#010010A1410038
(1728486081.048632) vcan0 244#00000001BD
(1728486081.048640) vcan0 18E#00005C
(1728486081.048643) vcan0 133#0000000098
(1728486081.048645) vcan0 136#000200000000001B
(1728486081.048648) vcan0 13A#0000000000000019
(1728486081.048650) vcan0 13F#000000050000001F
(1728486081.048653) vcan0 164#0000C01AA8000031
(1728486081.048655) vcan0 17C#0000000010000012
(1728486081.049664) vcan0 183#0000000900001011
(1728486081.050678) vcan0 143#6B6B00D1
(1728486081.052522) vcan0 095#800007F400000008
(1728486081.055471) vcan0 166#D0320018
(1728486081.057338) vcan0 158#0000000000000019
(1728486081.057347) vcan0 161#000005500108001C
(1728486081.057349) vcan0 191#010010A141000B
(1728486081.057351) vcan0 164#0000C01AA8000004
(1728486081.057353) vcan0 133#00000000A7
(1728486081.058364) vcan0 136#000200000000002A
(1728486081.058371) vcan0 13A#0000000000000028
(1728486081.058374) vcan0 13F#000000050000002E
(1728486081.058376) vcan0 17C#0000000010000021
(1728486081.058378) vcan0 18E#00006B
(1728486081.060328) vcan0 244#0000000168
(1728486081.060344) vcan0 1CF#80050000001E
(1728486081.060351) vcan0 039#002A
(1728486081.060353) vcan0 1DC#0200001B
(1728486081.060355) vcan0 320#000012
(1728486081.060357) vcan0 183#0000000600001023
(1728486081.060359) vcan0 324#7465000000000E1A
(1728486081.060361) vcan0 37C#FD00FD00097F001A
(1728486081.060364) vcan0 40C#0236323239533039
(1728486081.060366) vcan0 454#23EF36
(1728486081.061384) vcan0 143#6B6B00E0
(1728486081.062410) vcan0 095#800007F400000017
(1728486081.063424) vcan0 1A4#000000080000003E
(1728486081.063431) vcan0 1AA#7FFF00000000673F
(1728486081.064439) vcan0 1B0#000F0000000175
(1728486081.064446) vcan0 1D0#000000000000000A
(1728486081.065459) vcan0 166#D0320027
(1728486081.066476) vcan0 158#0000000000000028
(1728486081.066482) vcan0 161#000005500108002B
(1728486081.068067) vcan0 191#010010A141001A
(1728486081.068073) vcan0 133#00000000B6
(1728486081.068075) vcan0 136#0002000000000039
(1728486081.068078) vcan0 13A#0000000000000037
(1728486081.068080) vcan0 13F#000000050000003D
(1728486081.068082) vcan0 164#0000C01AA8000013
(1728486081.069092) vcan0 17C#0000000010000030
(1728486081.069098) vcan0 18E#00007A
(1728486081.069100) vcan0 294#040B0002CF5A001D
(1728486081.069102) vcan0 21E#03E83745220610
(1728486081.070984) vcan0 244#000000016C
(1728486081.070996) vcan0 183#0000000400001034
(1728486081.071001) vcan0 143#6B6B00FF
(1728486081.073028) vcan0 095#800007F400000026
(1728486081.073037) vcan0 039#0039
(1728486081.075879) vcan0 166#D0320036
(1728486081.077096) vcan0 158#0000000000000037
(1728486081.077105) vcan0 161#000005500108003A
(1728486081.077107) vcan0 191#010010A1410029
(1728486081.077109) vcan0 164#0000C01AA8000022
(1728486081.077112) vcan0 133#0000000089
(1728486081.078749) vcan0 136#000200000000000C
(1728486081.078760) vcan0 13A#000000000000000A
(1728486081.078762) vcan0 13F#0000000500000000
(1728486081.078764) vcan0 17C#0000000010000003
(1728486081.078767) vcan0 18E#00004D
(1728486081.078769) vcan0 1CF#80050000002D
(1728486081.078771) vcan0 1DC#0200002A
(1728486081.080808) vcan0 183#0000000A00001001
(1728486081.080820) vcan0 143#6B6B00C2
(1728486081.082840) vcan0 095#800007F400000035
(1728486081.084690) vcan0 1A4#0000000800000001
(1728486081.084701) vcan0 1AA#7FFF000000006702
(1728486081.084703) vcan0 1B0#000F0000000148
(1728486081.084705) vcan0 1D0#000000000000000A
(1728486081.085721) vcan0 166#D0320009
(1728486081.086694) vcan0 244#0000000148
(1728486081.086735) vcan0 158#000000000000000A
(1728486081.086739) vcan0 161#000005500108000D
(1728486081.086741) vcan0 039#000C
(1728486081.087755) vcan0 191#010010A1410038
(1728486081.087763) vcan0 164#0000C01AA8000031
(1728486081.087765) vcan0 133#0000000098
(1728486081.087767) vcan0 136#000200000000001B
(1728486081.087769) vcan0 13A#0000000000000019
(1728486081.088782) vcan0 13F#000000050000001F
(1728486081.088788) vcan0 17C#0000000010000012
(1728486081.088790) vcan0 18E#00005C
(1728486081.088792) vcan0 309#00000000000000A2
(1728486081.090504) vcan0 428#01040000521C01
(1728486081.090511) vcan0 405#000004000000000B
(1728486081.090513) vcan0 183#0000000700001013
(1728486081.090515) vcan0 143#6B6B00D1
(1728486081.092450) vcan0 095#800007F400000008
(1728486081.095491) vcan0 166#D0320018
(1728486081.096516) vcan0 158#0000000000000019
(1728486081.096528) vcan0 161#000005500108001C
(1728486081.097471) vcan0 244#000000012B
(1728486081.097538) vcan0 191#010010A141000B
(1728486081.097542) vcan0 164#0000C01AA8000004
(1728486081.097544) vcan0 133#00000000A7
(1728486081.097546) vcan0 136#000200000000002A
(1728486081.098559) vcan0 13A#0000000000000028
(1728486081.098568) vcan0 13F#000000050000002E
(1728486081.098570) vcan0 17C#0000000010000021
(1728486081.098572) vcan0 18E#00006B
(1728486081.098575) vcan0 1CF#80050000003C
(1728486081.100233) vcan0 1DC#02000039
(1728486081.100240) vcan0 183#0000000500001024
(1728486081.100242) vcan0 039#001B
(1728486081.101257) vcan0 143#6B6B00E0
(1728486081.102272) vcan0 095#800007F400000017
(1728486081.103284) vcan0 1A4#0000000800000010
(1728486081.103292) vcan0 1AA#7FFF000000006810
(1728486081.104305) vcan0 1B0#000F0000000157
(1728486081.104310) vcan0 1D0#000000000000000A
(1728486081.105339) vcan0 166#D0320027
(1728486081.106360) vcan0 158#0000000000000028
(1728486081.108032) vcan0 244#00000001B6
(1728486081.108046) vcan0 161#000005500108002B
(1728486081.108050) vcan0 191#010010A141001A
(1728486081.108052) vcan0 164#0000C01AA8000013
(1728486081.108054) vcan0 133#00000000B6
(1728486081.108056) vcan0 136#0002000000000039
(1728486081.108059) vcan0 13A#0000000000000037
(1728486081.108061) vcan0 13F#000000050000003D
(1728486081.109073) vcan0 17C#0000000010000030
(1728486081.109080) vcan0 18E#00007A
(1728486081.109082) vcan0 294#040B0002CF5A002C
(1728486081.109085) vcan0 21E#03E8374522062F
(1728486081.110095) vcan0 183#0000000B0000103D
(1728486081.111118) vcan0 143#6B6B00FF
(1728486081.113154) vcan0 095#800007F400000026
(1728486081.114829) vcan0 039#002A
(1728486081.116772) vcan0 166#D0320036
(1728486081.116778) vcan0 158#0000000000000037
(1728486081.116780) vcan0 161#000005500108003A
(1728486081.116782) vcan0 191#010010A1410029
(1728486081.118727) vcan0 164#0000C01AA8000022
(1728486081.118734) vcan0 133#0000000089
(1728486081.118737) vcan0 136#000200000000000C
(1728486081.118739) vcan0 13A#000000000000000A
(1728486081.118742) vcan0 13F#0000000500000000
(1728486081.118745) vcan0 17C#0000000010000003
(1728486081.118747) vcan0 18E#00004D
(1728486081.118749) vcan0 1CF#80050000000F
(1728486081.118752) vcan0 1DC#0200000C
(1728486081.119989) vcan0 183#0000000800001003
(1728486081.121648) vcan0 143#6B6B00C2
(1728486081.122670) vcan0 095#800007F400000035
(1728486081.123684) vcan0 1A4#000000080000002F
(1728486081.123692) vcan0 1AA#7FFF00000000682F
(1728486081.123694) vcan0 1B0#000F0000000166
(1728486081.123696) vcan0 1D0#000000000000000A
(1728486081.123750) vcan0 244#000000014B
(1728486081.125716) vcan0 166#D0320009
(1728486081.126733) vcan0 158#000000000000000A
(1728486081.126742) vcan0 161#000005500108000D
(1728486081.126744) vcan0 191#010010A1410038
(1728486081.127761) vcan0 164#0000C01AA8000031
(1728486081.127770) vcan0 133#0000000098
(1728486081.127772) vcan0 136#000200000000001B
(1728486081.127775) vcan0 039#0039
(1728486081.128791) vcan0 13A#0000000000000019
(1728486081.128798) vcan0 13F#000000050000001F
(1728486081.128801) vcan0 17C#0000000010000012
(1728486081.128803) vcan0 18E#00005C
(1728486081.130395) vcan0 183#0000000D0000101D
(1728486081.131408) vcan0 143#6B6B00D1
(1728486081.132424) vcan0 095#800007F400000008
(1728486081.133802) vcan0 244#000000012E
(1728486081.135469) vcan0 166#D0320018
(1728486081.136489) vcan0 158#0000000000000019
(1728486081.136496) vcan0 161#000005500108001C
(1728486081.137508) vcan0 191#010010A141000B
(1728486081.137515) vcan0 164#0000C01AA8000004
(1728486081.137517) vcan0 133#00000000A7
(1728486081.137519) vcan0 136#000200000000002A
(1728486081.138534) vcan0 13A#0000000000000028
(1728486081.138540) vcan0 13F#000000050000002E
(1728486081.138542) vcan0 17C#0000000010000021
(1728486081.138545) vcan0 18E#00006B
(1728486081.139558) vcan0 1CF#80050000001E
(1728486081.139564) vcan0 1DC#0200001B
(1728486081.139566) vcan0 183#0000000900001020
(1728486081.140580) vcan0 143#6B6B00E0
(1728486081.142075) vcan0 333#0000000000002D
(1728486081.142083) vcan0 039#000C
(1728486081.144392) vcan0 095#800007F400000017
(1728486081.144402) vcan0 1A4#000000080000003E
(1728486081.144405) vcan0 1AA#7FFF00000000673F
(1728486081.144407) vcan0 1B0#000F0000000175
(1728486081.144409) vcan0 1D0#000000000000000A
(1728486081.146126) vcan0 166#D0320027
(1728486081.147146) vcan0 158#0000000000000028
(1728486081.147161) vcan0 161#000005500108002B
(1728486081.147164) vcan0 191#010010A141001A
(1728486081.147185) vcan0 18E#00007A
(1728486081.147188) vcan0 133#00000000B6
(1728486081.148336) vcan0 136#0002000000000039
(1728486081.148349) vcan0 13A#0000000000000037
(1728486081.148395) vcan0 13F#000000050000003D
(1728486081.148400) vcan0 164#0000C01AA8000013
(1728486081.148402) vcan0 17C#0000000010000030
(1728486081.150039) vcan0 244#00000001EA
(1728486081.150049) vcan0 294#040B0002CF5A003B
(1728486081.150051) vcan0 305#8035
(1728486081.150054) vcan0 21E#03E8374522063E
(1728486081.150056) vcan0 183#0000000600001032
(1728486081.151073) vcan0 143#6B6B00FF
(1728486081.153104) vcan0 095#800007F400000026
(1728486081.155284) vcan0 166#D0320036
(1728486081.156850) vcan0 039#001B
(1728486081.156862) vcan0 158#0000000000000037
(1728486081.156864) vcan0 161#000005500108003A
(1728486081.156866) vcan0 191#010010A1410029
(1728486081.157874) vcan0 164#0000C01AA8000022
(1728486081.157881) vcan0 133#0000000089
(1728486081.157883) vcan0 136#000200000000000C
(1728486081.157885) vcan0 13A#000000000000000A
(1728486081.158902) vcan0 13F#0000000500000000
(1728486081.158911) vcan0 17C#0000000010000003
(1728486081.158914) vcan0 18E#00004D
(1728486081.158916) vcan0 1CF#80050000002D
(1728486081.158918) vcan0 1DC#0200002A
(1728486081.158921) vcan0 320#000021
(1728486081.160403) vcan0 183#0000000C0000100F
(1728486081.160412) vcan0 324#7465000000000E29
(1728486081.160414) vcan0 37C#FD00FD00097F0029
(1728486081.161503) vcan0 143#6B6B00C2
(1728486081.162702) vcan0 095#800007F400000035
(1728486081.164631) vcan0 1A4#0000000800000001
(1728486081.164638) vcan0 1AA#7FFF000000006702
(1728486081.164641) vcan0 1B0#000F0000000148
(1728486081.164643) vcan0 1D0#000000000000000A
(1728486081.166615) vcan0 166#D0320009
(1728486081.166628) vcan0 158#000000000000000A
(1728486081.166630) vcan0 161#000005500108000D
(1728486081.166739) vcan0 244#000000017D
(1728486081.167689) vcan0 191#010010A1410038
(1728486081.167699) vcan0 18E#00005C
(1728486081.167702) vcan0 133#0000000098
(1728486081.167704) vcan0 136#000200000000001B
(1728486081.167707) vcan0 13A#0000000000000019
(1728486081.169010) vcan0 13F#000000050000001F
(1728486081.169023) vcan0 164#0000C01AA8000031
(1728486081.169026) vcan0 17C#0000000010000012
(1728486081.170483) vcan0 183#0000000900001011
(1728486081.170489) vcan0 143#6B6B00D1
(1728486081.172433) vcan0 095#800007F400000008
(1728486081.175692) vcan0 166#D0320018
(1728486081.177518) vcan0 158#0000000000000019
(1728486081.177533) vcan0 161#000005500108001C
(1728486081.177535) vcan0 039#002A
(1728486081.177538) vcan0 164#0000C01AA8000004
(1728486081.177542) vcan0 191#010010A141000B
(1728486081.177545) vcan0 133#00000000A7
(1728486081.177547) vcan0 136#000200000000002A
(1728486081.179254) vcan0 13A#0000000000000028
(1728486081.179266) vcan0 13F#000000050000002E
(1728486081.179268) vcan0 17C#0000000010000021
(1728486081.179270) vcan0 18E#00006B
(1728486081.179273) vcan0 1CF#80050000003C
(1728486081.179275) vcan0 1DC#02000039
(1728486081.179278) vcan0 183#0000000E0000102B
(1728486081.181167) vcan0 244#000000016C
(1728486081.181367) vcan0 143#6B6B00E0
(1728486081.182699) vcan0 095#800007F400000017
(1728486081.184152) vcan0 1A4#0000000800000010
(1728486081.184164) vcan0 1AA#7FFF000000006810
(1728486081.184167) vcan0 1B0#000F0000000157
(1728486081.184169) vcan0 1D0#000000000000000A
(1728486081.186048) vcan0 166#D0320027
(1728486081.187080) vcan0 158#0000000000000028
(1728486081.187088) vcan0 161#000005500108002B
(1728486081.187091) vcan0 191#010010A141001A
(1728486081.187094) vcan0 164#0000C01AA8000013
(1728486081.188840) vcan0 133#00000000B6
(1728486081.188853) vcan0 136#0002000000000039
(1728486081.188856) vcan0 13A#0000000000000037
(1728486081.188858) vcan0 13F#000000050000003D
(1728486081.188860) vcan0 17C#0000000010000030
(1728486081.188873) vcan0 18E#00007A
(1728486081.188875) vcan0 294#040B0002CF5A000E
(1728486081.188878) vcan0 21E#03E83745220601
(1728486081.190911) vcan0 309#00000000000000B1
(1728486081.190921) vcan0 183#0000000A0000103E
(1728486081.190923) vcan0 039#0039
(1728486081.190926) vcan0 143#6B6B00FF
(1728486081.193849) vcan0 095#800007F400000026
(1728486081.195525) vcan0 166#D0320036
(1728486081.196050) vcan0 244#00000001B1
(1728486081.196691) vcan0 158#0000000000000037
(1728486081.196724) vcan0 161#000005500108003A
(1728486081.196731) vcan0 191#010010A1410029
(1728486081.198684) vcan0 164#0000C01AA8000022
(1728486081.198694) vcan0 133#0000000089
(1728486081.198696) vcan0 136#000200000000000C
(1728486081.198699) vcan0 13A#000000000000000A
(1728486081.198701) vcan0 13F#0000000500000000
(1728486081.198703) vcan0 17C#0000000010000003
(1728486081.198706) vcan0 18E#00004D
(1728486081.198708) vcan0 1CF#80050000000F
(1728486081.198711) vcan0 1DC#0200000C
(1728486081.200630) vcan0 183#0000000700001004
(1728486081.200639) vcan0 143#6B6B00C2
(1728486081.202717) vcan0 095#800007F400000035
(1728486081.204545) vcan0 1A4#000000080000002F
(1728486081.204557) vcan0 1AA#7FFF00000000682F
(1728486081.204559) vcan0 1B0#000F0000000166
(1728486081.204562) vcan0 039#000C
(1728486081.204564) vcan0 1D0#000000000000000A
(1728486081.205625) vcan0 166#D0320009
(1728486081.207461) vcan0 158#000000000000000A
(1728486081.207468) vcan0 161#000005500108000D
(1728486081.207470) vcan0 191#010010A1410038
(1728486081.207472) vcan0 18E#00005C
(1728486081.207474) vcan0 133#0000000098
(1728486081.207476) vcan0 136#000200000000001B
(1728486081.208455) vcan0 244#000000019F
(1728486081.208514) vcan0 13A#0000000000000019
(1728486081.208524) vcan0 13F#000000050000001F
(1728486081.208526) vcan0 164#0000C01AA8000031
(1728486081.208529) vcan0 17C#0000000010000012
(1728486081.210128) vcan0 183#0000000D0000101D
(1728486081.211171) vcan0 143#6B6B00D1
(1728486081.212290) vcan0 095#800007F400000008
(1728486081.215306) vcan0 166#D0320018
(1728486081.216328) vcan0 158#0000000000000019
(1728486081.217450) vcan0 161#000005500108001C
(1728486081.217476) vcan0 191#010010A141000B
(1728486081.217479) vcan0 164#0000C01AA8000004
(1728486081.217481) vcan0 133#00000000A7
(1728486081.217484) vcan0 136#000200000000002A
(1728486081.219110) vcan0 13A#0000000000000028
(1728486081.219123) vcan0 13F#000000050000002E
(1728486081.219126) vcan0 17C#0000000010000021
(1728486081.219128) vcan0 18E#00006B
(1728486081.219131) vcan0 1CF#80050000001E
(1728486081.219133) vcan0 1DC#0200001B
(1728486081.219135) vcan0 183#0000000900001020
(1728486081.219324) vcan0 244#0000000164
(1728486081.220147) vcan0 039#001B
(1728486081.221164) vcan0 143#6B6B00E0
(1728486081.222975) vcan0 095#800007F400000017
(1728486081.224076) vcan0 1A4#000000080000003E
(1728486081.224089) vcan0 1AA#7FFF00000000673F
(1728486081.224092) vcan0 1B0#000F0000000175
(1728486081.224094) vcan0 1D0#000000000000000A
(1728486081.225119) vcan0 166#D0320027
(1728486081.227145) vcan0 158#0000000000000028
(1728486081.227151) vcan0 161#000005500108002B
(1728486081.227154) vcan0 191#010010A141001A
(1728486081.227156) vcan0 164#0000C01AA8000013
(1728486081.228525) vcan0 133#00000000B6
(1728486081.228554) vcan0 136#0002000000000039
(1728486081.228557) vcan0 13A#0000000000000037
(1728486081.228559) vcan0 13F#000000050000003D
(1728486081.228562) vcan0 17C#0000000010000030
(1728486081.228564) vcan0 18E#00007A
(1728486081.228567) vcan0 294#040B0002CF5A001D
(1728486081.229966) vcan0 244#000000011A
(1728486081.229994) vcan0 21E#03E83745220610
(1728486081.230001) vcan0 183#0000000600001032
(1728486081.231501) vcan0 143#6B6B00FF
(1728486081.232804) vcan0 095#800007F400000026
(1728486081.235717) vcan0 166#D0320036
(1728486081.237031) vcan0 158#0000000000000037
(1728486081.237040) vcan0 161#000005500108003A
(1728486081.237043) vcan0 191#010010A1410029
(1728486081.237045) vcan0 164#0000C01AA8000022
(1728486081.238574) vcan0 133#0000000089
(1728486081.238584) vcan0 136#000200000000000C
(1728486081.238587) vcan0 13A#000000000000000A
(1728486081.238589) vcan0 13F#0000000500000000
(1728486081.238591) vcan0 17C#0000000010000003
(1728486081.238593) vcan0 18E#00004D
(1728486081.238595) vcan0 1CF#80050000002D
(1728486081.238598) vcan0 1DC#0200002A
(1728486081.240583) vcan0 183#0000000C0000100F
(1728486081.240594) vcan0 039#002A
(1728486081.240597) vcan0 143#6B6B00C2
(1728486081.241626) vcan0 244#0000000182
(1728486081.241733) vcan0 333#0000000000003C
(1728486081.243841) vcan0 095#800007F400000035
(1728486081.243859) vcan0 1A4#0000000800000001
(1728486081.243864) vcan0 1AA#7FFF000000006702
(1728486081.243868) vcan0 1B0#000F0000000148
(1728486081.243873) vcan0 1D0#000000000000000A
(1728486081.244974) vcan0 166#D0320009
(1728486081.247445) vcan0 158#000000000000000A
(1728486081.247458) vcan0 161#000005500108000D
(1728486081.247465) vcan0 191#010010A1410038
(1728486081.247467) vcan0 18E#00005C
(1728486081.247470) vcan0 133#0000000098
(1728486081.247472) vcan0 136#000200000000001B
(1728486081.249277) vcan0 13A#0000000000000019
(1728486081.249290) vcan0 13F#000000050000001F
(1728486081.249293) vcan0 164#0000C01AA8000031
(1728486081.249295) vcan0 17C#0000000010000012
(1728486081.250707) vcan0 183#0000000900001011
(1728486081.250713) vcan0 143#6B6B00D1
(1728486081.252227) vcan0 305#8008
(1728486081.252241) vcan0 095#800007F400000008
(1728486081.253187) vcan0 244#0000000115
(1728486081.255135) vcan0 166#D0320018
(1728486081.257055) vcan0 158#0000000000000019
(1728486081.257061) vcan0 161#000005500108001C
(1728486081.257063) vcan0 191#010090A1410003
(1728486081.257066) vcan0 164#0000C01AA8000004
(1728486081.258333) vcan0 133#00000000A7
(1728486081.258344) vcan0 136#000200000000002A
(1728486081.258347) vcan0 13A#0000000000000028
(1728486081.258349) vcan0 13F#000000050000002E
(1728486081.258351) vcan0 17C#0000000010000021
(1728486081.258354) vcan0 18E#00006B
(1728486081.260010) vcan0 1CF#80050000003C
(1728486081.260019) vcan0 1DC#02000039
(1728486081.260022) vcan0 320#000030
(1728486081.260024) vcan0 324#7465000000000E38
(1728486081.260026) vcan0 183#0000000E0000102B
(1728486081.260029) vcan0 37C#FD00FD00097F0038
(1728486081.260031) vcan0 039#0039
(1728486081.261925) vcan0 143#6B6B00E0
(1728486081.263021) vcan0 095#800007F400000017
(1728486081.263031) vcan0 1A4#0000000800000010
(1728486081.263874) vcan0 244#00000001ED
